# Version 1.00
#
freq[Hz];db:Trc4_S11;ang:Trc4_S11;
1.000000000000000E+09;-1.280230268504726E+00;1.578815245759072E+02;
1.001000000000000E+09;-1.304468938610477E+00;1.573982405899780E+02;
1.002000000000000E+09;-1.330999819412369E+00;1.569237385565100E+02;
1.003000000000000E+09;-1.355612734878809E+00;1.564517217653913E+02;
1.004000000000000E+09;-1.384945957785829E+00;1.559388384720611E+02;
1.005000000000000E+09;-1.411444178611679E+00;1.554848385018777E+02;
1.006000000000000E+09;-1.439497937487797E+00;1.549502024995018E+02;
1.007000000000000E+09;-1.473863152577741E+00;1.544585565827447E+02;
1.008000000000000E+09;-1.506017595980266E+00;1.539780398272134E+02;
1.009000000000000E+09;-1.536982774544579E+00;1.534533961382423E+02;
1.010000000000000E+09;-1.573033090112364E+00;1.529063672580078E+02;
1.011000000000000E+09;-1.614666398606437E+00;1.523630366493912E+02;
1.012000000000000E+09;-1.652143669894296E+00;1.518117966801293E+02;
1.013000000000000E+09;-1.690449827171847E+00;1.512684631167722E+02;
1.014000000000000E+09;-1.730674339373317E+00;1.506946099420272E+02;
1.015000000000000E+09;-1.773813545336885E+00;1.501456447481103E+02;
1.016000000000000E+09;-1.815589601375411E+00;1.495779562086229E+02;
1.017000000000000E+09;-1.856271483114585E+00;1.489770626550184E+02;
1.018000000000000E+09;-1.903319301704097E+00;1.483833749059062E+02;
1.019000000000000E+09;-1.950880186476541E+00;1.478030072265152E+02;
1.020000000000000E+09;-1.995635891463733E+00;1.472109327633529E+02;
1.021000000000000E+09;-2.042305021871806E+00;1.465823830893897E+02;
1.022000000000000E+09;-2.089331063010885E+00;1.459572366702012E+02;
1.023000000000000E+09;-2.140798016455049E+00;1.453416119781226E+02;
1.024000000000000E+09;-2.191081416153319E+00;1.447276571484249E+02;
1.025000000000000E+09;-2.244868135054939E+00;1.440742403822506E+02;
1.026000000000000E+09;-2.298058725818893E+00;1.434146038502233E+02;
1.027000000000000E+09;-2.348124917125980E+00;1.428064613955796E+02;
1.028000000000000E+09;-2.403583337223163E+00;1.421331477437789E+02;
1.029000000000000E+09;-2.453033413909707E+00;1.415168664587093E+02;
1.030000000000000E+09;-2.508897086735521E+00;1.408572989194012E+02;
1.031000000000000E+09;-2.565128236973712E+00;1.402492602746655E+02;
1.032000000000000E+09;-2.618595257892620E+00;1.395819256927664E+02;
1.033000000000000E+09;-2.672767566081562E+00;1.389131654433743E+02;
1.034000000000000E+09;-2.726694390714279E+00;1.382968668867515E+02;
1.035000000000000E+09;-2.780440345140075E+00;1.376567125204112E+02;
1.036000000000000E+09;-2.834793167835976E+00;1.370279534975213E+02;
1.037000000000000E+09;-2.891472480832212E+00;1.363736605153831E+02;
1.038000000000000E+09;-2.943587679222366E+00;1.357545272464445E+02;
1.039000000000000E+09;-2.996185577334025E+00;1.351331505248406E+02;
1.040000000000000E+09;-3.053433191792541E+00;1.344866035284800E+02;
1.041000000000000E+09;-3.106256007980894E+00;1.338742625425546E+02;
1.042000000000000E+09;-3.162071253464633E+00;1.333046614969114E+02;
1.043000000000000E+09;-3.213795855950204E+00;1.326818798520934E+02;
1.044000000000000E+09;-3.261218898033591E+00;1.320914201912608E+02;
1.045000000000000E+09;-3.313885788172739E+00;1.315347645612811E+02;
1.046000000000000E+09;-3.361898850978792E+00;1.309648940054738E+02;
1.047000000000000E+09;-3.414393568019110E+00;1.303456757544187E+02;
1.048000000000000E+09;-3.462809966251180E+00;1.297824199109386E+02;
1.049000000000000E+09;-3.515940047594243E+00;1.292645777451773E+02;
1.050000000000000E+09;-3.560866114542572E+00;1.286864820614976E+02;
1.051000000000000E+09;-3.611807999272431E+00;1.281664873958119E+02;
1.052000000000000E+09;-3.660366588878643E+00;1.276109066526141E+02;
1.053000000000000E+09;-3.713454402233213E+00;1.271019422579168E+02;
1.054000000000000E+09;-3.760071759601903E+00;1.265495942442430E+02;
1.055000000000000E+09;-3.803310900737251E+00;1.260395314316477E+02;
1.056000000000000E+09;-3.854575011623360E+00;1.255705415586427E+02;
1.057000000000000E+09;-3.900473373891771E+00;1.250790467240018E+02;
1.058000000000000E+09;-3.952895610818384E+00;1.245641817668110E+02;
1.059000000000000E+09;-4.000957024703492E+00;1.240954639637380E+02;
1.060000000000000E+09;-4.050942763862722E+00;1.236049432850420E+02;
1.061000000000000E+09;-4.103731785663761E+00;1.231112318115762E+02;
1.062000000000000E+09;-4.152736139767578E+00;1.226173810957027E+02;
1.063000000000000E+09;-4.208533501615013E+00;1.221858506646879E+02;
1.064000000000000E+09;-4.259860424112827E+00;1.217352366512944E+02;
1.065000000000000E+09;-4.319087059556042E+00;1.212747729523945E+02;
1.066000000000000E+09;-4.376481571563483E+00;1.207998921980222E+02;
1.067000000000000E+09;-4.432992812401722E+00;1.203482737402946E+02;
1.068000000000000E+09;-4.496543265261701E+00;1.199257688849006E+02;
1.069000000000000E+09;-4.556490000196729E+00;1.194529498431297E+02;
1.070000000000000E+09;-4.623599233131644E+00;1.189739765656841E+02;
1.071000000000000E+09;-4.693439774245646E+00;1.185313793015606E+02;
1.072000000000000E+09;-4.766541832937002E+00;1.180614907082768E+02;
1.073000000000000E+09;-4.843065208919398E+00;1.175577533502265E+02;
1.074000000000000E+09;-4.927420404192332E+00;1.171366477817858E+02;
1.075000000000000E+09;-5.018781181998322E+00;1.166751569358611E+02;
1.076000000000000E+09;-5.107147010393060E+00;1.162362468768485E+02;
1.077000000000000E+09;-5.200649646094284E+00;1.157484693832242E+02;
1.078000000000000E+09;-5.298310215281077E+00;1.153066316028282E+02;
1.079000000000000E+09;-5.404496385884885E+00;1.148358938854695E+02;
1.080000000000000E+09;-5.516525326496099E+00;1.143748948457903E+02;
1.081000000000000E+09;-5.636369114196361E+00;1.138910651290483E+02;
1.082000000000000E+09;-5.758451980370467E+00;1.134581986324581E+02;
1.083000000000000E+09;-5.886886383755793E+00;1.129481044187120E+02;
1.084000000000000E+09;-6.033233130156292E+00;1.124761917150324E+02;
1.085000000000000E+09;-6.179768428384015E+00;1.120102085447844E+02;
1.086000000000000E+09;-6.336537506564007E+00;1.115738860316777E+02;
1.087000000000000E+09;-6.507738541211708E+00;1.111239483660406E+02;
1.088000000000000E+09;-6.687072308219580E+00;1.106514391760319E+02;
1.089000000000000E+09;-6.871617486185992E+00;1.102420428250393E+02;
1.090000000000000E+09;-7.073104814741029E+00;1.098713100131483E+02;
1.091000000000000E+09;-7.287555861343471E+00;1.094739368999853E+02;
1.092000000000000E+09;-7.512371901033053E+00;1.091111425856643E+02;
1.093000000000000E+09;-7.745153992370113E+00;1.088503412472985E+02;
1.094000000000000E+09;-7.999616620133571E+00;1.085578504270547E+02;
1.095000000000000E+09;-8.258568683423857E+00;1.083122235241741E+02;
1.096000000000000E+09;-8.542327701368279E+00;1.081727142769916E+02;
1.097000000000000E+09;-8.831720405763225E+00;1.081088100697831E+02;
1.098000000000000E+09;-9.134194277946193E+00;1.080761830248002E+02;
1.099000000000000E+09;-9.449771077231768E+00;1.081395947618322E+02;
1.100000000000000E+09;-9.778118189259162E+00;1.082500361422647E+02;
1.101000000000000E+09;-1.012626247735058E+01;1.084827147994206E+02;
1.102000000000000E+09;-1.049342554182956E+01;1.087930541014389E+02;
1.103000000000000E+09;-1.087387137955444E+01;1.092520412774923E+02;
1.104000000000000E+09;-1.127574804189970E+01;1.098937885897224E+02;
1.105000000000000E+09;-1.169929566811945E+01;1.106274873736423E+02;
1.106000000000000E+09;-1.214288775107059E+01;1.116698775860003E+02;
1.107000000000000E+09;-1.260504363419169E+01;1.130024467990393E+02;
1.108000000000000E+09;-1.306415247317118E+01;1.146695091591376E+02;
1.109000000000000E+09;-1.354526658284654E+01;1.167444719991638E+02;
1.110000000000000E+09;-1.402381057844919E+01;1.192319145989463E+02;
1.111000000000000E+09;-1.446693552102529E+01;1.222233436897435E+02;
1.112000000000000E+09;-1.488130568150020E+01;1.257174366724767E+02;
1.113000000000000E+09;-1.525153863569929E+01;1.296449287909593E+02;
1.114000000000000E+09;-1.553926336512785E+01;1.340205462997791E+02;
1.115000000000000E+09;-1.573234132638582E+01;1.388142955201458E+02;
1.116000000000000E+09;-1.583983218119551E+01;1.436806546229566E+02;
1.117000000000000E+09;-1.582204172611223E+01;1.487623514663690E+02;
1.118000000000000E+09;-1.568456258584571E+01;1.536453123694930E+02;
1.119000000000000E+09;-1.544833977748037E+01;1.582921997052916E+02;
1.120000000000000E+09;-1.512426434080117E+01;1.624086690063212E+02;
1.121000000000000E+09;-1.473768835994724E+01;1.660764538334175E+02;
1.122000000000000E+09;-1.430747835198963E+01;1.692448342930438E+02;
1.123000000000000E+09;-1.384763515288611E+01;1.718945822849221E+02;
1.124000000000000E+09;-1.337957243018726E+01;1.740839856347982E+02;
1.125000000000000E+09;-1.291306118475188E+01;1.758229272316691E+02;
1.126000000000000E+09;-1.242837752630311E+01;1.772409273545861E+02;
1.127000000000000E+09;-1.196869639049766E+01;1.782549209712253E+02;
1.128000000000000E+09;-1.151824209407931E+01;1.790073638344420E+02;
1.129000000000000E+09;-1.108001466983383E+01;1.795023292586210E+02;
1.130000000000000E+09;-1.066178862704526E+01;1.797889135152643E+02;
1.131000000000000E+09;-1.025261582562342E+01;1.798566255371584E+02;
1.132000000000000E+09;-9.864604671983368E+00;1.797568736522858E+02;
1.133000000000000E+09;-9.493377876491925E+00;1.794773340023619E+02;
1.134000000000000E+09;-9.137694892599781E+00;1.791054030203679E+02;
1.135000000000000E+09;-8.802508946592361E+00;1.785894192680469E+02;
1.136000000000000E+09;-8.487247740753800E+00;1.780337152115713E+02;
1.137000000000000E+09;-8.174416386981520E+00;1.773518478732401E+02;
1.138000000000000E+09;-7.885926506215387E+00;1.766203171419066E+02;
1.139000000000000E+09;-7.620676298444241E+00;1.758640133770142E+02;
1.140000000000000E+09;-7.363457582415165E+00;1.751077252162241E+02;
1.141000000000000E+09;-7.106535998788528E+00;1.742683652511049E+02;
1.142000000000000E+09;-6.873070700914443E+00;1.734102758540171E+02;
1.143000000000000E+09;-6.647436982370385E+00;1.725826928304987E+02;
1.144000000000000E+09;-6.424450450292439E+00;1.717277200715397E+02;
1.145000000000000E+09;-6.213293984943913E+00;1.708965743872619E+02;
1.146000000000000E+09;-6.008421161351835E+00;1.699896652534781E+02;
1.147000000000000E+09;-5.810928245730237E+00;1.690501384539667E+02;
1.148000000000000E+09;-5.616320975929112E+00;1.681697640606270E+02;
1.149000000000000E+09;-5.429493772120425E+00;1.672376686502744E+02;
1.150000000000000E+09;-5.256575222448964E+00;1.663139430458235E+02;
1.151000000000000E+09;-5.083370188569961E+00;1.653955641148804E+02;
1.152000000000000E+09;-4.922701739995441E+00;1.644223003621448E+02;
1.153000000000000E+09;-4.770612543540574E+00;1.635442967161926E+02;
1.154000000000000E+09;-4.626206998213911E+00;1.626037055680359E+02;
1.155000000000000E+09;-4.482502482397834E+00;1.617349966811595E+02;
1.156000000000000E+09;-4.345438589640091E+00;1.608574158496050E+02;
1.157000000000000E+09;-4.213216457794830E+00;1.599757431494419E+02;
1.158000000000000E+09;-4.089699818363384E+00;1.591514861639510E+02;
1.159000000000000E+09;-3.960872461137288E+00;1.583216591291314E+02;
1.160000000000000E+09;-3.840257181485850E+00;1.575087458857438E+02;
1.161000000000000E+09;-3.726088428151989E+00;1.566846385215746E+02;
1.162000000000000E+09;-3.615302038860249E+00;1.558878527994109E+02;
1.163000000000000E+09;-3.508427175221716E+00;1.550796868353242E+02;
1.164000000000000E+09;-3.406163048078197E+00;1.542762070677086E+02;
1.165000000000000E+09;-3.311672012546212E+00;1.535012433104629E+02;
1.166000000000000E+09;-3.221486975913877E+00;1.527702499532924E+02;
1.167000000000000E+09;-3.132679325887850E+00;1.520351594346745E+02;
1.168000000000000E+09;-3.050128481524360E+00;1.513328717192061E+02;
1.169000000000000E+09;-2.967351566377224E+00;1.506405369907303E+02;
1.170000000000000E+09;-2.892379218598165E+00;1.499662845888629E+02;
1.171000000000000E+09;-2.814527354091383E+00;1.492923613194581E+02;
1.172000000000000E+09;-2.742531113130092E+00;1.486392598748769E+02;
1.173000000000000E+09;-2.674569322681579E+00;1.479690462860053E+02;
1.174000000000000E+09;-2.605153975827355E+00;1.473492711073427E+02;
1.175000000000000E+09;-2.542907986365766E+00;1.467209409670279E+02;
1.176000000000000E+09;-2.484668037856869E+00;1.460879559614137E+02;
1.177000000000000E+09;-2.427279943350145E+00;1.455000712578181E+02;
1.178000000000000E+09;-2.371593586496526E+00;1.449198010333961E+02;
1.179000000000000E+09;-2.318115963696282E+00;1.443168398386327E+02;
1.180000000000000E+09;-2.266978739378398E+00;1.437455441505595E+02;
1.181000000000000E+09;-2.218348120785482E+00;1.431921252198705E+02;
1.182000000000000E+09;-2.173963591944864E+00;1.426039942535423E+02;
1.183000000000000E+09;-2.128159655694013E+00;1.420443603858922E+02;
1.184000000000000E+09;-2.085416545567231E+00;1.414750430007676E+02;
1.185000000000000E+09;-2.049721196833540E+00;1.409104342162229E+02;
1.186000000000000E+09;-2.013412712874729E+00;1.403509458355088E+02;
1.187000000000000E+09;-1.975671169459692E+00;1.397689194647047E+02;
1.188000000000000E+09;-1.947498652809180E+00;1.392165456483766E+02;
1.189000000000000E+09;-1.916537327407351E+00;1.386577269723933E+02;
1.190000000000000E+09;-1.891086598355767E+00;1.380939404391943E+02;
1.191000000000000E+09;-1.867578435292873E+00;1.375452764953735E+02;
1.192000000000000E+09;-1.845121838701670E+00;1.370029317406788E+02;
1.193000000000000E+09;-1.827789627447630E+00;1.364545131891428E+02;
1.194000000000000E+09;-1.809738221459951E+00;1.358720622541250E+02;
1.195000000000000E+09;-1.792733023243804E+00;1.353592294964265E+02;
1.196000000000000E+09;-1.779351816413538E+00;1.348167220066966E+02;
1.197000000000000E+09;-1.766969109772229E+00;1.342411008941541E+02;
1.198000000000000E+09;-1.753193260942153E+00;1.336787128675664E+02;
1.199000000000000E+09;-1.746223331519735E+00;1.331447504014294E+02;
1.200000000000000E+09;-1.733271436259978E+00;1.326139866219823E+02;
1.201000000000000E+09;-1.725025643623970E+00;1.320360594444581E+02;
1.202000000000000E+09;-1.718126976691577E+00;1.314713751572156E+02;
1.203000000000000E+09;-1.717716417068908E+00;1.309252547719282E+02;
1.204000000000000E+09;-1.710380253927580E+00;1.303584540141835E+02;
1.205000000000000E+09;-1.704727790640866E+00;1.298015512239781E+02;
1.206000000000000E+09;-1.702380146926630E+00;1.292343835817344E+02;
1.207000000000000E+09;-1.703031977933950E+00;1.286501463926597E+02;
1.208000000000000E+09;-1.698655759110277E+00;1.280582978409568E+02;
1.209000000000000E+09;-1.696103474223294E+00;1.274762222068816E+02;
1.210000000000000E+09;-1.699349088766677E+00;1.268935472623393E+02;
1.211000000000000E+09;-1.700585690931380E+00;1.263065347445291E+02;
1.212000000000000E+09;-1.702547495079215E+00;1.257078921224956E+02;
1.213000000000000E+09;-1.704943854098964E+00;1.250796072514348E+02;
1.214000000000000E+09;-1.706728619036771E+00;1.245159540944770E+02;
1.215000000000000E+09;-1.705606258732679E+00;1.239058851265883E+02;
1.216000000000000E+09;-1.710242787715877E+00;1.233072507284292E+02;
1.217000000000000E+09;-1.712306927180107E+00;1.227041076226835E+02;
1.218000000000000E+09;-1.712545527199798E+00;1.221054841891311E+02;
1.219000000000000E+09;-1.717006753909296E+00;1.214907701215275E+02;
1.220000000000000E+09;-1.716156992971048E+00;1.208859444600127E+02;
1.221000000000000E+09;-1.717924140808418E+00;1.202816158731234E+02;
1.222000000000000E+09;-1.723791330603150E+00;1.196819562321267E+02;
1.223000000000000E+09;-1.722251427915171E+00;1.190933842761978E+02;
1.224000000000000E+09;-1.720115280438351E+00;1.184582819521158E+02;
1.225000000000000E+09;-1.715899590222833E+00;1.178724674434472E+02;
1.226000000000000E+09;-1.714712541336220E+00;1.172712847783420E+02;
1.227000000000000E+09;-1.713949015403633E+00;1.166517059149954E+02;
1.228000000000000E+09;-1.711071750791842E+00;1.160391450561067E+02;
1.229000000000000E+09;-1.708492215624811E+00;1.154629068508871E+02;
1.230000000000000E+09;-1.710962635331192E+00;1.148505238259143E+02;
1.231000000000000E+09;-1.702504099873896E+00;1.142425794202061E+02;
1.232000000000000E+09;-1.698760038319254E+00;1.136679323761016E+02;
1.233000000000000E+09;-1.694126829783074E+00;1.130960538199983E+02;
1.234000000000000E+09;-1.690441720010522E+00;1.124991136926500E+02;
1.235000000000000E+09;-1.687626788828073E+00;1.119276988063509E+02;
1.236000000000000E+09;-1.676972427505603E+00;1.113846184954368E+02;
1.237000000000000E+09;-1.668279813034309E+00;1.108194401431358E+02;
1.238000000000000E+09;-1.664214472713283E+00;1.102942430476693E+02;
1.239000000000000E+09;-1.649724979668769E+00;1.097319251790506E+02;
1.240000000000000E+09;-1.641242361937880E+00;1.092121141588523E+02;
1.241000000000000E+09;-1.635266175457246E+00;1.086840856335930E+02;
1.242000000000000E+09;-1.625576648737701E+00;1.081846150917533E+02;
1.243000000000000E+09;-1.618623779541786E+00;1.076942171588906E+02;
1.244000000000000E+09;-1.602445287409465E+00;1.072278584427333E+02;
1.245000000000000E+09;-1.590181578526913E+00;1.067632107278009E+02;
1.246000000000000E+09;-1.584268188756050E+00;1.062865917644680E+02;
1.247000000000000E+09;-1.565064061012788E+00;1.058237001626144E+02;
1.248000000000000E+09;-1.555126124567496E+00;1.054135358434588E+02;
1.249000000000000E+09;-1.539685953525354E+00;1.050088978026002E+02;
1.250000000000000E+09;-1.521813940309594E+00;1.045644589428336E+02;
1.251000000000000E+09;-1.506598371582399E+00;1.041605842533117E+02;
1.252000000000000E+09;-1.490544494827821E+00;1.037860355721496E+02;
1.253000000000000E+09;-1.469369071458709E+00;1.033797076202450E+02;
1.254000000000000E+09;-1.452299456744250E+00;1.029885430040383E+02;
1.255000000000000E+09;-1.434540003617275E+00;1.025877501292942E+02;
1.256000000000000E+09;-1.418198631637148E+00;1.022259796805503E+02;
1.257000000000000E+09;-1.399142548745093E+00;1.018866539057706E+02;
1.258000000000000E+09;-1.379174095073732E+00;1.015186895350859E+02;
1.259000000000000E+09;-1.361089741528250E+00;1.011310301395651E+02;
1.260000000000000E+09;-1.342453968654999E+00;1.007739129293718E+02;
1.261000000000000E+09;-1.324995000847041E+00;1.004486227540941E+02;
1.262000000000000E+09;-1.308394436749245E+00;1.000877764965164E+02;
1.263000000000000E+09;-1.287005947725703E+00;9.975087852047129E+01;
1.264000000000000E+09;-1.270958612741907E+00;9.937870866864813E+01;
1.265000000000000E+09;-1.254069780348420E+00;9.904433304429745E+01;
1.266000000000000E+09;-1.236401251090359E+00;9.873925719097726E+01;
1.267000000000000E+09;-1.222080579185529E+00;9.837323815853637E+01;
1.268000000000000E+09;-1.206457580876629E+00;9.801625711978099E+01;
1.269000000000000E+09;-1.191457841091039E+00;9.765398295196350E+01;
1.270000000000000E+09;-1.176791180501094E+00;9.732055618217566E+01;
1.271000000000000E+09;-1.164415040536227E+00;9.698533179398217E+01;
1.272000000000000E+09;-1.155482208025470E+00;9.660890132706088E+01;
1.273000000000000E+09;-1.144436576776953E+00;9.627052105918490E+01;
1.274000000000000E+09;-1.136159885528586E+00;9.591380855588720E+01;
1.275000000000000E+09;-1.126182169452935E+00;9.556730045334734E+01;
1.276000000000000E+09;-1.117092102041267E+00;9.519218601202975E+01;
1.277000000000000E+09;-1.111159392707648E+00;9.484968176465259E+01;
1.278000000000000E+09;-1.106051661512477E+00;9.448582878081561E+01;
1.279000000000000E+09;-1.098030258355011E+00;9.411833897082198E+01;
1.280000000000000E+09;-1.092455621126708E+00;9.375835247896073E+01;
1.281000000000000E+09;-1.092018604360516E+00;9.338763629308356E+01;
1.282000000000000E+09;-1.092328239506275E+00;9.299949356942459E+01;
1.283000000000000E+09;-1.088273159163193E+00;9.259394070253578E+01;
1.284000000000000E+09;-1.082700047579606E+00;9.225069294341698E+01;
1.285000000000000E+09;-1.089764655609462E+00;9.182889421555771E+01;
1.286000000000000E+09;-1.090872765509306E+00;9.141361429503520E+01;
1.287000000000000E+09;-1.093662299118678E+00;9.100651366507022E+01;
1.288000000000000E+09;-1.100226465491875E+00;9.058648157468805E+01;
1.289000000000000E+09;-1.100733069659724E+00;9.017302111511336E+01;
1.290000000000000E+09;-1.110898349860136E+00;8.976880217076476E+01;
1.291000000000000E+09;-1.117747661453199E+00;8.931741855213286E+01;
1.292000000000000E+09;-1.126751518910402E+00;8.890733048761248E+01;
