# Version 1.00
#
freq[Hz];db:Trc4_S11;ang:Trc4_S11;
1.000000000000000E+09;-1.320953056037816E+00;1.580115130218664E+02;
1.001000000000000E+09;-1.344268288141260E+00;1.575529025854188E+02;
1.002000000000000E+09;-1.369050414218956E+00;1.570775301509267E+02;
1.003000000000000E+09;-1.392602032227534E+00;1.565926856277766E+02;
1.004000000000000E+09;-1.422605842731453E+00;1.560968328704212E+02;
1.005000000000000E+09;-1.452151371985642E+00;1.556212234151185E+02;
1.006000000000000E+09;-1.481210960098776E+00;1.551313075459064E+02;
1.007000000000000E+09;-1.516138980971452E+00;1.546080245022718E+02;
1.008000000000000E+09;-1.548348725051495E+00;1.541092673691346E+02;
1.009000000000000E+09;-1.582337727112577E+00;1.536035839573750E+02;
1.010000000000000E+09;-1.615878884978409E+00;1.530731074299744E+02;
1.011000000000000E+09;-1.657992197655402E+00;1.525501489682308E+02;
1.012000000000000E+09;-1.692678281923631E+00;1.520009906311761E+02;
1.013000000000000E+09;-1.728086483819329E+00;1.514672717164006E+02;
1.014000000000000E+09;-1.770022776706437E+00;1.508908477035793E+02;
1.015000000000000E+09;-1.811662117154834E+00;1.503461322080032E+02;
1.016000000000000E+09;-1.852816239810615E+00;1.497820101173685E+02;
1.017000000000000E+09;-1.894484454539489E+00;1.491851304756898E+02;
1.018000000000000E+09;-1.942139929875584E+00;1.485989200935500E+02;
1.019000000000000E+09;-1.987967011535461E+00;1.480012176408336E+02;
1.020000000000000E+09;-2.033343441944395E+00;1.474269368071734E+02;
1.021000000000000E+09;-2.082579076178445E+00;1.467948459736775E+02;
1.022000000000000E+09;-2.128192714186014E+00;1.461823263804108E+02;
1.023000000000000E+09;-2.180825519545070E+00;1.455691682994263E+02;
1.024000000000000E+09;-2.233680298003886E+00;1.449696322870785E+02;
1.025000000000000E+09;-2.287248058182845E+00;1.443274788253732E+02;
1.026000000000000E+09;-2.338736534996414E+00;1.437135938496093E+02;
1.027000000000000E+09;-2.387053690054622E+00;1.430976941082824E+02;
1.028000000000000E+09;-2.445229253005313E+00;1.424205989378846E+02;
1.029000000000000E+09;-2.498763195376426E+00;1.418184776823973E+02;
1.030000000000000E+09;-2.554390384364949E+00;1.411829298939658E+02;
1.031000000000000E+09;-2.609699784301722E+00;1.405652325698869E+02;
1.032000000000000E+09;-2.663131314125428E+00;1.399064131371920E+02;
1.033000000000000E+09;-2.720048679780910E+00;1.392557403475331E+02;
1.034000000000000E+09;-2.772915484264385E+00;1.386653669913983E+02;
1.035000000000000E+09;-2.832784632259148E+00;1.380524401580881E+02;
1.036000000000000E+09;-2.887476765629772E+00;1.374307895741757E+02;
1.037000000000000E+09;-2.944880307167221E+00;1.367920054075962E+02;
1.038000000000000E+09;-2.997077627800712E+00;1.362372058696763E+02;
1.039000000000000E+09;-3.057405357513659E+00;1.356013376474223E+02;
1.040000000000000E+09;-3.108784854456403E+00;1.350361566511135E+02;
1.041000000000000E+09;-3.168586914004136E+00;1.344487829899423E+02;
1.042000000000000E+09;-3.222788465988508E+00;1.339016930410823E+02;
1.043000000000000E+09;-3.276792890148411E+00;1.332931425014357E+02;
1.044000000000000E+09;-3.327537539593540E+00;1.327444653062506E+02;
1.045000000000000E+09;-3.378892517483880E+00;1.322430913260617E+02;
1.046000000000000E+09;-3.431741827798988E+00;1.316897713206170E+02;
1.047000000000000E+09;-3.482186719579237E+00;1.311583009972408E+02;
1.048000000000000E+09;-3.530078864264206E+00;1.306296182509153E+02;
1.049000000000000E+09;-3.579583860679482E+00;1.301552158244497E+02;
1.050000000000000E+09;-3.627254068427149E+00;1.296367051874542E+02;
1.051000000000000E+09;-3.674644399506563E+00;1.291502767955403E+02;
1.052000000000000E+09;-3.721556915142742E+00;1.287015223503572E+02;
1.053000000000000E+09;-3.765461608340721E+00;1.282239799321177E+02;
1.054000000000000E+09;-3.810161631375753E+00;1.277279068942057E+02;
1.055000000000000E+09;-3.849887331065082E+00;1.272809957833543E+02;
1.056000000000000E+09;-3.891868391784087E+00;1.268552475770230E+02;
1.057000000000000E+09;-3.933114359654547E+00;1.263947847995972E+02;
1.058000000000000E+09;-3.976166438224927E+00;1.259315978120605E+02;
1.059000000000000E+09;-4.017817841609023E+00;1.255068646903201E+02;
1.060000000000000E+09;-4.058636941597991E+00;1.250414115696606E+02;
1.061000000000000E+09;-4.103730687984592E+00;1.245973140560674E+02;
1.062000000000000E+09;-4.145810374563959E+00;1.241229491817445E+02;
1.063000000000000E+09;-4.192014345689349E+00;1.237156010147942E+02;
1.064000000000000E+09;-4.230622966502887E+00;1.232928439915624E+02;
1.065000000000000E+09;-4.278415852392106E+00;1.228418148027679E+02;
1.066000000000000E+09;-4.326758163776349E+00;1.223815194600925E+02;
1.067000000000000E+09;-4.371764890375133E+00;1.219460639455289E+02;
1.068000000000000E+09;-4.429191649085288E+00;1.215130669608046E+02;
1.069000000000000E+09;-4.480735541332319E+00;1.210296065474192E+02;
1.070000000000000E+09;-4.535115424847591E+00;1.205489742181771E+02;
1.071000000000000E+09;-4.597664167161330E+00;1.201193199624949E+02;
1.072000000000000E+09;-4.662307932403107E+00;1.196397777313219E+02;
1.073000000000000E+09;-4.725951949612694E+00;1.191691242876894E+02;
1.074000000000000E+09;-4.798478277328967E+00;1.187094532788632E+02;
1.075000000000000E+09;-4.879250684489568E+00;1.182505549699513E+02;
1.076000000000000E+09;-4.954346682867589E+00;1.177759717750272E+02;
1.077000000000000E+09;-5.038655775722201E+00;1.172918895841634E+02;
1.078000000000000E+09;-5.126350524685563E+00;1.168586609243050E+02;
1.079000000000000E+09;-5.213835238128687E+00;1.163541367705637E+02;
1.080000000000000E+09;-5.317421732702749E+00;1.158521800292894E+02;
1.081000000000000E+09;-5.425357378828506E+00;1.153081462914043E+02;
1.082000000000000E+09;-5.538239295188947E+00;1.148590320531577E+02;
1.083000000000000E+09;-5.662744553742922E+00;1.143520551131982E+02;
1.084000000000000E+09;-5.797406366143255E+00;1.138478312049026E+02;
1.085000000000000E+09;-5.937036313198357E+00;1.133550964743317E+02;
1.086000000000000E+09;-6.088144476212578E+00;1.129046167049915E+02;
1.087000000000000E+09;-6.248020576505001E+00;1.124748013593795E+02;
1.088000000000000E+09;-6.412876714759872E+00;1.119927025231409E+02;
1.089000000000000E+09;-6.595357675409137E+00;1.116283600590629E+02;
1.090000000000000E+09;-6.781213145663831E+00;1.112467980410519E+02;
1.091000000000000E+09;-6.980577542240859E+00;1.108953158365074E+02;
1.092000000000000E+09;-7.181903974609030E+00;1.106288946412487E+02;
1.093000000000000E+09;-7.395108041581921E+00;1.103615165773858E+02;
1.094000000000000E+09;-7.623639819477097E+00;1.101286128875673E+02;
1.095000000000000E+09;-7.855669568753061E+00;1.099213594058304E+02;
1.096000000000000E+09;-8.106234717300381E+00;1.097914246293086E+02;
1.097000000000000E+09;-8.358441671416010E+00;1.097323491011916E+02;
1.098000000000000E+09;-8.622560733790849E+00;1.097280610698842E+02;
1.099000000000000E+09;-8.891400080255744E+00;1.098086961866012E+02;
1.100000000000000E+09;-9.173994568240447E+00;1.099074254184432E+02;
1.101000000000000E+09;-9.462194385588592E+00;1.100790410498891E+02;
1.102000000000000E+09;-9.761965599570715E+00;1.102877608340864E+02;
1.103000000000000E+09;-1.008442453979036E+01;1.106352843771681E+02;
1.104000000000000E+09;-1.042230658180187E+01;1.110670517436771E+02;
1.105000000000000E+09;-1.077225428669474E+01;1.116706913559616E+02;
1.106000000000000E+09;-1.113100040171457E+01;1.124173235774346E+02;
1.107000000000000E+09;-1.150010494833552E+01;1.133763011503745E+02;
1.108000000000000E+09;-1.187262314213717E+01;1.145591509819742E+02;
1.109000000000000E+09;-1.225826494317936E+01;1.160041799154789E+02;
1.110000000000000E+09;-1.263796752231711E+01;1.176464638274979E+02;
1.111000000000000E+09;-1.300139402473641E+01;1.197070380663662E+02;
1.112000000000000E+09;-1.333963010058598E+01;1.219672210572729E+02;
1.113000000000000E+09;-1.367038424173467E+01;1.244921945175376E+02;
1.114000000000000E+09;-1.397213287729594E+01;1.273538696848731E+02;
1.115000000000000E+09;-1.422001988685619E+01;1.304881766628486E+02;
1.116000000000000E+09;-1.442930332009103E+01;1.338021775051184E+02;
1.117000000000000E+09;-1.458136900602799E+01;1.374129564141340E+02;
1.118000000000000E+09;-1.467162813883718E+01;1.411147411994833E+02;
1.119000000000000E+09;-1.469252598508985E+01;1.449217181437785E+02;
1.120000000000000E+09;-1.463129933644625E+01;1.486695316443365E+02;
1.121000000000000E+09;-1.449856655218448E+01;1.522847411211235E+02;
1.122000000000000E+09;-1.429614192860939E+01;1.557596776957475E+02;
1.123000000000000E+09;-1.403779568480507E+01;1.589112716282636E+02;
1.124000000000000E+09;-1.374848240831454E+01;1.617544495173784E+02;
1.125000000000000E+09;-1.341945491092231E+01;1.642437555210039E+02;
1.126000000000000E+09;-1.305299141977502E+01;1.663718879530433E+02;
1.127000000000000E+09;-1.268893077643528E+01;1.681740731323934E+02;
1.128000000000000E+09;-1.230852263978725E+01;1.697461679039145E+02;
1.129000000000000E+09;-1.193145355496975E+01;1.710139328543294E+02;
1.130000000000000E+09;-1.154657217752945E+01;1.720389943407883E+02;
1.131000000000000E+09;-1.117335346071806E+01;1.727998733145387E+02;
1.132000000000000E+09;-1.079615042954398E+01;1.733821155618844E+02;
1.133000000000000E+09;-1.042693431761584E+01;1.737239728535814E+02;
1.134000000000000E+09;-1.006773488888390E+01;1.739335532353559E+02;
1.135000000000000E+09;-9.725317447391149E+00;1.739600535828740E+02;
1.136000000000000E+09;-9.392737082245700E+00;1.738229975651838E+02;
1.137000000000000E+09;-9.065497138494806E+00;1.735881078604663E+02;
1.138000000000000E+09;-8.765799258711512E+00;1.732427156088817E+02;
1.139000000000000E+09;-8.480405004002131E+00;1.727981881710252E+02;
1.140000000000000E+09;-8.201743463782948E+00;1.723773862634069E+02;
1.141000000000000E+09;-7.926315718818561E+00;1.718211134176161E+02;
1.142000000000000E+09;-7.669191036600878E+00;1.712439155435687E+02;
1.143000000000000E+09;-7.419225717955018E+00;1.706262857795880E+02;
1.144000000000000E+09;-7.175670112885629E+00;1.700261775324379E+02;
1.145000000000000E+09;-6.940374448570562E+00;1.693526020501764E+02;
1.146000000000000E+09;-6.715425099709159E+00;1.686289833753358E+02;
1.147000000000000E+09;-6.498812732082708E+00;1.678938226998398E+02;
1.148000000000000E+09;-6.285295858369730E+00;1.671464931285170E+02;
1.149000000000000E+09;-6.084117244816540E+00;1.664095925740405E+02;
1.150000000000000E+09;-5.891315559727117E+00;1.655635148907202E+02;
1.151000000000000E+09;-5.701175766653868E+00;1.648019270488296E+02;
1.152000000000000E+09;-5.526026093945760E+00;1.639494970256221E+02;
1.153000000000000E+09;-5.351319813444489E+00;1.631552380989686E+02;
1.154000000000000E+09;-5.187579126855865E+00;1.623117095489399E+02;
1.155000000000000E+09;-5.030403959025122E+00;1.615037190478810E+02;
1.156000000000000E+09;-4.874760852565326E+00;1.607262802109714E+02;
1.157000000000000E+09;-4.730509943490411E+00;1.599125644526097E+02;
1.158000000000000E+09;-4.591642156515783E+00;1.591500799951932E+02;
1.159000000000000E+09;-4.458337129718704E+00;1.583563408383962E+02;
1.160000000000000E+09;-4.328525662033658E+00;1.576271560596822E+02;
1.161000000000000E+09;-4.199310487330229E+00;1.568731296988477E+02;
1.162000000000000E+09;-4.078135161211200E+00;1.561440010439571E+02;
1.163000000000000E+09;-3.959472551693690E+00;1.554028792211213E+02;
1.164000000000000E+09;-3.845570519945045E+00;1.546848329030883E+02;
1.165000000000000E+09;-3.732584510469661E+00;1.539734229901528E+02;
1.166000000000000E+09;-3.630407988698916E+00;1.532662590439915E+02;
1.167000000000000E+09;-3.528372929011550E+00;1.525481911966853E+02;
1.168000000000000E+09;-3.430738554187593E+00;1.518484666170767E+02;
1.169000000000000E+09;-3.337979259267773E+00;1.511752521899625E+02;
1.170000000000000E+09;-3.249427652382608E+00;1.504848590367761E+02;
1.171000000000000E+09;-3.164282105206056E+00;1.498070002154936E+02;
1.172000000000000E+09;-3.086261659300361E+00;1.491422745049531E+02;
1.173000000000000E+09;-3.009856238518138E+00;1.484808726794573E+02;
1.174000000000000E+09;-2.934735507308417E+00;1.478520495155075E+02;
1.175000000000000E+09;-2.868002001214964E+00;1.472120507585548E+02;
1.176000000000000E+09;-2.802330919400115E+00;1.465809392625505E+02;
1.177000000000000E+09;-2.739251560128562E+00;1.459644782023387E+02;
1.178000000000000E+09;-2.682164721462288E+00;1.453486172728460E+02;
1.179000000000000E+09;-2.630444800333947E+00;1.447070701953414E+02;
1.180000000000000E+09;-2.579711303272453E+00;1.441407495717338E+02;
1.181000000000000E+09;-2.531971074008210E+00;1.435678508500122E+02;
1.182000000000000E+09;-2.494479703572980E+00;1.429799558116063E+02;
1.183000000000000E+09;-2.453922563947345E+00;1.424399577248764E+02;
1.184000000000000E+09;-2.413683551613433E+00;1.418749533010652E+02;
1.185000000000000E+09;-2.383642693256770E+00;1.413584480950208E+02;
1.186000000000000E+09;-2.350491560851301E+00;1.408259757289511E+02;
1.187000000000000E+09;-2.315363686831197E+00;1.402937774129547E+02;
1.188000000000000E+09;-2.289270703596470E+00;1.397735532663137E+02;
1.189000000000000E+09;-2.257865826677587E+00;1.392813661725660E+02;
1.190000000000000E+09;-2.236767528931237E+00;1.387465710079882E+02;
1.191000000000000E+09;-2.210175323107180E+00;1.382339442678883E+02;
1.192000000000000E+09;-2.191308868554401E+00;1.377237537366056E+02;
1.193000000000000E+09;-2.170247723694314E+00;1.372240622454632E+02;
1.194000000000000E+09;-2.154609139886321E+00;1.367146388219195E+02;
1.195000000000000E+09;-2.136897436276727E+00;1.362042254032235E+02;
1.196000000000000E+09;-2.119779380324539E+00;1.357136411317107E+02;
1.197000000000000E+09;-2.110103632733588E+00;1.351939058560197E+02;
1.198000000000000E+09;-2.095409856623835E+00;1.346609188507756E+02;
1.199000000000000E+09;-2.087743321233729E+00;1.341885640670724E+02;
1.200000000000000E+09;-2.078722348534582E+00;1.336894241319307E+02;
1.201000000000000E+09;-2.069991364604765E+00;1.331742523373054E+02;
1.202000000000000E+09;-2.060104955556348E+00;1.326497362311740E+02;
1.203000000000000E+09;-2.058205436266426E+00;1.321639543203010E+02;
1.204000000000000E+09;-2.053746766278209E+00;1.316504343471033E+02;
1.205000000000000E+09;-2.045928117186662E+00;1.311493456487694E+02;
1.206000000000000E+09;-2.043904320497576E+00;1.306503934929416E+02;
1.207000000000000E+09;-2.035939813945870E+00;1.301476691714660E+02;
1.208000000000000E+09;-2.031475339735605E+00;1.296064999576049E+02;
1.209000000000000E+09;-2.025018884825772E+00;1.290855575838097E+02;
1.210000000000000E+09;-2.020542014017511E+00;1.285636183845360E+02;
1.211000000000000E+09;-2.019547771991207E+00;1.280302278260874E+02;
1.212000000000000E+09;-2.015576709329625E+00;1.275145871168061E+02;
1.213000000000000E+09;-2.009469728126551E+00;1.269263282959155E+02;
1.214000000000000E+09;-2.007281105652587E+00;1.264194893767332E+02;
1.215000000000000E+09;-2.002182059405652E+00;1.258583219170327E+02;
1.216000000000000E+09;-1.999227925232160E+00;1.253052846654705E+02;
1.217000000000000E+09;-1.993788773687328E+00;1.247569810236361E+02;
1.218000000000000E+09;-1.985232914472687E+00;1.242106888880963E+02;
1.219000000000000E+09;-1.983058913300028E+00;1.236560781783475E+02;
1.220000000000000E+09;-1.974917612221953E+00;1.230880978556316E+02;
1.221000000000000E+09;-1.963986820568506E+00;1.225182479013622E+02;
1.222000000000000E+09;-1.958098617262695E+00;1.219458361368570E+02;
1.223000000000000E+09;-1.947721526543580E+00;1.213756725545848E+02;
1.224000000000000E+09;-1.938234754142498E+00;1.207640328682224E+02;
1.225000000000000E+09;-1.928889873381554E+00;1.202026169603808E+02;
1.226000000000000E+09;-1.919647504380917E+00;1.195948869908280E+02;
1.227000000000000E+09;-1.908854837223571E+00;1.190151240154962E+02;
1.228000000000000E+09;-1.897655716200223E+00;1.184416385154923E+02;
1.229000000000000E+09;-1.885247320295896E+00;1.178454360925652E+02;
1.230000000000000E+09;-1.873954071225963E+00;1.172870548424250E+02;
1.231000000000000E+09;-1.859285727197629E+00;1.166750476820483E+02;
1.232000000000000E+09;-1.843656138565306E+00;1.161063708338936E+02;
1.233000000000000E+09;-1.834688305062099E+00;1.155428138317558E+02;
1.234000000000000E+09;-1.818925303396439E+00;1.149696259552970E+02;
1.235000000000000E+09;-1.803649206890728E+00;1.144004395248170E+02;
1.236000000000000E+09;-1.787731763375746E+00;1.138661965034767E+02;
1.237000000000000E+09;-1.767173923251937E+00;1.132813283356866E+02;
1.238000000000000E+09;-1.754035809124017E+00;1.127545393021806E+02;
1.239000000000000E+09;-1.732262334769618E+00;1.121681545517700E+02;
1.240000000000000E+09;-1.709399440129796E+00;1.116432476356718E+02;
1.241000000000000E+09;-1.691874660153164E+00;1.111115804773167E+02;
1.242000000000000E+09;-1.676568550714587E+00;1.105914490710246E+02;
1.243000000000000E+09;-1.652017437875062E+00;1.100509568513610E+02;
1.244000000000000E+09;-1.628830210917919E+00;1.095604425593360E+02;
1.245000000000000E+09;-1.609764745199527E+00;1.090572154739417E+02;
1.246000000000000E+09;-1.586656564151910E+00;1.085622231227103E+02;
1.247000000000000E+09;-1.559511263441558E+00;1.080711425260793E+02;
1.248000000000000E+09;-1.536855857021579E+00;1.075632037814697E+02;
1.249000000000000E+09;-1.511502669627405E+00;1.071086980448340E+02;
1.250000000000000E+09;-1.485998547345604E+00;1.065939855117155E+02;
1.251000000000000E+09;-1.466120230064110E+00;1.061136189570282E+02;
1.252000000000000E+09;-1.440734662922751E+00;1.056887833265347E+02;
1.253000000000000E+09;-1.418033208072024E+00;1.052294636325422E+02;
1.254000000000000E+09;-1.393423108249432E+00;1.047646638547652E+02;
1.255000000000000E+09;-1.370450962637653E+00;1.043039334297753E+02;
1.256000000000000E+09;-1.349235654947255E+00;1.038502059480144E+02;
1.257000000000000E+09;-1.327323881978812E+00;1.034258889891137E+02;
1.258000000000000E+09;-1.302870141719781E+00;1.029864904820543E+02;
1.259000000000000E+09;-1.284386832046948E+00;1.025389882397751E+02;
1.260000000000000E+09;-1.261774011635070E+00;1.021089984377749E+02;
1.261000000000000E+09;-1.245710838109814E+00;1.017095018959480E+02;
1.262000000000000E+09;-1.229411999401553E+00;1.012796983933619E+02;
1.263000000000000E+09;-1.207563253656518E+00;1.008830296694320E+02;
1.264000000000000E+09;-1.192862694868731E+00;1.004348592351679E+02;
1.265000000000000E+09;-1.178304672011578E+00;1.000508934839454E+02;
1.266000000000000E+09;-1.163675978529322E+00;9.967666638735922E+01;
1.267000000000000E+09;-1.150059941326680E+00;9.925710614620249E+01;
1.268000000000000E+09;-1.135916725425767E+00;9.886193796367911E+01;
1.269000000000000E+09;-1.125227480077781E+00;9.846570998606416E+01;
1.270000000000000E+09;-1.115298646955622E+00;9.810386016855497E+01;
1.271000000000000E+09;-1.103377200910653E+00;9.771881178675218E+01;
1.272000000000000E+09;-1.097402802958940E+00;9.731333609281437E+01;
1.273000000000000E+09;-1.091056709031215E+00;9.693290024757397E+01;
1.274000000000000E+09;-1.077236738210471E+00;9.654502582637318E+01;
1.275000000000000E+09;-1.072885253540279E+00;9.617403887343286E+01;
1.276000000000000E+09;-1.065959130408078E+00;9.578496488877542E+01;
1.277000000000000E+09;-1.063586486994188E+00;9.541713951232340E+01;
1.278000000000000E+09;-1.061399970558575E+00;9.502251183665102E+01;
1.279000000000000E+09;-1.056332701909597E+00;9.461867239589873E+01;
1.280000000000000E+09;-1.052419302376044E+00;9.423082733946296E+01;
1.281000000000000E+09;-1.054307618446358E+00;9.382633517190955E+01;
1.282000000000000E+09;-1.053131249281952E+00;9.343500242582563E+01;
1.283000000000000E+09;-1.051338872923943E+00;9.301509242568980E+01;
1.284000000000000E+09;-1.052700984460657E+00;9.264997446930622E+01;
1.285000000000000E+09;-1.057204060556384E+00;9.224306197485186E+01;
1.286000000000000E+09;-1.061542179413502E+00;9.181735059304067E+01;
1.287000000000000E+09;-1.066521552118480E+00;9.139874735594736E+01;
1.288000000000000E+09;-1.071994839789359E+00;9.098795128274949E+01;
1.289000000000000E+09;-1.073578374193727E+00;9.057000442862680E+01;
1.290000000000000E+09;-1.084932266184920E+00;9.017074093331195E+01;
1.291000000000000E+09;-1.093498721105201E+00;8.970780884835094E+01;
1.292000000000000E+09;-1.101062760380847E+00;8.929060991314817E+01;
