# Version 1.00
#
freq[Hz];db:Trc4_S11;ang:Trc4_S11;
1.000000000000000E+09;-1.285458815711148E+00;1.582212847848353E+02;
1.001000000000000E+09;-1.305572147778015E+00;1.577724396023798E+02;
1.002000000000000E+09;-1.332193448345414E+00;1.573068654718867E+02;
1.003000000000000E+09;-1.355875351450242E+00;1.568142934233348E+02;
1.004000000000000E+09;-1.381022189794806E+00;1.563361215784221E+02;
1.005000000000000E+09;-1.403786116670703E+00;1.559002062463442E+02;
1.006000000000000E+09;-1.431293984335207E+00;1.553861454228901E+02;
1.007000000000000E+09;-1.464707806152440E+00;1.548706407618312E+02;
1.008000000000000E+09;-1.493928696743475E+00;1.543856529312145E+02;
1.009000000000000E+09;-1.528588163533809E+00;1.539054658930896E+02;
1.010000000000000E+09;-1.556619402482669E+00;1.533804003822214E+02;
1.011000000000000E+09;-1.594400394851665E+00;1.528365080519785E+02;
1.012000000000000E+09;-1.630021686741575E+00;1.523093309777701E+02;
1.013000000000000E+09;-1.662299718162845E+00;1.517743065027939E+02;
1.014000000000000E+09;-1.700852953356401E+00;1.512097196511723E+02;
1.015000000000000E+09;-1.741262675705628E+00;1.506594746183886E+02;
1.016000000000000E+09;-1.780414747878530E+00;1.500986317373968E+02;
1.017000000000000E+09;-1.819091382047244E+00;1.495206628437648E+02;
1.018000000000000E+09;-1.862625844387496E+00;1.489251752451130E+02;
1.019000000000000E+09;-1.906595016776799E+00;1.483358334636864E+02;
1.020000000000000E+09;-1.947258999110537E+00;1.477655806011280E+02;
1.021000000000000E+09;-1.991418183235716E+00;1.471459418905509E+02;
1.022000000000000E+09;-2.036864523185983E+00;1.465292340916243E+02;
1.023000000000000E+09;-2.085034000228227E+00;1.459360510713323E+02;
1.024000000000000E+09;-2.133866048759908E+00;1.453226722430740E+02;
1.025000000000000E+09;-2.182035774913125E+00;1.446914825763135E+02;
1.026000000000000E+09;-2.232320474934159E+00;1.440758359660273E+02;
1.027000000000000E+09;-2.276263279319132E+00;1.434786358208160E+02;
1.028000000000000E+09;-2.328164106616073E+00;1.428136780224309E+02;
1.029000000000000E+09;-2.378986312432805E+00;1.422141379666640E+02;
1.030000000000000E+09;-2.429329859977857E+00;1.415922112282041E+02;
1.031000000000000E+09;-2.477119724625357E+00;1.409453366598504E+02;
1.032000000000000E+09;-2.529027189007409E+00;1.403178099529179E+02;
1.033000000000000E+09;-2.573099899397129E+00;1.397026758830019E+02;
1.034000000000000E+09;-2.624349140130641E+00;1.390736876771510E+02;
1.035000000000000E+09;-2.674815559419234E+00;1.384854677847221E+02;
1.036000000000000E+09;-2.720926415180000E+00;1.378333060520882E+02;
1.037000000000000E+09;-2.771967805137796E+00;1.372060555406565E+02;
1.038000000000000E+09;-2.816242082011592E+00;1.365827843068384E+02;
1.039000000000000E+09;-2.867683500006994E+00;1.359917608596950E+02;
1.040000000000000E+09;-2.914136789572214E+00;1.353814590935216E+02;
1.041000000000000E+09;-2.961622483124817E+00;1.347690665683404E+02;
1.042000000000000E+09;-3.007451029704641E+00;1.341654522020040E+02;
1.043000000000000E+09;-3.055336456585522E+00;1.335455085828502E+02;
1.044000000000000E+09;-3.100581415055553E+00;1.329618965902603E+02;
1.045000000000000E+09;-3.145049871887589E+00;1.324071165423738E+02;
1.046000000000000E+09;-3.185862670718481E+00;1.318220831644917E+02;
1.047000000000000E+09;-3.234735437528096E+00;1.312381697831974E+02;
1.048000000000000E+09;-3.277895756900398E+00;1.306746228483903E+02;
1.049000000000000E+09;-3.319969112874539E+00;1.301313936764415E+02;
1.050000000000000E+09;-3.363354778970092E+00;1.295453551111769E+02;
1.051000000000000E+09;-3.408352619288806E+00;1.290106416875836E+02;
1.052000000000000E+09;-3.449160864305187E+00;1.284976093921935E+02;
1.053000000000000E+09;-3.491039083512257E+00;1.279617641528784E+02;
1.054000000000000E+09;-3.533976366907529E+00;1.273986828762208E+02;
1.055000000000000E+09;-3.566746863809662E+00;1.268629700051458E+02;
1.056000000000000E+09;-3.613831617159239E+00;1.263695124785992E+02;
1.057000000000000E+09;-3.652509510967526E+00;1.258428922007985E+02;
1.058000000000000E+09;-3.696709644273899E+00;1.253122655199755E+02;
1.059000000000000E+09;-3.740854378679901E+00;1.248084672989837E+02;
1.060000000000000E+09;-3.782775173675148E+00;1.242848632821396E+02;
1.061000000000000E+09;-3.829514118593686E+00;1.237659993540634E+02;
1.062000000000000E+09;-3.874250879164123E+00;1.232309036582540E+02;
1.063000000000000E+09;-3.925032882738792E+00;1.227316438750869E+02;
1.064000000000000E+09;-3.970806778692171E+00;1.222409805943181E+02;
1.065000000000000E+09;-4.025279638551184E+00;1.217042387472465E+02;
1.066000000000000E+09;-4.084552798032977E+00;1.211929231795003E+02;
1.067000000000000E+09;-4.138101402802133E+00;1.206906285312731E+02;
1.068000000000000E+09;-4.200080637142911E+00;1.202203784209995E+02;
1.069000000000000E+09;-4.261442099300648E+00;1.196811631270943E+02;
1.070000000000000E+09;-4.326745082623875E+00;1.191508096111536E+02;
1.071000000000000E+09;-4.398042258576704E+00;1.186746493632887E+02;
1.072000000000000E+09;-4.471910005986363E+00;1.181765369239916E+02;
1.073000000000000E+09;-4.546292893125093E+00;1.176309544222862E+02;
1.074000000000000E+09;-4.631087956894123E+00;1.171541617588224E+02;
1.075000000000000E+09;-4.721909680229092E+00;1.166459227153706E+02;
1.076000000000000E+09;-4.811720278713397E+00;1.161587432111724E+02;
1.077000000000000E+09;-4.908097561533088E+00;1.156390506693306E+02;
1.078000000000000E+09;-5.010446286216500E+00;1.151580064604074E+02;
1.079000000000000E+09;-5.112815351181038E+00;1.146634463442640E+02;
1.080000000000000E+09;-5.228819842754842E+00;1.141678901744105E+02;
1.081000000000000E+09;-5.348558729182320E+00;1.136789788706469E+02;
1.082000000000000E+09;-5.472397858133258E+00;1.131601247290100E+02;
1.083000000000000E+09;-5.607448048194355E+00;1.126945687558401E+02;
1.084000000000000E+09;-5.756906359992357E+00;1.121736265817096E+02;
1.085000000000000E+09;-5.898783828341344E+00;1.116852642560206E+02;
1.086000000000000E+09;-6.062006251481017E+00;1.112400733740543E+02;
1.087000000000000E+09;-6.229919413165975E+00;1.108032846056379E+02;
1.088000000000000E+09;-6.408232894876589E+00;1.103218600913521E+02;
1.089000000000000E+09;-6.594266940549049E+00;1.099336826681027E+02;
1.090000000000000E+09;-6.788240371784680E+00;1.095211234939936E+02;
1.091000000000000E+09;-6.995594955159305E+00;1.091336896352335E+02;
1.092000000000000E+09;-7.214875828456686E+00;1.088065190070212E+02;
1.093000000000000E+09;-7.439243394867261E+00;1.084715687452646E+02;
1.094000000000000E+09;-7.686614625535669E+00;1.081409847089371E+02;
1.095000000000000E+09;-7.939133732607687E+00;1.078417284824327E+02;
1.096000000000000E+09;-8.216724056323086E+00;1.076509402748974E+02;
1.097000000000000E+09;-8.496187693908496E+00;1.075146159964638E+02;
1.098000000000000E+09;-8.798562357153756E+00;1.074401508123103E+02;
1.099000000000000E+09;-9.107270640881715E+00;1.074485676913001E+02;
1.100000000000000E+09;-9.429338285789381E+00;1.075708447290083E+02;
1.101000000000000E+09;-9.768000689761607E+00;1.077505141482920E+02;
1.102000000000000E+09;-1.012252387843943E+01;1.080455931487759E+02;
1.103000000000000E+09;-1.048548868891818E+01;1.085063594355094E+02;
1.104000000000000E+09;-1.087506870680382E+01;1.090804251126046E+02;
1.105000000000000E+09;-1.127237789724863E+01;1.098199061391197E+02;
1.106000000000000E+09;-1.168931797672655E+01;1.107780613346019E+02;
1.107000000000000E+09;-1.211733164409240E+01;1.120198134740265E+02;
1.108000000000000E+09;-1.254314920102425E+01;1.135699294829369E+02;
1.109000000000000E+09;-1.297776201680279E+01;1.153303296769703E+02;
1.110000000000000E+09;-1.340545327244595E+01;1.174731780677704E+02;
1.111000000000000E+09;-1.381866443910930E+01;1.200942613155994E+02;
1.112000000000000E+09;-1.419578029158527E+01;1.230370730638032E+02;
1.113000000000000E+09;-1.454509333508840E+01;1.263204707884268E+02;
1.114000000000000E+09;-1.483885517994325E+01;1.300080504934555E+02;
1.115000000000000E+09;-1.505762317728996E+01;1.340727791552553E+02;
1.116000000000000E+09;-1.521105338157991E+01;1.382164272817249E+02;
1.117000000000000E+09;-1.526840243868984E+01;1.425248798726774E+02;
1.118000000000000E+09;-1.522402075054080E+01;1.468837292977879E+02;
1.119000000000000E+09;-1.510337782868377E+01;1.510370914754871E+02;
1.120000000000000E+09;-1.490863560259338E+01;1.547915050677954E+02;
1.121000000000000E+09;-1.465639606367465E+01;1.583617239007603E+02;
1.122000000000000E+09;-1.434646066882097E+01;1.616052940281138E+02;
1.123000000000000E+09;-1.400495994832276E+01;1.644247398060483E+02;
1.124000000000000E+09;-1.362864766518033E+01;1.668630014978222E+02;
1.125000000000000E+09;-1.324558857463988E+01;1.689431821311079E+02;
1.126000000000000E+09;-1.284122079474354E+01;1.706936994485579E+02;
1.127000000000000E+09;-1.243778213535404E+01;1.720939528380205E+02;
1.128000000000000E+09;-1.203924304163001E+01;1.731969677907207E+02;
1.129000000000000E+09;-1.165066953970889E+01;1.740378432425759E+02;
1.130000000000000E+09;-1.126576107127178E+01;1.746958605176913E+02;
1.131000000000000E+09;-1.090461941017711E+01;1.751511991442830E+02;
1.132000000000000E+09;-1.054599913259603E+01;1.754291940153404E+02;
1.133000000000000E+09;-1.019237010505257E+01;1.755563726645287E+02;
1.134000000000000E+09;-9.846594368717570E+00;1.755867955054933E+02;
1.135000000000000E+09;-9.525762955692779E+00;1.754434381658255E+02;
1.136000000000000E+09;-9.209188369880527E+00;1.752347589376680E+02;
1.137000000000000E+09;-8.892959528382571E+00;1.749413695908326E+02;
1.138000000000000E+09;-8.592779232185935E+00;1.745087927859631E+02;
1.139000000000000E+09;-8.314990653617301E+00;1.739907472684439E+02;
1.140000000000000E+09;-8.037855256370460E+00;1.734132117560353E+02;
1.141000000000000E+09;-7.776755428510008E+00;1.727890468551771E+02;
1.142000000000000E+09;-7.528199085141742E+00;1.720843529193448E+02;
1.143000000000000E+09;-7.292765458417984E+00;1.713572065914276E+02;
1.144000000000000E+09;-7.069163338136189E+00;1.706570069575131E+02;
1.145000000000000E+09;-6.851485719913089E+00;1.699024532799829E+02;
1.146000000000000E+09;-6.647579498334189E+00;1.691367965936221E+02;
1.147000000000000E+09;-6.443506301740058E+00;1.683843045247496E+02;
1.148000000000000E+09;-6.247392443037265E+00;1.676621616208382E+02;
1.149000000000000E+09;-6.063067212075378E+00;1.669469689320435E+02;
1.150000000000000E+09;-5.878350850997963E+00;1.661440382305450E+02;
1.151000000000000E+09;-5.697549560245351E+00;1.653731834312310E+02;
1.152000000000000E+09;-5.526926541587991E+00;1.645776402041094E+02;
1.153000000000000E+09;-5.356781335039015E+00;1.638451428575225E+02;
1.154000000000000E+09;-5.197159506237560E+00;1.630283951879943E+02;
1.155000000000000E+09;-5.041907428672548E+00;1.622947594561137E+02;
1.156000000000000E+09;-4.886916637992210E+00;1.615148308395645E+02;
1.157000000000000E+09;-4.739503986803680E+00;1.607053857580756E+02;
1.158000000000000E+09;-4.600279794153247E+00;1.599253542824542E+02;
1.159000000000000E+09;-4.456668394067695E+00;1.591462663918799E+02;
1.160000000000000E+09;-4.327252114904706E+00;1.583972823861691E+02;
1.161000000000000E+09;-4.205083449773879E+00;1.576198474793744E+02;
1.162000000000000E+09;-4.080674416659619E+00;1.568792541090185E+02;
1.163000000000000E+09;-3.966908897041151E+00;1.561143844374166E+02;
1.164000000000000E+09;-3.853985140480662E+00;1.554117363966213E+02;
1.165000000000000E+09;-3.748112118117028E+00;1.546701449893186E+02;
1.166000000000000E+09;-3.648496503185876E+00;1.539978135314583E+02;
1.167000000000000E+09;-3.548278230255284E+00;1.533274137579202E+02;
1.168000000000000E+09;-3.453523253334600E+00;1.526489155688662E+02;
1.169000000000000E+09;-3.360738375379848E+00;1.520108260553949E+02;
1.170000000000000E+09;-3.271357198929094E+00;1.513723121401213E+02;
1.171000000000000E+09;-3.186057158014233E+00;1.507053423491354E+02;
1.172000000000000E+09;-3.104413748539936E+00;1.500740979678914E+02;
1.173000000000000E+09;-3.025654216298703E+00;1.494559907155908E+02;
1.174000000000000E+09;-2.949043118126008E+00;1.488565486578694E+02;
1.175000000000000E+09;-2.878272903590921E+00;1.482513096790005E+02;
1.176000000000000E+09;-2.813397198513860E+00;1.476429342907079E+02;
1.177000000000000E+09;-2.745182656733784E+00;1.470801610497095E+02;
1.178000000000000E+09;-2.684120163782336E+00;1.465014795376391E+02;
1.179000000000000E+09;-2.623979196096604E+00;1.459189897900885E+02;
1.180000000000000E+09;-2.565771499925768E+00;1.453649700398430E+02;
1.181000000000000E+09;-2.510138977054662E+00;1.448444952099188E+02;
1.182000000000000E+09;-2.458761111244901E+00;1.443005708368712E+02;
1.183000000000000E+09;-2.411453885421075E+00;1.437368079654144E+02;
1.184000000000000E+09;-2.360224631432213E+00;1.432050864514388E+02;
1.185000000000000E+09;-2.319482423582052E+00;1.426650308366510E+02;
1.186000000000000E+09;-2.277454390501965E+00;1.421483563661763E+02;
1.187000000000000E+09;-2.232035365064730E+00;1.416101318721635E+02;
1.188000000000000E+09;-2.196326578913996E+00;1.410998995608876E+02;
1.189000000000000E+09;-2.158478064546710E+00;1.405933501057997E+02;
1.190000000000000E+09;-2.121460227530613E+00;1.400610484812235E+02;
1.191000000000000E+09;-2.087943556178796E+00;1.395261374428645E+02;
1.192000000000000E+09;-2.059823934811763E+00;1.389910809978971E+02;
1.193000000000000E+09;-2.027249612014934E+00;1.384664942408860E+02;
1.194000000000000E+09;-2.003488305956338E+00;1.379142657129782E+02;
1.195000000000000E+09;-1.977118310804137E+00;1.374000024636790E+02;
1.196000000000000E+09;-1.950539343091834E+00;1.368762858883164E+02;
1.197000000000000E+09;-1.933240351170424E+00;1.363206438829880E+02;
1.198000000000000E+09;-1.908310227135150E+00;1.357488771362908E+02;
1.199000000000000E+09;-1.891513988002342E+00;1.352620534384291E+02;
1.200000000000000E+09;-1.871741690960109E+00;1.347071320722630E+02;
1.201000000000000E+09;-1.853482273464579E+00;1.341439446299923E+02;
1.202000000000000E+09;-1.837622598607807E+00;1.335562951026378E+02;
1.203000000000000E+09;-1.827787743295429E+00;1.330115625854290E+02;
1.204000000000000E+09;-1.815516414822231E+00;1.324410363591331E+02;
1.205000000000000E+09;-1.806183336342644E+00;1.318615917040116E+02;
1.206000000000000E+09;-1.796722216152700E+00;1.312957277231085E+02;
1.207000000000000E+09;-1.790987667411780E+00;1.307566570297830E+02;
1.208000000000000E+09;-1.783988741257445E+00;1.301545345852206E+02;
1.209000000000000E+09;-1.774646513938731E+00;1.295777818406337E+02;
1.210000000000000E+09;-1.768479739519998E+00;1.290185528609136E+02;
1.211000000000000E+09;-1.762955336754643E+00;1.284292460578283E+02;
1.212000000000000E+09;-1.759181800702289E+00;1.278802339296871E+02;
1.213000000000000E+09;-1.752370987836959E+00;1.272568028568246E+02;
1.214000000000000E+09;-1.746966938452362E+00;1.266929639435553E+02;
1.215000000000000E+09;-1.739370907230768E+00;1.261031925015775E+02;
1.216000000000000E+09;-1.735071807474836E+00;1.255046406669935E+02;
1.217000000000000E+09;-1.728572239306551E+00;1.249139328804254E+02;
1.218000000000000E+09;-1.722008321163513E+00;1.243282004457043E+02;
1.219000000000000E+09;-1.717720636769723E+00;1.237273367017238E+02;
1.220000000000000E+09;-1.708991023278904E+00;1.231072108479981E+02;
1.221000000000000E+09;-1.700865627113727E+00;1.225161143333455E+02;
1.222000000000000E+09;-1.697993168839297E+00;1.219257715922763E+02;
1.223000000000000E+09;-1.686432597732621E+00;1.213118636592496E+02;
1.224000000000000E+09;-1.678556962201725E+00;1.207019112215518E+02;
1.225000000000000E+09;-1.667226385682936E+00;1.201237980000256E+02;
1.226000000000000E+09;-1.658315148145180E+00;1.195112832475141E+02;
1.227000000000000E+09;-1.648752723156827E+00;1.189047046273470E+02;
1.228000000000000E+09;-1.637763246024158E+00;1.183027601747773E+02;
1.229000000000000E+09;-1.621020868850812E+00;1.176945102094544E+02;
1.230000000000000E+09;-1.612262661772454E+00;1.171014125497770E+02;
1.231000000000000E+09;-1.595104902115904E+00;1.164742282290498E+02;
1.232000000000000E+09;-1.582902485494363E+00;1.158950020589054E+02;
1.233000000000000E+09;-1.567549471129848E+00;1.152957031377555E+02;
1.234000000000000E+09;-1.551775269332373E+00;1.146769248079941E+02;
1.235000000000000E+09;-1.535071347131755E+00;1.141030410597290E+02;
1.236000000000000E+09;-1.518359526539099E+00;1.135324848973002E+02;
1.237000000000000E+09;-1.498969245983782E+00;1.129189141724878E+02;
1.238000000000000E+09;-1.485745840918544E+00;1.123509121913161E+02;
1.239000000000000E+09;-1.464603871179847E+00;1.117589847711975E+02;
1.240000000000000E+09;-1.446598100875649E+00;1.112105334375256E+02;
1.241000000000000E+09;-1.432416040469463E+00;1.106271302315818E+02;
1.242000000000000E+09;-1.414745740305768E+00;1.101087696561594E+02;
1.243000000000000E+09;-1.396606257934756E+00;1.095477307697595E+02;
1.244000000000000E+09;-1.374787354503509E+00;1.090372444075406E+02;
1.245000000000000E+09;-1.356283647800212E+00;1.084878197746688E+02;
1.246000000000000E+09;-1.339211899227608E+00;1.080028704614200E+02;
1.247000000000000E+09;-1.316413256437523E+00;1.074729550049981E+02;
1.248000000000000E+09;-1.297013668815080E+00;1.069626498285306E+02;
1.249000000000000E+09;-1.275556064704521E+00;1.065064204237610E+02;
1.250000000000000E+09;-1.258601457003832E+00;1.059972472740168E+02;
1.251000000000000E+09;-1.238264419982166E+00;1.055166827102880E+02;
1.252000000000000E+09;-1.215556025316088E+00;1.050741445329837E+02;
1.253000000000000E+09;-1.197266359337380E+00;1.046154276651062E+02;
1.254000000000000E+09;-1.180416750627980E+00;1.041540031706034E+02;
1.255000000000000E+09;-1.160237313933184E+00;1.037042936787517E+02;
1.256000000000000E+09;-1.139165898725872E+00;1.032486112221366E+02;
1.257000000000000E+09;-1.121570686996296E+00;1.028552392364296E+02;
1.258000000000000E+09;-1.104003227977333E+00;1.024271230228597E+02;
1.259000000000000E+09;-1.085530132365191E+00;1.019756906084435E+02;
1.260000000000000E+09;-1.068293421754849E+00;1.015527451301659E+02;
1.261000000000000E+09;-1.054231845991223E+00;1.011745910764333E+02;
1.262000000000000E+09;-1.038110829554739E+00;1.007519547544833E+02;
1.263000000000000E+09;-1.020962137137843E+00;1.003563238763927E+02;
1.264000000000000E+09;-1.006698547761170E+00;9.993222429703890E+01;
1.265000000000000E+09;-9.939810795235460E-01;9.955263643099723E+01;
1.266000000000000E+09;-9.813734988099632E-01;9.918135677824888E+01;
1.267000000000000E+09;-9.692950232341268E-01;9.878087203318884E+01;
1.268000000000000E+09;-9.586792816859989E-01;9.838523023248233E+01;
1.269000000000000E+09;-9.493863593668179E-01;9.800758982609734E+01;
1.270000000000000E+09;-9.404064191039152E-01;9.762878549403182E+01;
1.271000000000000E+09;-9.347255622587749E-01;9.727693177904969E+01;
1.272000000000000E+09;-9.289573306084596E-01;9.685975761511705E+01;
1.273000000000000E+09;-9.205936524825207E-01;9.649446804874518E+01;
1.274000000000000E+09;-9.174740418634413E-01;9.610185395791537E+01;
1.275000000000000E+09;-9.114689082948615E-01;9.575504617779863E+01;
1.276000000000000E+09;-9.101330326093595E-01;9.538257029564915E+01;
1.277000000000000E+09;-9.076295218574983E-01;9.499933365429550E+01;
1.278000000000000E+09;-9.051079338833118E-01;9.460138025389948E+01;
1.279000000000000E+09;-9.058495386602584E-01;9.423718434855894E+01;
1.280000000000000E+09;-9.037149094238648E-01;9.385815072314499E+01;
1.281000000000000E+09;-9.105822952877920E-01;9.350906662633064E+01;
1.282000000000000E+09;-9.094208575772318E-01;9.309035127630409E+01;
1.283000000000000E+09;-9.143048263095449E-01;9.267444651112051E+01;
1.284000000000000E+09;-9.131324147763982E-01;9.232816623118349E+01;
1.285000000000000E+09;-9.173648187062416E-01;9.191937317680652E+01;
1.286000000000000E+09;-9.232975582946912E-01;9.148801065056944E+01;
1.287000000000000E+09;-9.295985732751015E-01;9.107691842129610E+01;
1.288000000000000E+09;-9.349542567001555E-01;9.067225723123035E+01;
1.289000000000000E+09;-9.452356976047442E-01;9.028166514392409E+01;
1.290000000000000E+09;-9.527986958247312E-01;8.986544628959845E+01;
1.291000000000000E+09;-9.605801639041189E-01;8.940695920026735E+01;
1.292000000000000E+09;-9.700513888800444E-01;8.897737820604343E+01;
