# Version 1.00
#
freq[Hz];db:Trc4_S11;ang:Trc4_S11;
1.000000000000000E+09;-1.279534202962560E+00;1.577588804034532E+02;
1.001000000000000E+09;-1.302067947434917E+00;1.573003355315797E+02;
1.002000000000000E+09;-1.326006198124254E+00;1.568239731419124E+02;
1.003000000000000E+09;-1.353784641835094E+00;1.563646230740972E+02;
1.004000000000000E+09;-1.382797301052599E+00;1.558444902050380E+02;
1.005000000000000E+09;-1.409226058526649E+00;1.553624076276422E+02;
1.006000000000000E+09;-1.439153409989666E+00;1.548525524465045E+02;
1.007000000000000E+09;-1.472937517581541E+00;1.543389645512865E+02;
1.008000000000000E+09;-1.505765092848617E+00;1.538795767858370E+02;
1.009000000000000E+09;-1.543859215017174E+00;1.533349252112831E+02;
1.010000000000000E+09;-1.577968939660121E+00;1.528078979965437E+02;
1.011000000000000E+09;-1.617799763867427E+00;1.522508520516494E+02;
1.012000000000000E+09;-1.655718908590733E+00;1.517204169054316E+02;
1.013000000000000E+09;-1.692091993174627E+00;1.511909027359908E+02;
1.014000000000000E+09;-1.735709903669671E+00;1.506190555418025E+02;
1.015000000000000E+09;-1.778986674536544E+00;1.500727893651590E+02;
1.016000000000000E+09;-1.821532776664164E+00;1.495166728376247E+02;
1.017000000000000E+09;-1.862970979495027E+00;1.489252895243243E+02;
1.018000000000000E+09;-1.910411723866844E+00;1.483387011630846E+02;
1.019000000000000E+09;-1.960048728879499E+00;1.477539144660738E+02;
1.020000000000000E+09;-2.002656455567261E+00;1.471789862293915E+02;
1.021000000000000E+09;-2.053150653097605E+00;1.465603246722127E+02;
1.022000000000000E+09;-2.098875685666164E+00;1.459506628719674E+02;
1.023000000000000E+09;-2.153406197782306E+00;1.453309688653759E+02;
1.024000000000000E+09;-2.204106133859028E+00;1.447338542790559E+02;
1.025000000000000E+09;-2.258157627174506E+00;1.441235721408895E+02;
1.026000000000000E+09;-2.309514257806422E+00;1.435072546386183E+02;
1.027000000000000E+09;-2.361999697357768E+00;1.429121330245851E+02;
1.028000000000000E+09;-2.413615564170049E+00;1.422651507589902E+02;
1.029000000000000E+09;-2.466958983464582E+00;1.416665679361163E+02;
1.030000000000000E+09;-2.520413277413485E+00;1.410553931420725E+02;
1.031000000000000E+09;-2.572881648170489E+00;1.404311091078760E+02;
1.032000000000000E+09;-2.630017392125423E+00;1.397866166011226E+02;
1.033000000000000E+09;-2.678736848717817E+00;1.391822090599567E+02;
1.034000000000000E+09;-2.733737767100188E+00;1.385590437516672E+02;
1.035000000000000E+09;-2.782492703633090E+00;1.379678703306596E+02;
1.036000000000000E+09;-2.835472981481397E+00;1.373303080899403E+02;
1.037000000000000E+09;-2.887878533675929E+00;1.366940633410512E+02;
1.038000000000000E+09;-2.939726868128008E+00;1.361203951216662E+02;
1.039000000000000E+09;-2.992424496672540E+00;1.355440693397835E+02;
1.040000000000000E+09;-3.042524441326472E+00;1.349180142472601E+02;
1.041000000000000E+09;-3.095584401898805E+00;1.343460617086901E+02;
1.042000000000000E+09;-3.141755602806242E+00;1.337685885262002E+02;
1.043000000000000E+09;-3.198097289688743E+00;1.331627351015533E+02;
1.044000000000000E+09;-3.240428229420686E+00;1.326099664704062E+02;
1.045000000000000E+09;-3.291425635719476E+00;1.320867062130878E+02;
1.046000000000000E+09;-3.334604501196223E+00;1.315065470338486E+02;
1.047000000000000E+09;-3.381056247279902E+00;1.309315349464102E+02;
1.048000000000000E+09;-3.425078903907935E+00;1.303724918500588E+02;
1.049000000000000E+09;-3.468264329328943E+00;1.298409761064518E+02;
1.050000000000000E+09;-3.513518766947912E+00;1.293016689816857E+02;
1.051000000000000E+09;-3.558270257585148E+00;1.287659064212552E+02;
1.052000000000000E+09;-3.603398412872962E+00;1.282589016514025E+02;
1.053000000000000E+09;-3.646770646534939E+00;1.277204181551787E+02;
1.054000000000000E+09;-3.692816309133631E+00;1.272032229400901E+02;
1.055000000000000E+09;-3.730374308386228E+00;1.266791108672530E+02;
1.056000000000000E+09;-3.777864085944766E+00;1.262113828768763E+02;
1.057000000000000E+09;-3.820710092897881E+00;1.257303218620360E+02;
1.058000000000000E+09;-3.865536572855225E+00;1.252046337910922E+02;
1.059000000000000E+09;-3.909531036167722E+00;1.247468661548038E+02;
1.060000000000000E+09;-3.956947193998323E+00;1.242324707248200E+02;
1.061000000000000E+09;-4.001064241150434E+00;1.237435930826572E+02;
1.062000000000000E+09;-4.050007162358083E+00;1.232175339451951E+02;
1.063000000000000E+09;-4.099585098911993E+00;1.227725149522390E+02;
1.064000000000000E+09;-4.147618926151467E+00;1.223074719595054E+02;
1.065000000000000E+09;-4.203276387581422E+00;1.218166723245378E+02;
1.066000000000000E+09;-4.260328727618251E+00;1.213328632855170E+02;
1.067000000000000E+09;-4.315105355709396E+00;1.208754718899233E+02;
1.068000000000000E+09;-4.376796131008647E+00;1.204399812440133E+02;
1.069000000000000E+09;-4.436941396060250E+00;1.199074185340138E+02;
1.070000000000000E+09;-4.499980664766266E+00;1.194267348384497E+02;
1.071000000000000E+09;-4.569653248132239E+00;1.189656750622748E+02;
1.072000000000000E+09;-4.641893267624168E+00;1.184904517555384E+02;
1.073000000000000E+09;-4.715906160167297E+00;1.179901166880762E+02;
1.074000000000000E+09;-4.798152604763152E+00;1.175197839503738E+02;
1.075000000000000E+09;-4.885789543492584E+00;1.170210486301776E+02;
1.076000000000000E+09;-4.973680280410926E+00;1.165520918272288E+02;
1.077000000000000E+09;-5.066851355442199E+00;1.160470032899515E+02;
1.078000000000000E+09;-5.164416147028320E+00;1.155968069418123E+02;
1.079000000000000E+09;-5.270669364883328E+00;1.151111654264780E+02;
1.080000000000000E+09;-5.386077107389249E+00;1.146171110624488E+02;
1.081000000000000E+09;-5.503113550954437E+00;1.141095258345125E+02;
1.082000000000000E+09;-5.629703009782040E+00;1.136282459817565E+02;
1.083000000000000E+09;-5.759078258837263E+00;1.131492436146214E+02;
1.084000000000000E+09;-5.908201105909613E+00;1.126561450600133E+02;
1.085000000000000E+09;-6.056240098513967E+00;1.121769762419868E+02;
1.086000000000000E+09;-6.216621982992722E+00;1.117638151769934E+02;
1.087000000000000E+09;-6.390132217568598E+00;1.112855427166448E+02;
1.088000000000000E+09;-6.573449220674502E+00;1.108448210806198E+02;
1.089000000000000E+09;-6.756608992045926E+00;1.104708871542421E+02;
1.090000000000000E+09;-6.961102212347004E+00;1.100793310039733E+02;
1.091000000000000E+09;-7.169101276536848E+00;1.097268506153189E+02;
1.092000000000000E+09;-7.385206397360941E+00;1.093782115321434E+02;
1.093000000000000E+09;-7.615357944654752E+00;1.090530506714796E+02;
1.094000000000000E+09;-7.858786093383952E+00;1.087918326269823E+02;
1.095000000000000E+09;-8.115199407555927E+00;1.084689680859913E+02;
1.096000000000000E+09;-8.388998356423862E+00;1.083144463335576E+02;
1.097000000000000E+09;-8.672928571285532E+00;1.081910003939850E+02;
1.098000000000000E+09;-8.971324403613366E+00;1.080685740005954E+02;
1.099000000000000E+09;-9.288940156643452E+00;1.080384726930847E+02;
1.100000000000000E+09;-9.619304957121116E+00;1.081301321055202E+02;
1.101000000000000E+09;-9.967216916879007E+00;1.082602569273822E+02;
1.102000000000000E+09;-1.033424016333893E+01;1.085115121089133E+02;
1.103000000000000E+09;-1.072386259862404E+01;1.089583467051068E+02;
1.104000000000000E+09;-1.113185360997825E+01;1.094870285419442E+02;
1.105000000000000E+09;-1.156073746064011E+01;1.102574386491070E+02;
1.106000000000000E+09;-1.200917863394390E+01;1.112606021637374E+02;
1.107000000000000E+09;-1.247689065374638E+01;1.125831509629334E+02;
1.108000000000000E+09;-1.293173351438575E+01;1.142470048505267E+02;
1.109000000000000E+09;-1.341047180313274E+01;1.162254187614599E+02;
1.110000000000000E+09;-1.387983344376728E+01;1.186271371368809E+02;
1.111000000000000E+09;-1.432543383551066E+01;1.215821098110141E+02;
1.112000000000000E+09;-1.472464497071795E+01;1.249012870274492E+02;
1.113000000000000E+09;-1.510753979831889E+01;1.286522495558564E+02;
1.114000000000000E+09;-1.540205201792049E+01;1.328109518190156E+02;
1.115000000000000E+09;-1.562316839445259E+01;1.374030420487224E+02;
1.116000000000000E+09;-1.574822610294144E+01;1.421456739678316E+02;
1.117000000000000E+09;-1.577976175984385E+01;1.469947247274597E+02;
1.118000000000000E+09;-1.569025351978716E+01;1.518408558831105E+02;
1.119000000000000E+09;-1.549988055969200E+01;1.565064613358696E+02;
1.120000000000000E+09;-1.522932708241122E+01;1.606473009471744E+02;
1.121000000000000E+09;-1.488886303685479E+01;1.644614874874601E+02;
1.122000000000000E+09;-1.449190378183755E+01;1.678043382247415E+02;
1.123000000000000E+09;-1.405472860025396E+01;1.706126897128358E+02;
1.124000000000000E+09;-1.360892726331631E+01;1.730283392380983E+02;
1.125000000000000E+09;-1.314919885284146E+01;1.749923095552145E+02;
1.126000000000000E+09;-1.268170426318581E+01;1.765918140386768E+02;
1.127000000000000E+09;-1.223731149428296E+01;1.777985410318891E+02;
1.128000000000000E+09;-1.178912664046640E+01;1.788089158969107E+02;
1.129000000000000E+09;-1.134781395587268E+01;1.794552711946103E+02;
1.130000000000000E+09;-1.092208616748519E+01;1.799234418412375E+02;
1.131000000000000E+09;-1.051799241849602E+01;-1.798362882887780E+02;
1.132000000000000E+09;-1.012521585672858E+01;-1.797543825893925E+02;
1.133000000000000E+09;-9.744322678731695E+00;-1.798811903867151E+02;
1.134000000000000E+09;-9.377114253343668E+00;1.798567826182048E+02;
1.135000000000000E+09;-9.025487633061140E+00;1.795274372870847E+02;
1.136000000000000E+09;-8.693344190463238E+00;1.790516888152409E+02;
1.137000000000000E+09;-8.364648714756189E+00;1.784903681373125E+02;
1.138000000000000E+09;-8.061271108810331E+00;1.778386094482323E+02;
1.139000000000000E+09;-7.776413051870966E+00;1.770896086700644E+02;
1.140000000000000E+09;-7.500765042376793E+00;1.763646904316941E+02;
1.141000000000000E+09;-7.227283246925428E+00;1.755738550529246E+02;
1.142000000000000E+09;-6.978115027233817E+00;1.747240824789288E+02;
1.143000000000000E+09;-6.737752699640548E+00;1.738584707090271E+02;
1.144000000000000E+09;-6.502997650056353E+00;1.729560715574383E+02;
1.145000000000000E+09;-6.281703042815287E+00;1.720735099320975E+02;
1.146000000000000E+09;-6.073321804274739E+00;1.711444710707262E+02;
1.147000000000000E+09;-5.865656177168981E+00;1.702004446127115E+02;
1.148000000000000E+09;-5.674557499566520E+00;1.692575936646310E+02;
1.149000000000000E+09;-5.483263595297608E+00;1.683279707694967E+02;
1.150000000000000E+09;-5.307806288132332E+00;1.673820135587601E+02;
1.151000000000000E+09;-5.139268635416887E+00;1.664680446493141E+02;
1.152000000000000E+09;-4.971924186355023E+00;1.655377899027717E+02;
1.153000000000000E+09;-4.815285514233678E+00;1.646334513655653E+02;
1.154000000000000E+09;-4.663642031982079E+00;1.637245661408166E+02;
1.155000000000000E+09;-4.516833946320910E+00;1.628116777045628E+02;
1.156000000000000E+09;-4.374437613820749E+00;1.619635145735493E+02;
1.157000000000000E+09;-4.237495078211035E+00;1.610729021311676E+02;
1.158000000000000E+09;-4.106561801262582E+00;1.602271875811408E+02;
1.159000000000000E+09;-3.974994649759870E+00;1.594043822458669E+02;
1.160000000000000E+09;-3.853751731578360E+00;1.585692852781345E+02;
1.161000000000000E+09;-3.738106100432964E+00;1.577322162521415E+02;
1.162000000000000E+09;-3.617394343628538E+00;1.569436466308029E+02;
1.163000000000000E+09;-3.510937895083413E+00;1.561417127708272E+02;
1.164000000000000E+09;-3.401518354468394E+00;1.553387702017089E+02;
1.165000000000000E+09;-3.303691426405090E+00;1.545631789729802E+02;
1.166000000000000E+09;-3.204639623422025E+00;1.538133109683316E+02;
1.167000000000000E+09;-3.110728165606601E+00;1.530562356773811E+02;
1.168000000000000E+09;-3.023383459772570E+00;1.523402419541880E+02;
1.169000000000000E+09;-2.937232320676259E+00;1.516263752385608E+02;
1.170000000000000E+09;-2.855178040971192E+00;1.509270871092354E+02;
1.171000000000000E+09;-2.773084350214283E+00;1.502280709945986E+02;
1.172000000000000E+09;-2.697180703058508E+00;1.495464820220729E+02;
1.173000000000000E+09;-2.625841058825895E+00;1.488681573293863E+02;
1.174000000000000E+09;-2.554325290467307E+00;1.482171194184669E+02;
1.175000000000000E+09;-2.489281190852760E+00;1.475578711245718E+02;
1.176000000000000E+09;-2.426111499309688E+00;1.468954724216669E+02;
1.177000000000000E+09;-2.366833972949288E+00;1.462887030172925E+02;
1.178000000000000E+09;-2.312413268029431E+00;1.456577661646750E+02;
1.179000000000000E+09;-2.256335124444185E+00;1.450354185387354E+02;
1.180000000000000E+09;-2.206859401855804E+00;1.444229823226162E+02;
1.181000000000000E+09;-2.157104506536849E+00;1.438563329385579E+02;
1.182000000000000E+09;-2.112033689334806E+00;1.432504210777302E+02;
1.183000000000000E+09;-2.068387952272047E+00;1.426537043673361E+02;
1.184000000000000E+09;-2.024629831155562E+00;1.421007184262817E+02;
1.185000000000000E+09;-1.987311482654025E+00;1.415330489917604E+02;
1.186000000000000E+09;-1.949972589173603E+00;1.409759905539861E+02;
1.187000000000000E+09;-1.912041389666371E+00;1.403741072653358E+02;
1.188000000000000E+09;-1.881738247569255E+00;1.398380767716287E+02;
1.189000000000000E+09;-1.849544454154298E+00;1.392426742122744E+02;
1.190000000000000E+09;-1.819530822222813E+00;1.387065641479470E+02;
1.191000000000000E+09;-1.794295148329095E+00;1.381501603028383E+02;
1.192000000000000E+09;-1.770506148042434E+00;1.375652190336838E+02;
1.193000000000000E+09;-1.746476608335410E+00;1.370351766608358E+02;
1.194000000000000E+09;-1.724926063597265E+00;1.364305926753770E+02;
1.195000000000000E+09;-1.705991510571036E+00;1.358905315654362E+02;
1.196000000000000E+09;-1.689605384369372E+00;1.353250701555679E+02;
1.197000000000000E+09;-1.676401370240390E+00;1.347471701756269E+02;
1.198000000000000E+09;-1.658686267620474E+00;1.341649026589120E+02;
1.199000000000000E+09;-1.647794158343908E+00;1.336164792162762E+02;
1.200000000000000E+09;-1.636391226593523E+00;1.330553796784971E+02;
1.201000000000000E+09;-1.627954282936903E+00;1.324784080565363E+02;
1.202000000000000E+09;-1.620826750895410E+00;1.318945146381926E+02;
1.203000000000000E+09;-1.610240929442837E+00;1.313087865810647E+02;
1.204000000000000E+09;-1.605699271101434E+00;1.307335501498884E+02;
1.205000000000000E+09;-1.599221437774147E+00;1.301531527507709E+02;
1.206000000000000E+09;-1.593661133342819E+00;1.295605178891503E+02;
1.207000000000000E+09;-1.592357495578022E+00;1.289905591220299E+02;
1.208000000000000E+09;-1.589279311055084E+00;1.283668871373627E+02;
1.209000000000000E+09;-1.583930128384558E+00;1.277653804230163E+02;
1.210000000000000E+09;-1.583455638942298E+00;1.271744559500007E+02;
1.211000000000000E+09;-1.583914586075749E+00;1.265673340411909E+02;
1.212000000000000E+09;-1.582357599155894E+00;1.259737828249861E+02;
1.213000000000000E+09;-1.585295111912287E+00;1.253173795214498E+02;
1.214000000000000E+09;-1.587834919662136E+00;1.247211391145869E+02;
1.215000000000000E+09;-1.586342689319267E+00;1.241132096033006E+02;
1.216000000000000E+09;-1.587304706567423E+00;1.234917638420731E+02;
1.217000000000000E+09;-1.590463636404625E+00;1.228719643669018E+02;
1.218000000000000E+09;-1.590035401463240E+00;1.222585678380782E+02;
1.219000000000000E+09;-1.594737640539618E+00;1.216429584056907E+02;
1.220000000000000E+09;-1.592514606463927E+00;1.210236392429441E+02;
1.221000000000000E+09;-1.591028661503781E+00;1.204195468969337E+02;
1.222000000000000E+09;-1.595428266334311E+00;1.198065190426783E+02;
1.223000000000000E+09;-1.592957715742394E+00;1.192132369022989E+02;
1.224000000000000E+09;-1.587984236990787E+00;1.185660234515837E+02;
1.225000000000000E+09;-1.584971475010754E+00;1.179695799344203E+02;
1.226000000000000E+09;-1.582751241838102E+00;1.173384365690513E+02;
1.227000000000000E+09;-1.579496306449102E+00;1.167011264328372E+02;
1.228000000000000E+09;-1.580591000833427E+00;1.160892156466399E+02;
1.229000000000000E+09;-1.573059590136295E+00;1.154604896382046E+02;
1.230000000000000E+09;-1.576823333069490E+00;1.148589512710247E+02;
1.231000000000000E+09;-1.567694911815341E+00;1.142225873460807E+02;
1.232000000000000E+09;-1.564211070787753E+00;1.136300621980217E+02;
1.233000000000000E+09;-1.565379487926869E+00;1.130560069902613E+02;
1.234000000000000E+09;-1.561545177937292E+00;1.124512174053084E+02;
1.235000000000000E+09;-1.557220541835381E+00;1.118668764283647E+02;
1.236000000000000E+09;-1.551702608026237E+00;1.113372733742020E+02;
1.237000000000000E+09;-1.543177072040689E+00;1.107633272336151E+02;
1.238000000000000E+09;-1.538379729017662E+00;1.102286307438269E+02;
1.239000000000000E+09;-1.527812830952163E+00;1.096849337109318E+02;
1.240000000000000E+09;-1.518657420900088E+00;1.091502619418793E+02;
1.241000000000000E+09;-1.513806592810072E+00;1.086565252131687E+02;
1.242000000000000E+09;-1.503587044228969E+00;1.081680099766318E+02;
1.243000000000000E+09;-1.489975661638002E+00;1.076454461206124E+02;
1.244000000000000E+09;-1.476506112974440E+00;1.071901462700724E+02;
1.245000000000000E+09;-1.463254587699135E+00;1.067253232607145E+02;
1.246000000000000E+09;-1.451743925259692E+00;1.062592453749125E+02;
1.247000000000000E+09;-1.435781564069627E+00;1.057933780884214E+02;
1.248000000000000E+09;-1.423229643363938E+00;1.053562806744452E+02;
1.249000000000000E+09;-1.410508815020850E+00;1.049232053213767E+02;
1.250000000000000E+09;-1.393023928749937E+00;1.044718007375033E+02;
1.251000000000000E+09;-1.380910274358103E+00;1.040371232306137E+02;
1.252000000000000E+09;-1.361497026208163E+00;1.036714690305016E+02;
1.253000000000000E+09;-1.346746448369958E+00;1.032599712703669E+02;
1.254000000000000E+09;-1.330825887497963E+00;1.028563957716752E+02;
1.255000000000000E+09;-1.312499138803779E+00;1.024518212813088E+02;
1.256000000000000E+09;-1.296131287163856E+00;1.020674732708831E+02;
1.257000000000000E+09;-1.279984215977479E+00;1.017328320553300E+02;
1.258000000000000E+09;-1.263490772676544E+00;1.013598053549656E+02;
1.259000000000000E+09;-1.246512411296297E+00;1.009764788540271E+02;
1.260000000000000E+09;-1.229545511818300E+00;1.006212711267059E+02;
1.261000000000000E+09;-1.216097216502413E+00;1.002950483012856E+02;
1.262000000000000E+09;-1.199207109333897E+00;9.993645948464287E+01;
1.263000000000000E+09;-1.179351660540487E+00;9.960472241684668E+01;
1.264000000000000E+09;-1.163569865727456E+00;9.921441863059991E+01;
1.265000000000000E+09;-1.149045795367896E+00;9.888289509453628E+01;
1.266000000000000E+09;-1.134886111839688E+00;9.856972932877346E+01;
1.267000000000000E+09;-1.119541761589220E+00;9.821037708812634E+01;
1.268000000000000E+09;-1.105594233650454E+00;9.784500413930148E+01;
1.269000000000000E+09;-1.094504692930262E+00;9.750690764225045E+01;
1.270000000000000E+09;-1.083189270486943E+00;9.717359193417025E+01;
1.271000000000000E+09;-1.071028037723431E+00;9.684919544883212E+01;
1.272000000000000E+09;-1.060029730023382E+00;9.648378391817521E+01;
1.273000000000000E+09;-1.053524737417173E+00;9.612652312671010E+01;
1.274000000000000E+09;-1.043292375537935E+00;9.578018698381241E+01;
1.275000000000000E+09;-1.036526145355660E+00;9.543792301277986E+01;
1.276000000000000E+09;-1.028871902312558E+00;9.508162572457461E+01;
1.277000000000000E+09;-1.022035311982372E+00;9.472967565187611E+01;
1.278000000000000E+09;-1.017973665578155E+00;9.436454006956993E+01;
1.279000000000000E+09;-1.019803653872670E+00;9.400903775017605E+01;
1.280000000000000E+09;-1.008849877010719E+00;9.368166857976192E+01;
1.281000000000000E+09;-1.009471321871315E+00;9.329056732520598E+01;
1.282000000000000E+09;-1.007526678030332E+00;9.289592074728515E+01;
1.283000000000000E+09;-1.008117667631525E+00;9.249990173655860E+01;
1.284000000000000E+09;-1.008636932165600E+00;9.213733814765634E+01;
1.285000000000000E+09;-1.010468913864215E+00;9.174961847859561E+01;
1.286000000000000E+09;-1.014697458099211E+00;9.134399180964478E+01;
1.287000000000000E+09;-1.015657825283610E+00;9.093014413801174E+01;
1.288000000000000E+09;-1.021522852361873E+00;9.050483074571640E+01;
1.289000000000000E+09;-1.022604966114826E+00;9.013150908394222E+01;
1.290000000000000E+09;-1.034818644014298E+00;8.970512505477346E+01;
1.291000000000000E+09;-1.038729555662164E+00;8.925772481962564E+01;
1.292000000000000E+09;-1.047875754258214E+00;8.883004335408765E+01;
