# Version 1.00
#
freq[Hz];db:Trc4_S11;ang:Trc4_S11;
1.000000000000000E+09;-1.322604691811712E+00;1.579888660838202E+02;
1.001000000000000E+09;-1.347378714726325E+00;1.575298164792047E+02;
1.002000000000000E+09;-1.372343211137139E+00;1.570847327873875E+02;
1.003000000000000E+09;-1.399084493003511E+00;1.566447979254138E+02;
1.004000000000000E+09;-1.426535246675289E+00;1.561795216842922E+02;
1.005000000000000E+09;-1.453936666605006E+00;1.557189229527884E+02;
1.006000000000000E+09;-1.481706589990229E+00;1.552132339980116E+02;
1.007000000000000E+09;-1.516045245501051E+00;1.547237577496556E+02;
1.008000000000000E+09;-1.546018707413983E+00;1.542556421684876E+02;
1.009000000000000E+09;-1.579529042705420E+00;1.537423556324883E+02;
1.010000000000000E+09;-1.612792782938753E+00;1.532150259369150E+02;
1.011000000000000E+09;-1.652183594435310E+00;1.526731528767058E+02;
1.012000000000000E+09;-1.687239897815339E+00;1.521260104988720E+02;
1.013000000000000E+09;-1.721334842598383E+00;1.515931597411949E+02;
1.014000000000000E+09;-1.763027688622450E+00;1.510129944299679E+02;
1.015000000000000E+09;-1.805351842726771E+00;1.504441538400282E+02;
1.016000000000000E+09;-1.844071393392768E+00;1.498727206838587E+02;
1.017000000000000E+09;-1.885546662171963E+00;1.492601875845142E+02;
1.018000000000000E+09;-1.931418207753909E+00;1.486397286050677E+02;
1.019000000000000E+09;-1.978491575303252E+00;1.480327756260115E+02;
1.020000000000000E+09;-2.025334916447907E+00;1.474132332662158E+02;
1.021000000000000E+09;-2.072525259378837E+00;1.467517618742774E+02;
1.022000000000000E+09;-2.122303377039755E+00;1.461056142107653E+02;
1.023000000000000E+09;-2.173845952925275E+00;1.454551946346978E+02;
1.024000000000000E+09;-2.227077249619542E+00;1.448051331728849E+02;
1.025000000000000E+09;-2.279384634578167E+00;1.441310848514971E+02;
1.026000000000000E+09;-2.336555648762550E+00;1.434838381506773E+02;
1.027000000000000E+09;-2.387477388988176E+00;1.428195238075706E+02;
1.028000000000000E+09;-2.445798313566155E+00;1.421193530096052E+02;
1.029000000000000E+09;-2.498101595539076E+00;1.414678833436150E+02;
1.030000000000000E+09;-2.556837337225115E+00;1.407851912581129E+02;
1.031000000000000E+09;-2.615407033788694E+00;1.400868860961031E+02;
1.032000000000000E+09;-2.671205014871475E+00;1.393990707499073E+02;
1.033000000000000E+09;-2.726202850829698E+00;1.387189587726754E+02;
1.034000000000000E+09;-2.780326792991587E+00;1.380691362361835E+02;
1.035000000000000E+09;-2.839117189482594E+00;1.373861329339353E+02;
1.036000000000000E+09;-2.891684621061018E+00;1.366829257186115E+02;
1.037000000000000E+09;-2.951845891038534E+00;1.359821470469838E+02;
1.038000000000000E+09;-3.004352579734115E+00;1.353646946869351E+02;
1.039000000000000E+09;-3.062716213574646E+00;1.346911556658588E+02;
1.040000000000000E+09;-3.117480443687435E+00;1.340165651730693E+02;
1.041000000000000E+09;-3.172764795791452E+00;1.333639774510708E+02;
1.042000000000000E+09;-3.228202409863778E+00;1.326821445261515E+02;
1.043000000000000E+09;-3.281334088914107E+00;1.320239075686555E+02;
1.044000000000000E+09;-3.332803780348582E+00;1.313449640075615E+02;
1.045000000000000E+09;-3.389009259337568E+00;1.307600104775974E+02;
1.046000000000000E+09;-3.435038047061392E+00;1.301062276965519E+02;
1.047000000000000E+09;-3.487764702690221E+00;1.294622181663092E+02;
1.048000000000000E+09;-3.541316902336557E+00;1.288191209775908E+02;
1.049000000000000E+09;-3.593345838270576E+00;1.282260776846872E+02;
1.050000000000000E+09;-3.640477466885106E+00;1.275841205776091E+02;
1.051000000000000E+09;-3.692485503401393E+00;1.269918269172525E+02;
1.052000000000000E+09;-3.741181899536375E+00;1.263919860063740E+02;
1.053000000000000E+09;-3.795971169884301E+00;1.257787253771225E+02;
1.054000000000000E+09;-3.848819459036877E+00;1.251761826849195E+02;
1.055000000000000E+09;-3.894078108001762E+00;1.245712473410952E+02;
1.056000000000000E+09;-3.950051788287143E+00;1.240209403421498E+02;
1.057000000000000E+09;-4.002121059773115E+00;1.234503595286392E+02;
1.058000000000000E+09;-4.057246719223842E+00;1.228582288435049E+02;
1.059000000000000E+09;-4.111982586614202E+00;1.223129840741437E+02;
1.060000000000000E+09;-4.167144257122448E+00;1.217508935496494E+02;
1.061000000000000E+09;-4.224249765107633E+00;1.211928633954170E+02;
1.062000000000000E+09;-4.282077768340452E+00;1.206241566929233E+02;
1.063000000000000E+09;-4.342598111271580E+00;1.201051688663259E+02;
1.064000000000000E+09;-4.400556053152015E+00;1.195864112599746E+02;
1.065000000000000E+09;-4.465716774225245E+00;1.190430481668011E+02;
1.066000000000000E+09;-4.533618584246920E+00;1.184957778834938E+02;
1.067000000000000E+09;-4.599048375278537E+00;1.179708869388840E+02;
1.068000000000000E+09;-4.676212002518205E+00;1.174762504562044E+02;
1.069000000000000E+09;-4.746676450209032E+00;1.169272052217117E+02;
1.070000000000000E+09;-4.830099617967313E+00;1.164020778019497E+02;
1.071000000000000E+09;-4.907108424595961E+00;1.159339782937197E+02;
1.072000000000000E+09;-4.991659020034975E+00;1.154244431254750E+02;
1.073000000000000E+09;-5.080645834156876E+00;1.148952766657295E+02;
1.074000000000000E+09;-5.172385722956082E+00;1.143736673597583E+02;
1.075000000000000E+09;-5.270146915718192E+00;1.138458689045377E+02;
1.076000000000000E+09;-5.370598589934863E+00;1.133482731930619E+02;
1.077000000000000E+09;-5.480386250345807E+00;1.127983039232502E+02;
1.078000000000000E+09;-5.602299660656954E+00;1.123115184274276E+02;
1.079000000000000E+09;-5.723372893017845E+00;1.117975010880608E+02;
1.080000000000000E+09;-5.856807735122123E+00;1.112434221500479E+02;
1.081000000000000E+09;-5.996529751454745E+00;1.107546239761047E+02;
1.082000000000000E+09;-6.142640754855986E+00;1.102993015877060E+02;
1.083000000000000E+09;-6.297312235006013E+00;1.097933780172568E+02;
1.084000000000000E+09;-6.471439910523898E+00;1.093407346809895E+02;
1.085000000000000E+09;-6.644089021793449E+00;1.089009582777217E+02;
1.086000000000000E+09;-6.829836529417548E+00;1.085065903429489E+02;
1.087000000000000E+09;-7.023176807253621E+00;1.080743867027240E+02;
1.088000000000000E+09;-7.231175076291692E+00;1.076599637370386E+02;
1.089000000000000E+09;-7.449052199987576E+00;1.073046738799112E+02;
1.090000000000000E+09;-7.680185556914518E+00;1.070271899632766E+02;
1.091000000000000E+09;-7.921055844048816E+00;1.067074107507642E+02;
1.092000000000000E+09;-8.177030055981136E+00;1.065029002719740E+02;
1.093000000000000E+09;-8.443301021304393E+00;1.063907712283377E+02;
1.094000000000000E+09;-8.725825919824842E+00;1.062484874474771E+02;
1.095000000000000E+09;-9.017427263735184E+00;1.061834207499561E+02;
1.096000000000000E+09;-9.324992941654578E+00;1.062985420267072E+02;
1.097000000000000E+09;-9.639242677103780E+00;1.063850301424091E+02;
1.098000000000000E+09;-9.974503470286500E+00;1.066335666593970E+02;
1.099000000000000E+09;-1.031967823471248E+01;1.069409915032463E+02;
1.100000000000000E+09;-1.068228349004512E+01;1.074023301291400E+02;
1.101000000000000E+09;-1.105920947231632E+01;1.079907746930878E+02;
1.102000000000000E+09;-1.145326776083785E+01;1.087360172969732E+02;
1.103000000000000E+09;-1.186174179385639E+01;1.096534746856037E+02;
1.104000000000000E+09;-1.228336289190331E+01;1.108628206847962E+02;
1.105000000000000E+09;-1.271340197181054E+01;1.122993118534834E+02;
1.106000000000000E+09;-1.315783084562617E+01;1.139944155684198E+02;
1.107000000000000E+09;-1.359998116623590E+01;1.161527597998838E+02;
1.108000000000000E+09;-1.402172620402937E+01;1.186081246731365E+02;
1.109000000000000E+09;-1.444084513801014E+01;1.215685173946438E+02;
1.110000000000000E+09;-1.482262576644072E+01;1.248819565105177E+02;
1.111000000000000E+09;-1.513278491434487E+01;1.287470267309332E+02;
1.112000000000000E+09;-1.537742983510896E+01;1.328484393050892E+02;
1.113000000000000E+09;-1.556833052255819E+01;1.370759623238228E+02;
1.114000000000000E+09;-1.565784881085488E+01;1.416101276522303E+02;
1.115000000000000E+09;-1.564056072002814E+01;1.462428354722312E+02;
1.116000000000000E+09;-1.555517158562598E+01;1.506789922010804E+02;
1.117000000000000E+09;-1.537184810311791E+01;1.549779693462745E+02;
1.118000000000000E+09;-1.509826478537168E+01;1.590191147499081E+02;
1.119000000000000E+09;-1.476778832275363E+01;1.626292309289640E+02;
1.120000000000000E+09;-1.439472888172226E+01;1.657335672718954E+02;
1.121000000000000E+09;-1.397553310582261E+01;1.684029497635773E+02;
1.122000000000000E+09;-1.354927443646805E+01;1.707233666466677E+02;
1.123000000000000E+09;-1.310462827861862E+01;1.724953461555267E+02;
1.124000000000000E+09;-1.266027380883957E+01;1.739720723324741E+02;
1.125000000000000E+09;-1.223113636963116E+01;1.750839837124261E+02;
1.126000000000000E+09;-1.179143744195389E+01;1.759487613819637E+02;
1.127000000000000E+09;-1.139073726842372E+01;1.765285010613209E+02;
1.128000000000000E+09;-1.099343105730527E+01;1.769396110624597E+02;
1.129000000000000E+09;-1.061206594557672E+01;1.771355910233226E+02;
1.130000000000000E+09;-1.024622266521971E+01;1.771796658595906E+02;
1.131000000000000E+09;-9.894698927079370E+00;1.770660080782768E+02;
1.132000000000000E+09;-9.553921706051993E+00;1.768489992044495E+02;
1.133000000000000E+09;-9.228796943169666E+00;1.764830695408170E+02;
1.134000000000000E+09;-8.919714108362092E+00;1.760776878669147E+02;
1.135000000000000E+09;-8.626205054587265E+00;1.755968382061289E+02;
1.136000000000000E+09;-8.346919017561026E+00;1.749995593290915E+02;
1.137000000000000E+09;-8.064946049388034E+00;1.744354968654672E+02;
1.138000000000000E+09;-7.804011538942960E+00;1.737600952497959E+02;
1.139000000000000E+09;-7.560436770583163E+00;1.730796469039302E+02;
1.140000000000000E+09;-7.318672277762397E+00;1.723939928613038E+02;
1.141000000000000E+09;-7.080953223715682E+00;1.716124554763450E+02;
1.142000000000000E+09;-6.858900216844558E+00;1.708185638162590E+02;
1.143000000000000E+09;-6.644567775557340E+00;1.700043326158313E+02;
1.144000000000000E+09;-6.428580216575890E+00;1.692085974147719E+02;
1.145000000000000E+09;-6.226512201892841E+00;1.683795543030630E+02;
1.146000000000000E+09;-6.033744126563446E+00;1.675011769503914E+02;
1.147000000000000E+09;-5.852835159871907E+00;1.666380139681377E+02;
1.148000000000000E+09;-5.674566850901316E+00;1.658356668402357E+02;
1.149000000000000E+09;-5.503136190584167E+00;1.649785924725631E+02;
1.150000000000000E+09;-5.334172804364753E+00;1.640820633228177E+02;
1.151000000000000E+09;-5.168665940501231E+00;1.632752143300883E+02;
1.152000000000000E+09;-5.015874168644674E+00;1.624090180379850E+02;
1.153000000000000E+09;-4.869899060321627E+00;1.615859030462056E+02;
1.154000000000000E+09;-4.722061251259920E+00;1.607567309175638E+02;
1.155000000000000E+09;-4.583400529778151E+00;1.599278522783257E+02;
1.156000000000000E+09;-4.441763158674059E+00;1.591335723539196E+02;
1.157000000000000E+09;-4.312382511438603E+00;1.583126319971081E+02;
1.158000000000000E+09;-4.186779783588768E+00;1.575378037030928E+02;
1.159000000000000E+09;-4.065220360813440E+00;1.567596398080946E+02;
1.160000000000000E+09;-3.946862455862880E+00;1.559925448672682E+02;
1.161000000000000E+09;-3.834760698049193E+00;1.552340856476658E+02;
1.162000000000000E+09;-3.725814071073605E+00;1.544664256805711E+02;
1.163000000000000E+09;-3.619930276514280E+00;1.537381882030943E+02;
1.164000000000000E+09;-3.516524929700014E+00;1.530224173816068E+02;
1.165000000000000E+09;-3.415849198143909E+00;1.522881821324732E+02;
1.166000000000000E+09;-3.323974915226160E+00;1.516081023101044E+02;
1.167000000000000E+09;-3.236096834201919E+00;1.509017098141487E+02;
1.168000000000000E+09;-3.150237732280802E+00;1.502209202500497E+02;
1.169000000000000E+09;-3.071005755084569E+00;1.495697788833763E+02;
1.170000000000000E+09;-2.993105152830354E+00;1.489185744826917E+02;
1.171000000000000E+09;-2.915903207913584E+00;1.482676509052004E+02;
1.172000000000000E+09;-2.844999626751216E+00;1.476377837310785E+02;
1.173000000000000E+09;-2.775914553684288E+00;1.470192075521592E+02;
1.174000000000000E+09;-2.709115647867146E+00;1.464214962765460E+02;
1.175000000000000E+09;-2.646052850960391E+00;1.458189042519955E+02;
1.176000000000000E+09;-2.588339464665563E+00;1.452128085558438E+02;
1.177000000000000E+09;-2.531915400439249E+00;1.446419465285435E+02;
1.178000000000000E+09;-2.480382819516255E+00;1.440513514708678E+02;
1.179000000000000E+09;-2.431021858199188E+00;1.434740323136595E+02;
1.180000000000000E+09;-2.386156784579988E+00;1.429320681978058E+02;
1.181000000000000E+09;-2.339795245417402E+00;1.423847433817649E+02;
1.182000000000000E+09;-2.305258335175678E+00;1.418489226301558E+02;
1.183000000000000E+09;-2.267639702648891E+00;1.413207299564820E+02;
1.184000000000000E+09;-2.229555516360302E+00;1.408048753172261E+02;
1.185000000000000E+09;-2.197366466315237E+00;1.402726472836189E+02;
1.186000000000000E+09;-2.165953704252430E+00;1.397906022429411E+02;
1.187000000000000E+09;-2.132693600187266E+00;1.392612605356057E+02;
1.188000000000000E+09;-2.110297244111385E+00;1.387693156428144E+02;
1.189000000000000E+09;-2.080906807499491E+00;1.382501427839774E+02;
1.190000000000000E+09;-2.057623922431020E+00;1.377465455013804E+02;
1.191000000000000E+09;-2.035339265595061E+00;1.372412899473553E+02;
1.192000000000000E+09;-2.017072909470165E+00;1.367649096286372E+02;
1.193000000000000E+09;-1.999034231247184E+00;1.362995895280783E+02;
1.194000000000000E+09;-1.979813463220333E+00;1.357481740026274E+02;
1.195000000000000E+09;-1.968791216202344E+00;1.352673170150093E+02;
1.196000000000000E+09;-1.954008363890682E+00;1.347412087342844E+02;
1.197000000000000E+09;-1.942735372841548E+00;1.342508739896817E+02;
1.198000000000000E+09;-1.930525327208161E+00;1.337260489081429E+02;
1.199000000000000E+09;-1.921757220890269E+00;1.332196626891641E+02;
1.200000000000000E+09;-1.914423168547502E+00;1.327003696834488E+02;
1.201000000000000E+09;-1.909962973429639E+00;1.321734090223601E+02;
1.202000000000000E+09;-1.901698218441150E+00;1.316421422050859E+02;
1.203000000000000E+09;-1.898150882445934E+00;1.311333112624670E+02;
1.204000000000000E+09;-1.898988433138428E+00;1.305885677415010E+02;
1.205000000000000E+09;-1.894359935250515E+00;1.300617152940754E+02;
1.206000000000000E+09;-1.896276604576419E+00;1.295184857202820E+02;
1.207000000000000E+09;-1.896070681661195E+00;1.289964840746782E+02;
1.208000000000000E+09;-1.898386284845989E+00;1.284214446601576E+02;
1.209000000000000E+09;-1.899144052603137E+00;1.278859988986219E+02;
1.210000000000000E+09;-1.900309491021034E+00;1.273237934675659E+02;
1.211000000000000E+09;-1.902620407054421E+00;1.267884268882391E+02;
1.212000000000000E+09;-1.906499386507539E+00;1.262255203181158E+02;
1.213000000000000E+09;-1.909459466019874E+00;1.256339131054289E+02;
1.214000000000000E+09;-1.912939345975494E+00;1.250936503462619E+02;
1.215000000000000E+09;-1.913179193008048E+00;1.245321923962523E+02;
1.216000000000000E+09;-1.916059159668647E+00;1.239491130345276E+02;
1.217000000000000E+09;-1.919040485951420E+00;1.233707449375129E+02;
1.218000000000000E+09;-1.919994966251045E+00;1.227917049102840E+02;
1.219000000000000E+09;-1.925144700093570E+00;1.222159043166837E+02;
1.220000000000000E+09;-1.922447948698221E+00;1.216190247802697E+02;
1.221000000000000E+09;-1.924126130852258E+00;1.210355641105682E+02;
1.222000000000000E+09;-1.925728551565920E+00;1.204454333051162E+02;
1.223000000000000E+09;-1.924451401786087E+00;1.198602959752761E+02;
1.224000000000000E+09;-1.924159847732428E+00;1.192301307075636E+02;
1.225000000000000E+09;-1.923826086136652E+00;1.186466967731526E+02;
1.226000000000000E+09;-1.921812939873588E+00;1.180485979123940E+02;
1.227000000000000E+09;-1.920990285362996E+00;1.174556032201950E+02;
1.228000000000000E+09;-1.921251877247611E+00;1.168627769483735E+02;
1.229000000000000E+09;-1.918216078980378E+00;1.162765490134006E+02;
1.230000000000000E+09;-1.918429463548179E+00;1.157082616516577E+02;
1.231000000000000E+09;-1.908474217977417E+00;1.151112518216029E+02;
1.232000000000000E+09;-1.901724689840874E+00;1.145172189717803E+02;
1.233000000000000E+09;-1.897909282549121E+00;1.139758486542548E+02;
1.234000000000000E+09;-1.892449420189595E+00;1.133748887996345E+02;
1.235000000000000E+09;-1.885488763530385E+00;1.128184256914779E+02;
1.236000000000000E+09;-1.877245184409238E+00;1.122941771297963E+02;
1.237000000000000E+09;-1.862129576188042E+00;1.117014839224755E+02;
1.238000000000000E+09;-1.859725710561952E+00;1.111878326477167E+02;
1.239000000000000E+09;-1.841216804601251E+00;1.106469161224028E+02;
1.240000000000000E+09;-1.831140794562349E+00;1.101395446469306E+02;
1.241000000000000E+09;-1.821008356782861E+00;1.096190680436619E+02;
1.242000000000000E+09;-1.803729197493367E+00;1.091290013201149E+02;
1.243000000000000E+09;-1.791028340027821E+00;1.086065375011517E+02;
1.244000000000000E+09;-1.772858610890229E+00;1.081455106650983E+02;
1.245000000000000E+09;-1.756275391877386E+00;1.076627848088983E+02;
1.246000000000000E+09;-1.739921124208409E+00;1.071898868517012E+02;
1.247000000000000E+09;-1.717109828173607E+00;1.067072233355913E+02;
1.248000000000000E+09;-1.696343534826128E+00;1.062065094861422E+02;
1.249000000000000E+09;-1.677741031501254E+00;1.057777839129841E+02;
1.250000000000000E+09;-1.657772637675183E+00;1.052956072740577E+02;
1.251000000000000E+09;-1.637549723736275E+00;1.048581382456906E+02;
1.252000000000000E+09;-1.617340996236749E+00;1.044311312668711E+02;
1.253000000000000E+09;-1.595556493528876E+00;1.040079163105704E+02;
1.254000000000000E+09;-1.574448805550516E+00;1.035561426753068E+02;
1.255000000000000E+09;-1.551676464949780E+00;1.031258912826340E+02;
1.256000000000000E+09;-1.535014377004751E+00;1.027007415835165E+02;
1.257000000000000E+09;-1.517875585721416E+00;1.023223590746440E+02;
1.258000000000000E+09;-1.496472844489125E+00;1.019052274024260E+02;
1.259000000000000E+09;-1.479501008549694E+00;1.014791044021004E+02;
1.260000000000000E+09;-1.457011400813185E+00;1.010826183533162E+02;
1.261000000000000E+09;-1.441115509030426E+00;1.007134308789311E+02;
1.262000000000000E+09;-1.425015182434399E+00;1.003233000119104E+02;
1.263000000000000E+09;-1.403870188707670E+00;9.995021095992799E+01;
1.264000000000000E+09;-1.391265553124669E+00;9.953909901783767E+01;
1.265000000000000E+09;-1.373650200676740E+00;9.917046509282129E+01;
1.266000000000000E+09;-1.361204961935155E+00;9.881904389849252E+01;
1.267000000000000E+09;-1.347529790816282E+00;9.841655266554754E+01;
1.268000000000000E+09;-1.333179562283519E+00;9.804598228741169E+01;
1.269000000000000E+09;-1.320534011433247E+00;9.766131667282558E+01;
1.270000000000000E+09;-1.309853912449547E+00;9.731782442107662E+01;
1.271000000000000E+09;-1.298213158928977E+00;9.696688221688341E+01;
1.272000000000000E+09;-1.288783506282488E+00;9.658124319593419E+01;
1.273000000000000E+09;-1.281163666157135E+00;9.621886569505801E+01;
1.274000000000000E+09;-1.276388986948301E+00;9.584528160095115E+01;
1.275000000000000E+09;-1.268943854854688E+00;9.548861089030648E+01;
1.276000000000000E+09;-1.261786590225381E+00;9.512292270770931E+01;
1.277000000000000E+09;-1.253983984909159E+00;9.476956686768540E+01;
1.278000000000000E+09;-1.249285606888059E+00;9.438156830431839E+01;
1.279000000000000E+09;-1.246281597548338E+00;9.400187682582481E+01;
1.280000000000000E+09;-1.242435301275423E+00;9.366043778175877E+01;
1.281000000000000E+09;-1.239445876497702E+00;9.326658154280894E+01;
1.282000000000000E+09;-1.240101513589624E+00;9.288498383337058E+01;
1.283000000000000E+09;-1.236733956838221E+00;9.246106017945111E+01;
1.284000000000000E+09;-1.234008721962922E+00;9.210845666292990E+01;
1.285000000000000E+09;-1.239952081516343E+00;9.171150709215684E+01;
1.286000000000000E+09;-1.237852273091951E+00;9.128023616406026E+01;
1.287000000000000E+09;-1.240438498783421E+00;9.088346599090325E+01;
1.288000000000000E+09;-1.246450602059626E+00;9.047672785981037E+01;
1.289000000000000E+09;-1.247367379425472E+00;9.007329419158988E+01;
1.290000000000000E+09;-1.251986406957805E+00;8.966022027675086E+01;
1.291000000000000E+09;-1.256148113593568E+00;8.922158050041001E+01;
1.292000000000000E+09;-1.261069749257457E+00;8.878592455279512E+01;
