# Version 1.00
#
freq[Hz];db:Trc4_S11;ang:Trc4_S11;
1.000000000000000E+09;-1.334379342760781E+00;1.579298211340980E+02;
1.001000000000000E+09;-1.357557296733049E+00;1.574878218361576E+02;
1.002000000000000E+09;-1.387834336983964E+00;1.570208928344993E+02;
1.003000000000000E+09;-1.413752122200563E+00;1.565785416299036E+02;
1.004000000000000E+09;-1.443135176233483E+00;1.560755665863692E+02;
1.005000000000000E+09;-1.472333610988595E+00;1.556408083094567E+02;
1.006000000000000E+09;-1.497976235596586E+00;1.551434765345193E+02;
1.007000000000000E+09;-1.534482903150159E+00;1.546209437565818E+02;
1.008000000000000E+09;-1.566421064123492E+00;1.541511382793849E+02;
1.009000000000000E+09;-1.602298770908145E+00;1.536252155727086E+02;
1.010000000000000E+09;-1.636835483330348E+00;1.531065496647033E+02;
1.011000000000000E+09;-1.676721813859749E+00;1.525587016552811E+02;
1.012000000000000E+09;-1.713127807918224E+00;1.520143320771174E+02;
1.013000000000000E+09;-1.748873533449573E+00;1.514742192670300E+02;
1.014000000000000E+09;-1.789805604882522E+00;1.508921127211315E+02;
1.015000000000000E+09;-1.835148537487608E+00;1.503199984349456E+02;
1.016000000000000E+09;-1.873712327401895E+00;1.497256799261983E+02;
1.017000000000000E+09;-1.916369166757720E+00;1.491071719948605E+02;
1.018000000000000E+09;-1.965557994294185E+00;1.484984870273560E+02;
1.019000000000000E+09;-2.015773905685053E+00;1.478730403908797E+02;
1.020000000000000E+09;-2.060933926868862E+00;1.472668130238281E+02;
1.021000000000000E+09;-2.110882495757703E+00;1.466116362545834E+02;
1.022000000000000E+09;-2.160090204483341E+00;1.459653763406503E+02;
1.023000000000000E+09;-2.215177432185568E+00;1.453180716803946E+02;
1.024000000000000E+09;-2.268462537132617E+00;1.446659282664976E+02;
1.025000000000000E+09;-2.324297783931150E+00;1.439716007512343E+02;
1.026000000000000E+09;-2.378330880744989E+00;1.433070492185745E+02;
1.027000000000000E+09;-2.432325509457338E+00;1.426648112866351E+02;
1.028000000000000E+09;-2.487357993578507E+00;1.419276889809975E+02;
1.029000000000000E+09;-2.545085353126188E+00;1.412917973110205E+02;
1.030000000000000E+09;-2.606169442114317E+00;1.405878144685929E+02;
1.031000000000000E+09;-2.662911079639689E+00;1.399034810348292E+02;
1.032000000000000E+09;-2.723050634988962E+00;1.392133162817939E+02;
1.033000000000000E+09;-2.777134463117524E+00;1.385383478517307E+02;
1.034000000000000E+09;-2.834968336445573E+00;1.378523829575618E+02;
1.035000000000000E+09;-2.894835813170831E+00;1.372027884055304E+02;
1.036000000000000E+09;-2.953493814610536E+00;1.365049096691715E+02;
1.037000000000000E+09;-3.009588234384346E+00;1.357897211533618E+02;
1.038000000000000E+09;-3.065492642344815E+00;1.351508462127613E+02;
1.039000000000000E+09;-3.123923649444979E+00;1.344824172642475E+02;
1.040000000000000E+09;-3.180009885618190E+00;1.338037408976508E+02;
1.041000000000000E+09;-3.238758213965649E+00;1.331772344338984E+02;
1.042000000000000E+09;-3.289811394973820E+00;1.324898052199113E+02;
1.043000000000000E+09;-3.347806557663447E+00;1.318006137356274E+02;
1.044000000000000E+09;-3.403341104761101E+00;1.311456593354773E+02;
1.045000000000000E+09;-3.456224662164884E+00;1.305286803822973E+02;
1.046000000000000E+09;-3.510869495532723E+00;1.298843202956227E+02;
1.047000000000000E+09;-3.565788301500930E+00;1.292324647930669E+02;
1.048000000000000E+09;-3.618307636905268E+00;1.285804065599825E+02;
1.049000000000000E+09;-3.673959518228987E+00;1.279811458747717E+02;
1.050000000000000E+09;-3.728590263895056E+00;1.273565940384140E+02;
1.051000000000000E+09;-3.775578601947987E+00;1.267544723255221E+02;
1.052000000000000E+09;-3.837359464077009E+00;1.261393204854895E+02;
1.053000000000000E+09;-3.893536605086364E+00;1.255555985391244E+02;
1.054000000000000E+09;-3.946570252638637E+00;1.249604477946647E+02;
1.055000000000000E+09;-3.992153275354306E+00;1.243612266733665E+02;
1.056000000000000E+09;-4.052610450788301E+00;1.237907408783655E+02;
1.057000000000000E+09;-4.108000054782411E+00;1.232284674506705E+02;
1.058000000000000E+09;-4.164107107698372E+00;1.226513580589176E+02;
1.059000000000000E+09;-4.223863442462293E+00;1.220989991056839E+02;
1.060000000000000E+09;-4.282864406527557E+00;1.215366228437914E+02;
1.061000000000000E+09;-4.343722678751485E+00;1.209915854427079E+02;
1.062000000000000E+09;-4.403966401150964E+00;1.203997764878222E+02;
1.063000000000000E+09;-4.472287102199845E+00;1.198999996237844E+02;
1.064000000000000E+09;-4.533380389267227E+00;1.193795758262047E+02;
1.065000000000000E+09;-4.605644088722693E+00;1.188293859277694E+02;
1.066000000000000E+09;-4.677585064128731E+00;1.183022478028739E+02;
1.067000000000000E+09;-4.749757995361788E+00;1.177699353090783E+02;
1.068000000000000E+09;-4.832286998097297E+00;1.172907606792852E+02;
1.069000000000000E+09;-4.912538025484576E+00;1.167373295497759E+02;
1.070000000000000E+09;-4.999109617956208E+00;1.162258018095021E+02;
1.071000000000000E+09;-5.086722977559096E+00;1.157580754125870E+02;
1.072000000000000E+09;-5.180321387273995E+00;1.152694420110722E+02;
1.073000000000000E+09;-5.275424195491356E+00;1.147669794374391E+02;
1.074000000000000E+09;-5.376677545333976E+00;1.142568835420768E+02;
1.075000000000000E+09;-5.489946571765490E+00;1.137719070824542E+02;
1.076000000000000E+09;-5.592706230756938E+00;1.132912862207057E+02;
1.077000000000000E+09;-5.716601103442676E+00;1.127465421582688E+02;
1.078000000000000E+09;-5.848745637064866E+00;1.122903730318402E+02;
1.079000000000000E+09;-5.975890178463574E+00;1.117986222153412E+02;
1.080000000000000E+09;-6.123337391633830E+00;1.112972809626609E+02;
1.081000000000000E+09;-6.276966343544984E+00;1.108411897896829E+02;
1.082000000000000E+09;-6.436342516429544E+00;1.104097278944392E+02;
1.083000000000000E+09;-6.604043542061030E+00;1.100136084158295E+02;
1.084000000000000E+09;-6.783921021619944E+00;1.095930833110555E+02;
1.085000000000000E+09;-6.970338855239988E+00;1.091965619307496E+02;
1.086000000000000E+09;-7.166978681240135E+00;1.088560168127127E+02;
1.087000000000000E+09;-7.384460539326845E+00;1.084952965135654E+02;
1.088000000000000E+09;-7.610282275356629E+00;1.081625518943917E+02;
1.089000000000000E+09;-7.842639113572885E+00;1.079379046288647E+02;
1.090000000000000E+09;-8.090489516215026E+00;1.077141247236458E+02;
1.091000000000000E+09;-8.352376182652829E+00;1.075314648159923E+02;
1.092000000000000E+09;-8.629500164688022E+00;1.074412747444162E+02;
1.093000000000000E+09;-8.924728833275410E+00;1.074275654533309E+02;
1.094000000000000E+09;-9.228350639336488E+00;1.074683793669000E+02;
1.095000000000000E+09;-9.549668632235726E+00;1.076122410432562E+02;
1.096000000000000E+09;-9.889008090874180E+00;1.079143245087748E+02;
1.097000000000000E+09;-1.023005485146222E+01;1.083783719363991E+02;
1.098000000000000E+09;-1.058813080499941E+01;1.088968981141577E+02;
1.099000000000000E+09;-1.096094705920899E+01;1.095992315049208E+02;
1.100000000000000E+09;-1.134607020654147E+01;1.104854160772258E+02;
1.101000000000000E+09;-1.173967064840229E+01;1.115647481641533E+02;
1.102000000000000E+09;-1.214242458691879E+01;1.128756156896400E+02;
1.103000000000000E+09;-1.254172552443883E+01;1.144804670326998E+02;
1.104000000000000E+09;-1.295210819799146E+01;1.163346110023040E+02;
1.105000000000000E+09;-1.334533512353975E+01;1.184330429481008E+02;
1.106000000000000E+09;-1.373942955630299E+01;1.208891963853083E+02;
1.107000000000000E+09;-1.410450045204234E+01;1.237556925325355E+02;
1.108000000000000E+09;-1.444125666281998E+01;1.269501037706915E+02;
1.109000000000000E+09;-1.474354775095934E+01;1.305523157744717E+02;
1.110000000000000E+09;-1.499359505277316E+01;1.343972485005298E+02;
1.111000000000000E+09;-1.514851659549759E+01;1.386402141816261E+02;
1.112000000000000E+09;-1.520716485699958E+01;1.428739764553742E+02;
1.113000000000000E+09;-1.521668202916474E+01;1.471782938204317E+02;
1.114000000000000E+09;-1.512140352225556E+01;1.514105770883285E+02;
1.115000000000000E+09;-1.493525735146272E+01;1.554242124335320E+02;
1.116000000000000E+09;-1.470765842943957E+01;1.592051981372895E+02;
1.117000000000000E+09;-1.441792645802425E+01;1.625818970708120E+02;
1.118000000000000E+09;-1.406517198926635E+01;1.656952411734909E+02;
1.119000000000000E+09;-1.369243061166547E+01;1.684402051948159E+02;
1.120000000000000E+09;-1.328628321767203E+01;1.706238448286239E+02;
1.121000000000000E+09;-1.287127746708310E+01;1.725398363742663E+02;
1.122000000000000E+09;-1.244735897781401E+01;1.741514912371020E+02;
1.123000000000000E+09;-1.202306538461031E+01;1.753378975321163E+02;
1.124000000000000E+09;-1.161073685746110E+01;1.762246738392425E+02;
1.125000000000000E+09;-1.120716647461441E+01;1.769116622005857E+02;
1.126000000000000E+09;-1.081071252783366E+01;1.773740639271757E+02;
1.127000000000000E+09;-1.043692446317192E+01;1.775769707474052E+02;
1.128000000000000E+09;-1.007205458897575E+01;1.776569320705880E+02;
1.129000000000000E+09;-9.720077888118958E+00;1.775268316947625E+02;
1.130000000000000E+09;-9.389050408608885E+00;1.773346948891136E+02;
1.131000000000000E+09;-9.070571601482506E+00;1.769704380783337E+02;
1.132000000000000E+09;-8.766073516558459E+00;1.765527479840829E+02;
1.133000000000000E+09;-8.476495042231846E+00;1.760162766775472E+02;
1.134000000000000E+09;-8.199618923717336E+00;1.754560175937265E+02;
1.135000000000000E+09;-7.944465014968010E+00;1.748086634546661E+02;
1.136000000000000E+09;-7.690498156481251E+00;1.741479908805965E+02;
1.137000000000000E+09;-7.448786900373756E+00;1.734367657387950E+02;
1.138000000000000E+09;-7.221031416833023E+00;1.727557699936861E+02;
1.139000000000000E+09;-7.003044851591262E+00;1.719917416784821E+02;
1.140000000000000E+09;-6.785528204824126E+00;1.712723488153516E+02;
1.141000000000000E+09;-6.570391424706484E+00;1.704840246955740E+02;
1.142000000000000E+09;-6.369038826273991E+00;1.696890782059868E+02;
1.143000000000000E+09;-6.177541626911495E+00;1.688622850359239E+02;
1.144000000000000E+09;-5.984093647577110E+00;1.680459188916329E+02;
1.145000000000000E+09;-5.797360209983209E+00;1.672035081653783E+02;
1.146000000000000E+09;-5.625300260316449E+00;1.663631432973322E+02;
1.147000000000000E+09;-5.454235348457905E+00;1.655101585385756E+02;
1.148000000000000E+09;-5.293468660994190E+00;1.646547844689688E+02;
1.149000000000000E+09;-5.132171151931683E+00;1.637839729795602E+02;
1.150000000000000E+09;-4.978838040784319E+00;1.629257353501413E+02;
1.151000000000000E+09;-4.827962845369166E+00;1.621274398805044E+02;
1.152000000000000E+09;-4.685358340074762E+00;1.612298510276072E+02;
1.153000000000000E+09;-4.548056452913797E+00;1.604146392381369E+02;
1.154000000000000E+09;-4.417129830856739E+00;1.595801130165924E+02;
1.155000000000000E+09;-4.290188602335296E+00;1.587797631555938E+02;
1.156000000000000E+09;-4.159338970510080E+00;1.579633267322382E+02;
1.157000000000000E+09;-4.041937950021468E+00;1.571512387749961E+02;
1.158000000000000E+09;-3.924616119784796E+00;1.563858544154322E+02;
1.159000000000000E+09;-3.816350544335125E+00;1.556179520654090E+02;
1.160000000000000E+09;-3.710343768883378E+00;1.548660430193697E+02;
1.161000000000000E+09;-3.603474310520757E+00;1.541109243859412E+02;
1.162000000000000E+09;-3.503964237366999E+00;1.533851348343766E+02;
1.163000000000000E+09;-3.407337850373145E+00;1.526636595098684E+02;
1.164000000000000E+09;-3.307866577368550E+00;1.519632479243342E+02;
1.165000000000000E+09;-3.219902431324643E+00;1.512538771514823E+02;
1.166000000000000E+09;-3.137020877120768E+00;1.505801019592566E+02;
1.167000000000000E+09;-3.054883210297701E+00;1.499048384952354E+02;
1.168000000000000E+09;-2.973559038970485E+00;1.492482445842136E+02;
1.169000000000000E+09;-2.898352615024901E+00;1.486193119540019E+02;
1.170000000000000E+09;-2.830008307429749E+00;1.479923395429834E+02;
1.171000000000000E+09;-2.756680246816946E+00;1.473550650019953E+02;
1.172000000000000E+09;-2.690711884919808E+00;1.467491403582169E+02;
1.173000000000000E+09;-2.627711931166452E+00;1.461419637430259E+02;
1.174000000000000E+09;-2.561986460096312E+00;1.455568355955677E+02;
1.175000000000000E+09;-2.505814999782184E+00;1.449681897091087E+02;
1.176000000000000E+09;-2.451693775790186E+00;1.443729713975772E+02;
1.177000000000000E+09;-2.396948675456168E+00;1.438231471829041E+02;
1.178000000000000E+09;-2.348853117658906E+00;1.432508640257461E+02;
1.179000000000000E+09;-2.304531033361778E+00;1.426643993343112E+02;
1.180000000000000E+09;-2.262844176005802E+00;1.421419146757668E+02;
1.181000000000000E+09;-2.219853984086524E+00;1.416090779915490E+02;
1.182000000000000E+09;-2.184977818092213E+00;1.410811977473032E+02;
1.183000000000000E+09;-2.152680430688765E+00;1.405397366355511E+02;
1.184000000000000E+09;-2.119587557777773E+00;1.400200575670368E+02;
1.185000000000000E+09;-2.088388083481804E+00;1.395282558598455E+02;
1.186000000000000E+09;-2.061675932177015E+00;1.390215439265386E+02;
1.187000000000000E+09;-2.031706279734536E+00;1.384945393443944E+02;
1.188000000000000E+09;-2.009633011773976E+00;1.380131062246552E+02;
1.189000000000000E+09;-1.984236055277331E+00;1.375121150251220E+02;
1.190000000000000E+09;-1.967108050247674E+00;1.370310554565185E+02;
1.191000000000000E+09;-1.946444912146750E+00;1.365408917659255E+02;
1.192000000000000E+09;-1.929397171952503E+00;1.360476251671275E+02;
1.193000000000000E+09;-1.913851891237109E+00;1.355626369480907E+02;
1.194000000000000E+09;-1.903197439828641E+00;1.350631911857012E+02;
1.195000000000000E+09;-1.886595384001810E+00;1.345630643570109E+02;
1.196000000000000E+09;-1.872115644462747E+00;1.340692006581463E+02;
1.197000000000000E+09;-1.866026982880435E+00;1.335556689843555E+02;
1.198000000000000E+09;-1.858896004104815E+00;1.330195958515894E+02;
1.199000000000000E+09;-1.851422377599413E+00;1.325530273649679E+02;
1.200000000000000E+09;-1.847303941446446E+00;1.320297539972463E+02;
1.201000000000000E+09;-1.842638804979440E+00;1.315026881860692E+02;
1.202000000000000E+09;-1.840501158778295E+00;1.309488492665641E+02;
1.203000000000000E+09;-1.840215342204715E+00;1.304615674662626E+02;
1.204000000000000E+09;-1.840117690948570E+00;1.299347223209527E+02;
1.205000000000000E+09;-1.837898038411512E+00;1.294264485369063E+02;
1.206000000000000E+09;-1.843889178850294E+00;1.288778230307651E+02;
1.207000000000000E+09;-1.844137393651538E+00;1.283525707744654E+02;
1.208000000000000E+09;-1.846269717522369E+00;1.278055790415950E+02;
1.209000000000000E+09;-1.847832650803148E+00;1.272649780511109E+02;
1.210000000000000E+09;-1.853677007630497E+00;1.267181200429428E+02;
1.211000000000000E+09;-1.858160897953600E+00;1.261741697294609E+02;
1.212000000000000E+09;-1.863809963911234E+00;1.256347391502656E+02;
1.213000000000000E+09;-1.867893079632787E+00;1.250337605917281E+02;
1.214000000000000E+09;-1.871834566807018E+00;1.245224541299066E+02;
1.215000000000000E+09;-1.873436612333577E+00;1.239529842281027E+02;
1.216000000000000E+09;-1.877507752316693E+00;1.233781988146483E+02;
1.217000000000000E+09;-1.880571520840902E+00;1.228344150262776E+02;
1.218000000000000E+09;-1.882398591100804E+00;1.222558515385444E+02;
1.219000000000000E+09;-1.886926350102162E+00;1.216855131906699E+02;
1.220000000000000E+09;-1.886258053292454E+00;1.211063728851777E+02;
1.221000000000000E+09;-1.886102806494787E+00;1.205141147423825E+02;
1.222000000000000E+09;-1.890770310213157E+00;1.199394627806316E+02;
1.223000000000000E+09;-1.888266940487784E+00;1.193488859297986E+02;
1.224000000000000E+09;-1.887648296902641E+00;1.187519694557066E+02;
1.225000000000000E+09;-1.886458383346433E+00;1.181755971168536E+02;
1.226000000000000E+09;-1.884379597754723E+00;1.175663250512081E+02;
1.227000000000000E+09;-1.885639119269582E+00;1.169749452671480E+02;
1.228000000000000E+09;-1.882935339495762E+00;1.163928701334872E+02;
1.229000000000000E+09;-1.879488745174475E+00;1.158052404895046E+02;
1.230000000000000E+09;-1.878791265019502E+00;1.152394591990140E+02;
1.231000000000000E+09;-1.870715534674697E+00;1.146586789579710E+02;
1.232000000000000E+09;-1.864084983474680E+00;1.140651220549735E+02;
1.233000000000000E+09;-1.857123228671766E+00;1.135103614335427E+02;
1.234000000000000E+09;-1.852373322352130E+00;1.129418247669433E+02;
1.235000000000000E+09;-1.847892292187288E+00;1.123822209249789E+02;
1.236000000000000E+09;-1.835906265923868E+00;1.118525002271156E+02;
1.237000000000000E+09;-1.828643608902066E+00;1.113013770367876E+02;
1.238000000000000E+09;-1.821628153781251E+00;1.107645860488477E+02;
1.239000000000000E+09;-1.805489425728117E+00;1.102146480553862E+02;
1.240000000000000E+09;-1.794303584494869E+00;1.097046832056350E+02;
1.241000000000000E+09;-1.779005889873292E+00;1.091795379819617E+02;
1.242000000000000E+09;-1.763687292673563E+00;1.086917086173127E+02;
1.243000000000000E+09;-1.750972234672743E+00;1.081860409505435E+02;
1.244000000000000E+09;-1.730188332854713E+00;1.077026035983360E+02;
1.245000000000000E+09;-1.718996704762155E+00;1.072159756583969E+02;
1.246000000000000E+09;-1.698385675534619E+00;1.067572573947293E+02;
1.247000000000000E+09;-1.677367393940748E+00;1.062875610380194E+02;
1.248000000000000E+09;-1.658915616888006E+00;1.058116049115148E+02;
1.249000000000000E+09;-1.638858458930677E+00;1.053687615122844E+02;
1.250000000000000E+09;-1.619496126858526E+00;1.049103084346200E+02;
1.251000000000000E+09;-1.600008448647598E+00;1.044554841504039E+02;
1.252000000000000E+09;-1.579725393732689E+00;1.040297309325790E+02;
1.253000000000000E+09;-1.558919191424465E+00;1.036081599823344E+02;
1.254000000000000E+09;-1.538315785382309E+00;1.031842403101365E+02;
1.255000000000000E+09;-1.516062757578894E+00;1.027583819814665E+02;
1.256000000000000E+09;-1.496764465060517E+00;1.023233250413301E+02;
1.257000000000000E+09;-1.479446084011183E+00;1.019533953503420E+02;
1.258000000000000E+09;-1.458116744171991E+00;1.015422579445220E+02;
1.259000000000000E+09;-1.439983176607025E+00;1.011177638769405E+02;
1.260000000000000E+09;-1.419381524980053E+00;1.007202671966314E+02;
1.261000000000000E+09;-1.403788196648095E+00;1.003440822589174E+02;
1.262000000000000E+09;-1.387949147512660E+00;9.995865045159992E+01;
1.263000000000000E+09;-1.366633213417618E+00;9.959511106145649E+01;
1.264000000000000E+09;-1.352738505640101E+00;9.917177381959200E+01;
1.265000000000000E+09;-1.337158648012760E+00;9.881347807553945E+01;
1.266000000000000E+09;-1.324419186251460E+00;9.846318758771538E+01;
1.267000000000000E+09;-1.312001254332287E+00;9.807334925187034E+01;
1.268000000000000E+09;-1.297292790450319E+00;9.769536369682577E+01;
1.269000000000000E+09;-1.286609520580823E+00;9.731694476224621E+01;
1.270000000000000E+09;-1.274504204038599E+00;9.697814053364731E+01;
1.271000000000000E+09;-1.263100039305310E+00;9.662392747952002E+01;
1.272000000000000E+09;-1.256729332817547E+00;9.623254829406612E+01;
1.273000000000000E+09;-1.248843463615193E+00;9.588583545128148E+01;
1.274000000000000E+09;-1.239734446635518E+00;9.551426678138407E+01;
1.275000000000000E+09;-1.232049619601713E+00;9.515827824735332E+01;
1.276000000000000E+09;-1.225825232713728E+00;9.479741315412727E+01;
1.277000000000000E+09;-1.220215283029992E+00;9.442475333896110E+01;
1.278000000000000E+09;-1.220788792223761E+00;9.406638708051219E+01;
1.279000000000000E+09;-1.212418934349090E+00;9.370077573989262E+01;
1.280000000000000E+09;-1.209353483679956E+00;9.335159189038534E+01;
1.281000000000000E+09;-1.208822474346417E+00;9.295805194964861E+01;
1.282000000000000E+09;-1.208018470127399E+00;9.257885674724581E+01;
1.283000000000000E+09;-1.207855496400612E+00;9.214547425125832E+01;
1.284000000000000E+09;-1.202924517192088E+00;9.181568153508503E+01;
1.285000000000000E+09;-1.208538557570825E+00;9.141304998750110E+01;
1.286000000000000E+09;-1.209256564463661E+00;9.101439731574771E+01;
1.287000000000000E+09;-1.212885934173083E+00;9.060661612966115E+01;
1.288000000000000E+09;-1.216251490334984E+00;9.017721618319285E+01;
1.289000000000000E+09;-1.217518172070240E+00;8.979353092647571E+01;
1.290000000000000E+09;-1.229013350296098E+00;8.937505305623151E+01;
1.291000000000000E+09;-1.226158914846214E+00;8.894893771286596E+01;
1.292000000000000E+09;-1.235437362720260E+00;8.853892800981416E+01;
