# Version 1.00
#
freq[Hz];db:Trc4_S11;ang:Trc4_S11;
1.000000000000000E+09;-1.323254965885071E+00;1.578076244639311E+02;
1.001000000000000E+09;-1.344784524696499E+00;1.573725957604881E+02;
1.002000000000000E+09;-1.371178465326270E+00;1.569175009150466E+02;
1.003000000000000E+09;-1.399886440386509E+00;1.564691826803495E+02;
1.004000000000000E+09;-1.427232534765943E+00;1.559867078709194E+02;
1.005000000000000E+09;-1.455440701047316E+00;1.555378646128692E+02;
1.006000000000000E+09;-1.482359152113525E+00;1.550655249594349E+02;
1.007000000000000E+09;-1.519197423477440E+00;1.545578458929791E+02;
1.008000000000000E+09;-1.552152602506114E+00;1.540800297097256E+02;
1.009000000000000E+09;-1.585217750182162E+00;1.535722694330279E+02;
1.010000000000000E+09;-1.618894284769722E+00;1.530438492224678E+02;
1.011000000000000E+09;-1.660153196401472E+00;1.525016827360232E+02;
1.012000000000000E+09;-1.697751291175197E+00;1.519640003808641E+02;
1.013000000000000E+09;-1.732704052975191E+00;1.514267319397863E+02;
1.014000000000000E+09;-1.772179637206511E+00;1.508650815833978E+02;
1.015000000000000E+09;-1.818318466036280E+00;1.502976136625688E+02;
1.016000000000000E+09;-1.859192539683245E+00;1.497107673988728E+02;
1.017000000000000E+09;-1.900817570013874E+00;1.491191982824794E+02;
1.018000000000000E+09;-1.946724698112429E+00;1.485084635304057E+02;
1.019000000000000E+09;-1.994969094704648E+00;1.478958705057495E+02;
1.020000000000000E+09;-2.041373642522958E+00;1.472869213765107E+02;
1.021000000000000E+09;-2.088783080163811E+00;1.466390938240180E+02;
1.022000000000000E+09;-2.137738278239523E+00;1.459960606140083E+02;
1.023000000000000E+09;-2.192599160069766E+00;1.453479044504332E+02;
1.024000000000000E+09;-2.244464743867784E+00;1.447197482825221E+02;
1.025000000000000E+09;-2.302373294116276E+00;1.440232245243277E+02;
1.026000000000000E+09;-2.355435665286640E+00;1.433768794805060E+02;
1.027000000000000E+09;-2.404603943068127E+00;1.427354736696531E+02;
1.028000000000000E+09;-2.463707773333347E+00;1.420203816304028E+02;
1.029000000000000E+09;-2.517672449357053E+00;1.413752907213076E+02;
1.030000000000000E+09;-2.575082145257036E+00;1.406885518861693E+02;
1.031000000000000E+09;-2.636033593791759E+00;1.400064331235899E+02;
1.032000000000000E+09;-2.689901312081474E+00;1.393226569771624E+02;
1.033000000000000E+09;-2.745296665752808E+00;1.386400632985503E+02;
1.034000000000000E+09;-2.802207633997304E+00;1.379826430601366E+02;
1.035000000000000E+09;-2.861317689889166E+00;1.373014249957269E+02;
1.036000000000000E+09;-2.920251848083951E+00;1.366175310664962E+02;
1.037000000000000E+09;-2.974108885889701E+00;1.359325760356860E+02;
1.038000000000000E+09;-3.030962298907293E+00;1.353042213253473E+02;
1.039000000000000E+09;-3.083472442641593E+00;1.346097086359999E+02;
1.040000000000000E+09;-3.138828353810383E+00;1.339503439671344E+02;
1.041000000000000E+09;-3.198327126591653E+00;1.333184847631103E+02;
1.042000000000000E+09;-3.251486758134429E+00;1.326625416730744E+02;
1.043000000000000E+09;-3.305144619631377E+00;1.319925931012799E+02;
1.044000000000000E+09;-3.356043618799077E+00;1.313489549984351E+02;
1.045000000000000E+09;-3.412158506377714E+00;1.307532094312571E+02;
1.046000000000000E+09;-3.462452314647981E+00;1.301330682799530E+02;
1.047000000000000E+09;-3.512490619940685E+00;1.294957135699652E+02;
1.048000000000000E+09;-3.557562885878758E+00;1.288753563782738E+02;
1.049000000000000E+09;-3.607653497220386E+00;1.282873779236641E+02;
1.050000000000000E+09;-3.659359363915371E+00;1.276543715477369E+02;
1.051000000000000E+09;-3.709084318559376E+00;1.270880471499796E+02;
1.052000000000000E+09;-3.754218177083310E+00;1.265086133605326E+02;
1.053000000000000E+09;-3.804142221633420E+00;1.259024096986239E+02;
1.054000000000000E+09;-3.856333462241303E+00;1.253030270602412E+02;
1.055000000000000E+09;-3.896731547119944E+00;1.247141586601493E+02;
1.056000000000000E+09;-3.947435045686326E+00;1.241791829633229E+02;
1.057000000000000E+09;-3.993915169121513E+00;1.236253768235032E+02;
1.058000000000000E+09;-4.042597905396953E+00;1.230251657050354E+02;
1.059000000000000E+09;-4.093498666327894E+00;1.224824969761377E+02;
1.060000000000000E+09;-4.143665504184347E+00;1.219052998357774E+02;
1.061000000000000E+09;-4.197171232956888E+00;1.213724917350985E+02;
1.062000000000000E+09;-4.248858180602606E+00;1.207898666295184E+02;
1.063000000000000E+09;-4.306343703932907E+00;1.202851497315209E+02;
1.064000000000000E+09;-4.360033811308398E+00;1.197617638251798E+02;
1.065000000000000E+09;-4.418013982187393E+00;1.192080769343617E+02;
1.066000000000000E+09;-4.478241525498604E+00;1.186610435314874E+02;
1.067000000000000E+09;-4.538667029100794E+00;1.181323280632109E+02;
1.068000000000000E+09;-4.606771480146029E+00;1.176290960327884E+02;
1.069000000000000E+09;-4.671964001626721E+00;1.170842905230619E+02;
1.070000000000000E+09;-4.746002592987900E+00;1.165294686309581E+02;
1.071000000000000E+09;-4.820677815868776E+00;1.160243032940787E+02;
1.072000000000000E+09;-4.900118622579025E+00;1.154782443760740E+02;
1.073000000000000E+09;-4.982749660717488E+00;1.149336541197168E+02;
1.074000000000000E+09;-5.070052947486693E+00;1.144294498928731E+02;
1.075000000000000E+09;-5.160732334417144E+00;1.138812080107930E+02;
1.076000000000000E+09;-5.259320164553816E+00;1.133521497730636E+02;
1.077000000000000E+09;-5.361790998228614E+00;1.127988527236934E+02;
1.078000000000000E+09;-5.475009825674059E+00;1.122915429142014E+02;
1.079000000000000E+09;-5.585875937130643E+00;1.117695656553685E+02;
1.080000000000000E+09;-5.709913418237607E+00;1.112681066015619E+02;
1.081000000000000E+09;-5.839253071921378E+00;1.107344699728708E+02;
1.082000000000000E+09;-5.974232124341736E+00;1.102480858778565E+02;
1.083000000000000E+09;-6.117208204486405E+00;1.097537189920286E+02;
1.084000000000000E+09;-6.272959212848357E+00;1.092081317065741E+02;
1.085000000000000E+09;-6.431512044736944E+00;1.087336809299345E+02;
1.086000000000000E+09;-6.599334981339130E+00;1.082704382805434E+02;
1.087000000000000E+09;-6.772954259573519E+00;1.078232101353527E+02;
1.088000000000000E+09;-6.959719027840975E+00;1.073427360256909E+02;
1.089000000000000E+09;-7.154367402648872E+00;1.069242411881065E+02;
1.090000000000000E+09;-7.358681114999665E+00;1.065034363677222E+02;
1.091000000000000E+09;-7.581633561183359E+00;1.060658620154558E+02;
1.092000000000000E+09;-7.814795603863621E+00;1.056754484117940E+02;
1.093000000000000E+09;-8.058948614594659E+00;1.053905292764406E+02;
1.094000000000000E+09;-8.323883780344646E+00;1.050328420048649E+02;
1.095000000000000E+09;-8.599722701760456E+00;1.047492757220177E+02;
1.096000000000000E+09;-8.885491914462332E+00;1.045386675622551E+02;
1.097000000000000E+09;-9.193337516066338E+00;1.043823193317280E+02;
1.098000000000000E+09;-9.518118034683607E+00;1.043547821036171E+02;
1.099000000000000E+09;-9.856567760451115E+00;1.043821282799010E+02;
1.100000000000000E+09;-1.021392629925865E+01;1.045204232126207E+02;
1.101000000000000E+09;-1.058970028091873E+01;1.047637645655142E+02;
1.102000000000000E+09;-1.098123782795300E+01;1.051645097678091E+02;
1.103000000000000E+09;-1.138713113817019E+01;1.057251418696372E+02;
1.104000000000000E+09;-1.181832926355434E+01;1.065329341742857E+02;
1.105000000000000E+09;-1.225194076874299E+01;1.075215999216199E+02;
1.106000000000000E+09;-1.270956177593512E+01;1.087379715246204E+02;
1.107000000000000E+09;-1.316747049244627E+01;1.103200347784366E+02;
1.108000000000000E+09;-1.362515954554278E+01;1.122187532847771E+02;
1.109000000000000E+09;-1.409831177578522E+01;1.144307981208297E+02;
1.110000000000000E+09;-1.455869278713685E+01;1.170738411475646E+02;
1.111000000000000E+09;-1.499428515177909E+01;1.202890422910285E+02;
1.112000000000000E+09;-1.537257675868358E+01;1.239120660597253E+02;
1.113000000000000E+09;-1.571428416510198E+01;1.279163621230008E+02;
1.114000000000000E+09;-1.595909794113120E+01;1.323698909616868E+02;
1.115000000000000E+09;-1.611531945096898E+01;1.371721327249306E+02;
1.116000000000000E+09;-1.618565923232006E+01;1.419266976310566E+02;
1.117000000000000E+09;-1.613638868202892E+01;1.467664787036895E+02;
1.118000000000000E+09;-1.598649823513574E+01;1.514992417664213E+02;
1.119000000000000E+09;-1.574194996504939E+01;1.559273383057932E+02;
1.120000000000000E+09;-1.542707151546445E+01;1.598232273591933E+02;
1.121000000000000E+09;-1.504556293235045E+01;1.633359251978587E+02;
1.122000000000000E+09;-1.463557545231533E+01;1.664080761895639E+02;
1.123000000000000E+09;-1.419480040206939E+01;1.689860628315562E+02;
1.124000000000000E+09;-1.373230894369726E+01;1.711085448392485E+02;
1.125000000000000E+09;-1.328067112078492E+01;1.729115407918565E+02;
1.126000000000000E+09;-1.281487564121579E+01;1.743302204927350E+02;
1.127000000000000E+09;-1.235978761007599E+01;1.753579890247440E+02;
1.128000000000000E+09;-1.190851828648526E+01;1.761902236372083E+02;
1.129000000000000E+09;-1.147650634179069E+01;1.766866213858631E+02;
1.130000000000000E+09;-1.105857788464458E+01;1.770244910017935E+02;
1.131000000000000E+09;-1.066390903966301E+01;1.770634909872963E+02;
1.132000000000000E+09;-1.028369847487076E+01;1.769973826467709E+02;
1.133000000000000E+09;-9.920409613086635E+00;1.768163324339406E+02;
1.134000000000000E+09;-9.568542569094236E+00;1.765072107702525E+02;
1.135000000000000E+09;-9.241899994816956E+00;1.761331763187119E+02;
1.136000000000000E+09;-8.924054484596960E+00;1.756966398321896E+02;
1.137000000000000E+09;-8.615568475393369E+00;1.751897995920162E+02;
1.138000000000000E+09;-8.317080383081212E+00;1.745499525390369E+02;
1.139000000000000E+09;-8.033748146917798E+00;1.739071182664345E+02;
1.140000000000000E+09;-7.766179228146726E+00;1.732384692351393E+02;
1.141000000000000E+09;-7.493661190229649E+00;1.724868414540883E+02;
1.142000000000000E+09;-7.250057913219528E+00;1.716549733060319E+02;
1.143000000000000E+09;-7.014521218788506E+00;1.708774834384819E+02;
1.144000000000000E+09;-6.778493554991946E+00;1.700590743164740E+02;
1.145000000000000E+09;-6.549507188014406E+00;1.692484086853771E+02;
1.146000000000000E+09;-6.338670028947381E+00;1.683543400056315E+02;
1.147000000000000E+09;-6.129907298917949E+00;1.675191851691529E+02;
1.148000000000000E+09;-5.933328603839277E+00;1.666477898559260E+02;
1.149000000000000E+09;-5.738146642785464E+00;1.657800931889956E+02;
1.150000000000000E+09;-5.556437836974305E+00;1.648752259888947E+02;
1.151000000000000E+09;-5.380157266649194E+00;1.639915491816615E+02;
1.152000000000000E+09;-5.209451629811940E+00;1.631033892355651E+02;
1.153000000000000E+09;-5.045042464327100E+00;1.622666781493675E+02;
1.154000000000000E+09;-4.892177509208433E+00;1.613907422768342E+02;
1.155000000000000E+09;-4.740461073715116E+00;1.605442977788940E+02;
1.156000000000000E+09;-4.595469144593045E+00;1.597058406452093E+02;
1.157000000000000E+09;-4.453546696188723E+00;1.588807912883314E+02;
1.158000000000000E+09;-4.319606496087643E+00;1.580756404762813E+02;
1.159000000000000E+09;-4.191231347141013E+00;1.572728618793314E+02;
1.160000000000000E+09;-4.069952078798099E+00;1.565002417693594E+02;
1.161000000000000E+09;-3.951497850737071E+00;1.557116031237814E+02;
1.162000000000000E+09;-3.835269511791689E+00;1.549569608373255E+02;
1.163000000000000E+09;-3.727326309037453E+00;1.542125622907241E+02;
1.164000000000000E+09;-3.616331760714620E+00;1.535076214768048E+02;
1.165000000000000E+09;-3.514820934079253E+00;1.528024837324890E+02;
1.166000000000000E+09;-3.412936668676055E+00;1.521141795120959E+02;
1.167000000000000E+09;-3.316017754360338E+00;1.514327628863907E+02;
1.168000000000000E+09;-3.224336543134487E+00;1.507534380969909E+02;
1.169000000000000E+09;-3.132670902327167E+00;1.501006849733831E+02;
1.170000000000000E+09;-3.049501267920735E+00;1.494639865576998E+02;
1.171000000000000E+09;-2.963367455905785E+00;1.488027011853142E+02;
1.172000000000000E+09;-2.885943619988098E+00;1.481555758600519E+02;
1.173000000000000E+09;-2.812173675333301E+00;1.475258807549244E+02;
1.174000000000000E+09;-2.739938851847646E+00;1.469139860470845E+02;
1.175000000000000E+09;-2.672055781706058E+00;1.463044103442549E+02;
1.176000000000000E+09;-2.609154086163902E+00;1.456861172822929E+02;
1.177000000000000E+09;-2.549194773304192E+00;1.451099033334337E+02;
1.178000000000000E+09;-2.489637042945859E+00;1.445371822239218E+02;
1.179000000000000E+09;-2.437663818844707E+00;1.439461009099957E+02;
1.180000000000000E+09;-2.384498911466467E+00;1.433932604474710E+02;
1.181000000000000E+09;-2.334437378065982E+00;1.428541905004119E+02;
1.182000000000000E+09;-2.294129831650272E+00;1.422846666976056E+02;
1.183000000000000E+09;-2.248228520397839E+00;1.417303520178710E+02;
1.184000000000000E+09;-2.210131888791218E+00;1.411919024555723E+02;
1.185000000000000E+09;-2.170210458266384E+00;1.406425387502821E+02;
1.186000000000000E+09;-2.135680679918964E+00;1.401456328889333E+02;
1.187000000000000E+09;-2.103408533875851E+00;1.395969496011020E+02;
1.188000000000000E+09;-2.071392740670911E+00;1.390903360818487E+02;
1.189000000000000E+09;-2.038074714447268E+00;1.385562142070085E+02;
1.190000000000000E+09;-2.016755769237416E+00;1.380419893495635E+02;
1.191000000000000E+09;-1.991144338507543E+00;1.375008370730101E+02;
1.192000000000000E+09;-1.971199728882963E+00;1.369932929688163E+02;
1.193000000000000E+09;-1.951571959107322E+00;1.364683075681889E+02;
1.194000000000000E+09;-1.934085373427012E+00;1.359249172656197E+02;
1.195000000000000E+09;-1.920332824682600E+00;1.354183641789472E+02;
1.196000000000000E+09;-1.904225050838342E+00;1.348947521679674E+02;
1.197000000000000E+09;-1.893946745399982E+00;1.343488147385376E+02;
1.198000000000000E+09;-1.882444147504441E+00;1.338064898031634E+02;
1.199000000000000E+09;-1.872706132645689E+00;1.332935487785696E+02;
1.200000000000000E+09;-1.863978624957959E+00;1.327624630152401E+02;
1.201000000000000E+09;-1.860560646736649E+00;1.322221901353335E+02;
1.202000000000000E+09;-1.854729021278324E+00;1.316695309792675E+02;
1.203000000000000E+09;-1.853046957742733E+00;1.311421696277223E+02;
1.204000000000000E+09;-1.850028106238637E+00;1.305834961297349E+02;
1.205000000000000E+09;-1.849888203303100E+00;1.300440850730837E+02;
1.206000000000000E+09;-1.850497096058989E+00;1.294999481231246E+02;
1.207000000000000E+09;-1.853145248820725E+00;1.289594977954697E+02;
1.208000000000000E+09;-1.856185929691377E+00;1.283929650596495E+02;
1.209000000000000E+09;-1.853350629231324E+00;1.278494314193444E+02;
1.210000000000000E+09;-1.856497705260268E+00;1.273023392851615E+02;
1.211000000000000E+09;-1.857852974104300E+00;1.267187260828336E+02;
1.212000000000000E+09;-1.860965391738870E+00;1.261593592047477E+02;
1.213000000000000E+09;-1.862878725518483E+00;1.255308848845726E+02;
1.214000000000000E+09;-1.865064927963138E+00;1.249880377746500E+02;
1.215000000000000E+09;-1.866504947342101E+00;1.243831790804596E+02;
1.216000000000000E+09;-1.872153303869525E+00;1.237817496529089E+02;
1.217000000000000E+09;-1.874945120118737E+00;1.231947194647337E+02;
1.218000000000000E+09;-1.877782453370995E+00;1.225946146607638E+02;
1.219000000000000E+09;-1.883328117265116E+00;1.219962925154061E+02;
1.220000000000000E+09;-1.883686351762337E+00;1.213873185151449E+02;
1.221000000000000E+09;-1.884502075696082E+00;1.207776676773472E+02;
1.222000000000000E+09;-1.890530794196793E+00;1.201714541979530E+02;
1.223000000000000E+09;-1.888904260463892E+00;1.195701048374474E+02;
1.224000000000000E+09;-1.889524539954440E+00;1.189284318500333E+02;
1.225000000000000E+09;-1.888476653763640E+00;1.183468765685025E+02;
1.226000000000000E+09;-1.888841818312684E+00;1.177140028538735E+02;
1.227000000000000E+09;-1.889460013565703E+00;1.170898679204175E+02;
1.228000000000000E+09;-1.890280073759627E+00;1.164746124488918E+02;
1.229000000000000E+09;-1.886535674267209E+00;1.158743887450880E+02;
1.230000000000000E+09;-1.889684184691434E+00;1.152826112034268E+02;
1.231000000000000E+09;-1.885020941499316E+00;1.146576207305977E+02;
1.232000000000000E+09;-1.881389484658155E+00;1.140799117876256E+02;
1.233000000000000E+09;-1.879949869956761E+00;1.134759470926570E+02;
1.234000000000000E+09;-1.875954853032455E+00;1.128970079813819E+02;
1.235000000000000E+09;-1.872881711294915E+00;1.123198743931617E+02;
1.236000000000000E+09;-1.864162469474664E+00;1.117656547587755E+02;
1.237000000000000E+09;-1.858467166567102E+00;1.111841697556621E+02;
1.238000000000000E+09;-1.850103109353934E+00;1.106744875226358E+02;
1.239000000000000E+09;-1.837203662165361E+00;1.101113719408547E+02;
1.240000000000000E+09;-1.827208392970616E+00;1.095791078757870E+02;
1.241000000000000E+09;-1.820161864771060E+00;1.090498239929354E+02;
1.242000000000000E+09;-1.804961087103922E+00;1.085271339353782E+02;
1.243000000000000E+09;-1.793193660364999E+00;1.080023066766989E+02;
1.244000000000000E+09;-1.775470915136169E+00;1.075242985076575E+02;
1.245000000000000E+09;-1.760453081692755E+00;1.070159917707245E+02;
1.246000000000000E+09;-1.746129146406214E+00;1.065483813600172E+02;
1.247000000000000E+09;-1.731285482144640E+00;1.060598557125834E+02;
1.248000000000000E+09;-1.713302220597473E+00;1.055738585807415E+02;
1.249000000000000E+09;-1.697052555567003E+00;1.051069847322369E+02;
1.250000000000000E+09;-1.678772686567281E+00;1.046574464879434E+02;
1.251000000000000E+09;-1.660154488284566E+00;1.041748428343466E+02;
1.252000000000000E+09;-1.643349661756266E+00;1.037693518852703E+02;
1.253000000000000E+09;-1.625864296540204E+00;1.033316189521912E+02;
1.254000000000000E+09;-1.603132764540516E+00;1.029008818337462E+02;
1.255000000000000E+09;-1.585496122458051E+00;1.024487118699751E+02;
1.256000000000000E+09;-1.572066549764457E+00;1.020154094087079E+02;
1.257000000000000E+09;-1.552532344424146E+00;1.016253391118556E+02;
1.258000000000000E+09;-1.532326675811350E+00;1.012287432314002E+02;
1.259000000000000E+09;-1.516580751866539E+00;1.007973126069446E+02;
1.260000000000000E+09;-1.500331761661096E+00;1.004031150688182E+02;
1.261000000000000E+09;-1.484978982419669E+00;1.000314913339707E+02;
1.262000000000000E+09;-1.470473367063624E+00;9.964268847604106E+01;
1.263000000000000E+09;-1.449638758152479E+00;9.926096479133456E+01;
1.264000000000000E+09;-1.439171721573789E+00;9.884110764037733E+01;
1.265000000000000E+09;-1.423832684791756E+00;9.848032867658583E+01;
1.266000000000000E+09;-1.411919468151473E+00;9.813209241652993E+01;
1.267000000000000E+09;-1.400205218907628E+00;9.774587624740838E+01;
1.268000000000000E+09;-1.390916482186018E+00;9.737640676354707E+01;
1.269000000000000E+09;-1.377128386854015E+00;9.699652463208126E+01;
1.270000000000000E+09;-1.363755296337734E+00;9.666316830138203E+01;
1.271000000000000E+09;-1.355247515081203E+00;9.631059817191381E+01;
1.272000000000000E+09;-1.349740143321127E+00;9.590810135693766E+01;
1.273000000000000E+09;-1.338857807847136E+00;9.556066628791412E+01;
1.274000000000000E+09;-1.330220841406315E+00;9.521733866448615E+01;
1.275000000000000E+09;-1.323155920651992E+00;9.483830117438416E+01;
1.276000000000000E+09;-1.318016291514184E+00;9.446427272942078E+01;
1.277000000000000E+09;-1.310935515606268E+00;9.408098034842445E+01;
1.278000000000000E+09;-1.310477902180043E+00;9.373344320429179E+01;
1.279000000000000E+09;-1.302449394643874E+00;9.335920055671080E+01;
1.280000000000000E+09;-1.298564888549274E+00;9.300052662263001E+01;
1.281000000000000E+09;-1.300387738294024E+00;9.262082879566262E+01;
1.282000000000000E+09;-1.299349446286818E+00;9.221112777094704E+01;
1.283000000000000E+09;-1.302235844787167E+00;9.181395436692618E+01;
1.284000000000000E+09;-1.295684214631872E+00;9.144301194039552E+01;
1.285000000000000E+09;-1.301252724274465E+00;9.106144118550306E+01;
1.286000000000000E+09;-1.300372974400853E+00;9.065101493507350E+01;
1.287000000000000E+09;-1.304382987607875E+00;9.024709338366257E+01;
1.288000000000000E+09;-1.306267690859546E+00;8.983608041892722E+01;
1.289000000000000E+09;-1.306602194175268E+00;8.943078284599007E+01;
1.290000000000000E+09;-1.315741642537578E+00;8.901587109312123E+01;
1.291000000000000E+09;-1.316990709725534E+00;8.857074167975219E+01;
1.292000000000000E+09;-1.324728021341289E+00;8.814877109546023E+01;
