# Version 1.00
#
freq[Hz];db:Trc4_S11;ang:Trc4_S11;
1.000000000000000E+09;-1.345799176006824E+00;1.580524405779924E+02;
1.001000000000000E+09;-1.369055949779579E+00;1.576144522808248E+02;
1.002000000000000E+09;-1.397741208164198E+00;1.571672574841950E+02;
1.003000000000000E+09;-1.421366196409878E+00;1.567343038876420E+02;
1.004000000000000E+09;-1.450511848774621E+00;1.562527505254568E+02;
1.005000000000000E+09;-1.477835236447316E+00;1.558020209311143E+02;
1.006000000000000E+09;-1.504891962035165E+00;1.553258003849128E+02;
1.007000000000000E+09;-1.537294990968191E+00;1.548394092852414E+02;
1.008000000000000E+09;-1.570321691461365E+00;1.543548144065152E+02;
1.009000000000000E+09;-1.604631703242032E+00;1.538448853948705E+02;
1.010000000000000E+09;-1.635406361476873E+00;1.533145813980519E+02;
1.011000000000000E+09;-1.673958102058722E+00;1.527699274725105E+02;
1.012000000000000E+09;-1.710454576407030E+00;1.522276291088966E+02;
1.013000000000000E+09;-1.749631297057241E+00;1.516713438839736E+02;
1.014000000000000E+09;-1.790045966415390E+00;1.510766713826234E+02;
1.015000000000000E+09;-1.833845486550545E+00;1.505083642472705E+02;
1.016000000000000E+09;-1.876611094414734E+00;1.499175691892814E+02;
1.017000000000000E+09;-1.919464849819045E+00;1.493007856632803E+02;
1.018000000000000E+09;-1.966961296315788E+00;1.486736053660618E+02;
1.019000000000000E+09;-2.017472436867273E+00;1.480443617129800E+02;
1.020000000000000E+09;-2.064896494757271E+00;1.474109888633486E+02;
1.021000000000000E+09;-2.116677389534306E+00;1.467479362174259E+02;
1.022000000000000E+09;-2.167574437105400E+00;1.460963806470248E+02;
1.023000000000000E+09;-2.222924172331752E+00;1.454128228833747E+02;
1.024000000000000E+09;-2.276573390524428E+00;1.447625500432109E+02;
1.025000000000000E+09;-2.335207882689610E+00;1.440583246682930E+02;
1.026000000000000E+09;-2.396774369464740E+00;1.433906600763773E+02;
1.027000000000000E+09;-2.451307814277203E+00;1.427115742023119E+02;
1.028000000000000E+09;-2.513319289654321E+00;1.420025861376314E+02;
1.029000000000000E+09;-2.570765504606683E+00;1.413186469420143E+02;
1.030000000000000E+09;-2.631198013953273E+00;1.406297915250041E+02;
1.031000000000000E+09;-2.692283632883758E+00;1.399142670848525E+02;
1.032000000000000E+09;-2.757564270359985E+00;1.392100929205718E+02;
1.033000000000000E+09;-2.817206946820010E+00;1.384890608127930E+02;
1.034000000000000E+09;-2.877476871886847E+00;1.378298696700049E+02;
1.035000000000000E+09;-2.939055338958736E+00;1.371439706224879E+02;
1.036000000000000E+09;-3.000395382985682E+00;1.364321646434087E+02;
1.037000000000000E+09;-3.062167693204593E+00;1.357191247598627E+02;
1.038000000000000E+09;-3.123770446504698E+00;1.350458600477850E+02;
1.039000000000000E+09;-3.185795793911602E+00;1.344025278082148E+02;
1.040000000000000E+09;-3.244449961079174E+00;1.336748985047467E+02;
1.041000000000000E+09;-3.303937851598445E+00;1.330304263418578E+02;
1.042000000000000E+09;-3.367462027466859E+00;1.323691181978481E+02;
1.043000000000000E+09;-3.423560619508765E+00;1.316631852071696E+02;
1.044000000000000E+09;-3.479414445686546E+00;1.310012326569099E+02;
1.045000000000000E+09;-3.537937374885019E+00;1.303966722219001E+02;
1.046000000000000E+09;-3.591073107178417E+00;1.297753531587025E+02;
1.047000000000000E+09;-3.646265099745465E+00;1.290908870639475E+02;
1.048000000000000E+09;-3.702895689584762E+00;1.284483570683157E+02;
1.049000000000000E+09;-3.752722046938485E+00;1.278775788801207E+02;
1.050000000000000E+09;-3.809168856070540E+00;1.272208755272209E+02;
1.051000000000000E+09;-3.856099892396085E+00;1.266177491839163E+02;
1.052000000000000E+09;-3.910389018074802E+00;1.260446253504995E+02;
1.053000000000000E+09;-3.967292949515499E+00;1.254153286741721E+02;
1.054000000000000E+09;-4.018521749832947E+00;1.247782487883977E+02;
1.055000000000000E+09;-4.063705583873277E+00;1.241870449683342E+02;
1.056000000000000E+09;-4.119889225880562E+00;1.236109702255145E+02;
1.057000000000000E+09;-4.172536829099926E+00;1.230415630175627E+02;
1.058000000000000E+09;-4.227592339260198E+00;1.224324755511374E+02;
1.059000000000000E+09;-4.284709834731506E+00;1.218681206671875E+02;
1.060000000000000E+09;-4.337371319890065E+00;1.212844239346318E+02;
1.061000000000000E+09;-4.394685923788293E+00;1.207275617186616E+02;
1.062000000000000E+09;-4.452123687386197E+00;1.201326107232483E+02;
1.063000000000000E+09;-4.509987847929652E+00;1.195921156008834E+02;
1.064000000000000E+09;-4.569181225463628E+00;1.190444096036375E+02;
1.065000000000000E+09;-4.635591166684454E+00;1.184727185882303E+02;
1.066000000000000E+09;-4.703060743789981E+00;1.179145802097858E+02;
1.067000000000000E+09;-4.770524434529166E+00;1.173680526215157E+02;
1.068000000000000E+09;-4.843617199611711E+00;1.168652476814582E+02;
1.069000000000000E+09;-4.918276433804144E+00;1.162901833800578E+02;
1.070000000000000E+09;-4.998410654075897E+00;1.157428596214572E+02;
1.071000000000000E+09;-5.079606551865398E+00;1.152503249932029E+02;
1.072000000000000E+09;-5.165691664562509E+00;1.147029719203085E+02;
1.073000000000000E+09;-5.251337735990870E+00;1.141924456378358E+02;
1.074000000000000E+09;-5.347188732847701E+00;1.136731783840056E+02;
1.075000000000000E+09;-5.442763163010897E+00;1.131753569624460E+02;
1.076000000000000E+09;-5.544459325978415E+00;1.126733448891242E+02;
1.077000000000000E+09;-5.650254379550930E+00;1.121302757873624E+02;
1.078000000000000E+09;-5.757779444351049E+00;1.116334103859341E+02;
1.079000000000000E+09;-5.875339093518644E+00;1.111100008199451E+02;
1.080000000000000E+09;-5.999800876838741E+00;1.105751371263701E+02;
1.081000000000000E+09;-6.133714365929109E+00;1.100491762534004E+02;
1.082000000000000E+09;-6.276153244757716E+00;1.095457477295941E+02;
1.083000000000000E+09;-6.424651160094649E+00;1.090620801895239E+02;
1.084000000000000E+09;-6.585407542533520E+00;1.085469213755312E+02;
1.085000000000000E+09;-6.747890003829331E+00;1.080515349830588E+02;
1.086000000000000E+09;-6.918382538147451E+00;1.076058285984524E+02;
1.087000000000000E+09;-7.105248753891428E+00;1.071474094160604E+02;
1.088000000000000E+09;-7.297102199097222E+00;1.067087354862982E+02;
1.089000000000000E+09;-7.501578292016551E+00;1.062696048893230E+02;
1.090000000000000E+09;-7.722101752701866E+00;1.058746823674629E+02;
1.091000000000000E+09;-7.947312097732628E+00;1.054333380090580E+02;
1.092000000000000E+09;-8.192234788313202E+00;1.051114348950482E+02;
1.093000000000000E+09;-8.451698993690286E+00;1.048168053169935E+02;
1.094000000000000E+09;-8.727748948674785E+00;1.045004604585459E+02;
1.095000000000000E+09;-9.020418612330737E+00;1.042431612656403E+02;
1.096000000000000E+09;-9.330404679007787E+00;1.041610056350581E+02;
1.097000000000000E+09;-9.646929819213270E+00;1.041517289113024E+02;
1.098000000000000E+09;-9.989036139050377E+00;1.042117088475344E+02;
1.099000000000000E+09;-1.034186909007234E+01;1.044401974173632E+02;
1.100000000000000E+09;-1.070463490555712E+01;1.047646142421894E+02;
1.101000000000000E+09;-1.108354789766996E+01;1.052344074925115E+02;
1.102000000000000E+09;-1.147330122326313E+01;1.058012387523814E+02;
1.103000000000000E+09;-1.188171284678569E+01;1.065327224122048E+02;
1.104000000000000E+09;-1.230570568420578E+01;1.075218616792087E+02;
1.105000000000000E+09;-1.273956068831488E+01;1.087690054554796E+02;
1.106000000000000E+09;-1.318538296332861E+01;1.102074531470267E+02;
1.107000000000000E+09;-1.362896941441136E+01;1.120506371395267E+02;
1.108000000000000E+09;-1.407610934803984E+01;1.142742527498886E+02;
1.109000000000000E+09;-1.451374346228173E+01;1.167192131802363E+02;
1.110000000000000E+09;-1.493717499033106E+01;1.196408397064070E+02;
1.111000000000000E+09;-1.531478144089673E+01;1.230616496264427E+02;
1.112000000000000E+09;-1.563889707628267E+01;1.268263623357036E+02;
1.113000000000000E+09;-1.593495438492683E+01;1.309665771266851E+02;
1.114000000000000E+09;-1.611527264042262E+01;1.354568084572699E+02;
1.115000000000000E+09;-1.621321267583412E+01;1.402303812830819E+02;
1.116000000000000E+09;-1.622029384065834E+01;1.449412223090271E+02;
1.117000000000000E+09;-1.612048769657030E+01;1.496468152120186E+02;
1.118000000000000E+09;-1.592811689751402E+01;1.541355500700097E+02;
1.119000000000000E+09;-1.563585994501111E+01;1.583487572376408E+02;
1.120000000000000E+09;-1.528908850253380E+01;1.620401561988443E+02;
1.121000000000000E+09;-1.489627869630647E+01;1.652508271873542E+02;
1.122000000000000E+09;-1.445275233181416E+01;1.681319633727287E+02;
1.123000000000000E+09;-1.398925617173997E+01;1.704521508606748E+02;
1.124000000000000E+09;-1.351950116992955E+01;1.723895677030365E+02;
1.125000000000000E+09;-1.305673075982467E+01;1.738883534213093E+02;
1.126000000000000E+09;-1.258112314670850E+01;1.751082233058848E+02;
1.127000000000000E+09;-1.212519960483415E+01;1.759870157904155E+02;
1.128000000000000E+09;-1.168226803749144E+01;1.765717718354831E+02;
1.129000000000000E+09;-1.125659582812842E+01;1.768767408694260E+02;
1.130000000000000E+09;-1.084578456428198E+01;1.770769727528028E+02;
1.131000000000000E+09;-1.045482136789685E+01;1.770069954928478E+02;
1.132000000000000E+09;-1.007818502930388E+01;1.768123387214382E+02;
1.133000000000000E+09;-9.720943820867285E+00;1.764883335434723E+02;
1.134000000000000E+09;-9.375217117812477E+00;1.760808123077971E+02;
1.135000000000000E+09;-9.058417328743936E+00;1.755813675774330E+02;
1.136000000000000E+09;-8.752418832767606E+00;1.749804828870063E+02;
1.137000000000000E+09;-8.453390502757191E+00;1.743584601814602E+02;
1.138000000000000E+09;-8.170739351274008E+00;1.736706483506221E+02;
1.139000000000000E+09;-7.907378700585745E+00;1.729475856442065E+02;
1.140000000000000E+09;-7.653115744214858E+00;1.722311179473371E+02;
1.141000000000000E+09;-7.402728480066674E+00;1.714564933441328E+02;
1.142000000000000E+09;-7.170316142852436E+00;1.706598562364082E+02;
1.143000000000000E+09;-6.940686153120661E+00;1.698882095531622E+02;
1.144000000000000E+09;-6.717854819341593E+00;1.690831229479355E+02;
1.145000000000000E+09;-6.505196961233675E+00;1.683315980035411E+02;
1.146000000000000E+09;-6.296024177611236E+00;1.674558530301771E+02;
1.147000000000000E+09;-6.093807923991977E+00;1.666272225374567E+02;
1.148000000000000E+09;-5.898401880564911E+00;1.658140429670675E+02;
1.149000000000000E+09;-5.708502089935229E+00;1.649677063666074E+02;
1.150000000000000E+09;-5.526629102410778E+00;1.640830963273895E+02;
1.151000000000000E+09;-5.351950422345910E+00;1.632403704207790E+02;
1.152000000000000E+09;-5.183067164266112E+00;1.623589384361382E+02;
1.153000000000000E+09;-5.022948572956228E+00;1.615252300885235E+02;
1.154000000000000E+09;-4.868215200016437E+00;1.606767220387258E+02;
1.155000000000000E+09;-4.719984211955198E+00;1.598462843223261E+02;
1.156000000000000E+09;-4.573694328034422E+00;1.590173677862161E+02;
1.157000000000000E+09;-4.437663813488166E+00;1.582029223786913E+02;
1.158000000000000E+09;-4.301516073026875E+00;1.574228966086623E+02;
1.159000000000000E+09;-4.173784693690152E+00;1.566259828222472E+02;
1.160000000000000E+09;-4.047441751784844E+00;1.558400515305811E+02;
1.161000000000000E+09;-3.934083801863896E+00;1.550816902130317E+02;
1.162000000000000E+09;-3.817263163857179E+00;1.543250045582279E+02;
1.163000000000000E+09;-3.709375052384338E+00;1.536074704238464E+02;
1.164000000000000E+09;-3.605562377751731E+00;1.528976787810492E+02;
1.165000000000000E+09;-3.501955001467696E+00;1.521841390826955E+02;
1.166000000000000E+09;-3.405038643931407E+00;1.515239079030047E+02;
1.167000000000000E+09;-3.311357917271112E+00;1.508528664041955E+02;
1.168000000000000E+09;-3.221293756055505E+00;1.501930724903389E+02;
1.169000000000000E+09;-3.133404671442783E+00;1.495418354766794E+02;
1.170000000000000E+09;-3.050450177655002E+00;1.489114451179148E+02;
1.171000000000000E+09;-2.968158276676574E+00;1.482709075636831E+02;
1.172000000000000E+09;-2.894022417953352E+00;1.476673326366380E+02;
1.173000000000000E+09;-2.819561484696729E+00;1.470526832162284E+02;
1.174000000000000E+09;-2.749047393936862E+00;1.464576174556952E+02;
1.175000000000000E+09;-2.683856194378422E+00;1.458736307480233E+02;
1.176000000000000E+09;-2.621182864266422E+00;1.452833032669267E+02;
1.177000000000000E+09;-2.561447062886069E+00;1.447137763177233E+02;
1.178000000000000E+09;-2.503360693169792E+00;1.441634781769569E+02;
1.179000000000000E+09;-2.452337320511157E+00;1.435843940627253E+02;
1.180000000000000E+09;-2.403011914039832E+00;1.430477758308365E+02;
1.181000000000000E+09;-2.355908639460439E+00;1.425350818613719E+02;
1.182000000000000E+09;-2.315277859210569E+00;1.419914617459901E+02;
1.183000000000000E+09;-2.272216416163665E+00;1.414570046106082E+02;
1.184000000000000E+09;-2.232982339452691E+00;1.409417442399512E+02;
1.185000000000000E+09;-2.195485664134095E+00;1.404388042278492E+02;
1.186000000000000E+09;-2.160651150220037E+00;1.399613798287441E+02;
1.187000000000000E+09;-2.128839831065573E+00;1.394153815214775E+02;
1.188000000000000E+09;-2.100181260746375E+00;1.389336538391706E+02;
1.189000000000000E+09;-2.068216450545371E+00;1.384202143996399E+02;
1.190000000000000E+09;-2.042757823278686E+00;1.379079952570241E+02;
1.191000000000000E+09;-2.017616505799369E+00;1.373865464252240E+02;
1.192000000000000E+09;-1.999488441654808E+00;1.368869803827418E+02;
1.193000000000000E+09;-1.978271595362136E+00;1.363873903623594E+02;
1.194000000000000E+09;-1.963825775867797E+00;1.358532769730481E+02;
1.195000000000000E+09;-1.948904595334886E+00;1.353561032022621E+02;
1.196000000000000E+09;-1.934726009591361E+00;1.348472968306597E+02;
1.197000000000000E+09;-1.927832838861455E+00;1.343192838089237E+02;
1.198000000000000E+09;-1.919188247841147E+00;1.337940076252608E+02;
1.199000000000000E+09;-1.911441730634760E+00;1.333048550554337E+02;
1.200000000000000E+09;-1.907546010391264E+00;1.327955415679553E+02;
1.201000000000000E+09;-1.901862847966824E+00;1.322725531634771E+02;
1.202000000000000E+09;-1.896159351143975E+00;1.317343910805552E+02;
1.203000000000000E+09;-1.896969217161350E+00;1.312138914221924E+02;
1.204000000000000E+09;-1.896186631500748E+00;1.306795174013967E+02;
1.205000000000000E+09;-1.894860956102833E+00;1.301491458700546E+02;
1.206000000000000E+09;-1.898825629253102E+00;1.296211946977641E+02;
1.207000000000000E+09;-1.903486154045448E+00;1.290934837633803E+02;
1.208000000000000E+09;-1.903672515317921E+00;1.285517567166108E+02;
1.209000000000000E+09;-1.905032927803180E+00;1.280126691300598E+02;
1.210000000000000E+09;-1.908093407246433E+00;1.274587499848293E+02;
1.211000000000000E+09;-1.912538552161445E+00;1.269044012368135E+02;
1.212000000000000E+09;-1.917148636109367E+00;1.263618383579569E+02;
1.213000000000000E+09;-1.920381262549752E+00;1.257525431598939E+02;
1.214000000000000E+09;-1.924070183731792E+00;1.252022962379947E+02;
1.215000000000000E+09;-1.928209929574315E+00;1.246120597877031E+02;
1.216000000000000E+09;-1.931840179933189E+00;1.240180785954114E+02;
1.217000000000000E+09;-1.937013096572739E+00;1.234460837912907E+02;
1.218000000000000E+09;-1.940623144715040E+00;1.228610318387227E+02;
1.219000000000000E+09;-1.948464296140832E+00;1.222516907064371E+02;
1.220000000000000E+09;-1.950912663461103E+00;1.216418128914571E+02;
1.221000000000000E+09;-1.953694288260392E+00;1.210398154952660E+02;
1.222000000000000E+09;-1.964320182460449E+00;1.204507134862470E+02;
1.223000000000000E+09;-1.965970739945930E+00;1.198450003351043E+02;
1.224000000000000E+09;-1.968594783397146E+00;1.192110560918825E+02;
1.225000000000000E+09;-1.972598721401767E+00;1.186238908870702E+02;
1.226000000000000E+09;-1.975709099053196E+00;1.179951264334811E+02;
1.227000000000000E+09;-1.978014465867298E+00;1.173791206823527E+02;
1.228000000000000E+09;-1.983828651954289E+00;1.167949728760838E+02;
1.229000000000000E+09;-1.984724854143401E+00;1.161745332078777E+02;
1.230000000000000E+09;-1.990465592917465E+00;1.155878551903016E+02;
1.231000000000000E+09;-1.988471817921581E+00;1.149725322308288E+02;
1.232000000000000E+09;-1.987256000996252E+00;1.143667511735250E+02;
1.233000000000000E+09;-1.990638420689509E+00;1.138296537021075E+02;
1.234000000000000E+09;-1.990540979643065E+00;1.132037903201699E+02;
1.235000000000000E+09;-1.992480950566640E+00;1.126693633078932E+02;
1.236000000000000E+09;-1.986824301847191E+00;1.121222738187222E+02;
1.237000000000000E+09;-1.982619809583974E+00;1.115475495242057E+02;
1.238000000000000E+09;-1.980683041749358E+00;1.110265191235841E+02;
1.239000000000000E+09;-1.973113023346464E+00;1.104728849002491E+02;
1.240000000000000E+09;-1.965838939836510E+00;1.099712488568266E+02;
1.241000000000000E+09;-1.960955506130753E+00;1.094375086545795E+02;
1.242000000000000E+09;-1.951894813572814E+00;1.089529709589181E+02;
1.243000000000000E+09;-1.939214764154619E+00;1.084255389109317E+02;
1.244000000000000E+09;-1.923802003775696E+00;1.079781713150349E+02;
1.245000000000000E+09;-1.910782464449505E+00;1.075015931239024E+02;
1.246000000000000E+09;-1.899730479186968E+00;1.070241569241775E+02;
1.247000000000000E+09;-1.877024863207315E+00;1.065565663983801E+02;
1.248000000000000E+09;-1.867018835409093E+00;1.060975286118996E+02;
1.249000000000000E+09;-1.846867990564695E+00;1.056420980318603E+02;
1.250000000000000E+09;-1.829389494608370E+00;1.051798130574502E+02;
1.251000000000000E+09;-1.813087332055636E+00;1.047420311220543E+02;
1.252000000000000E+09;-1.795267266697718E+00;1.043129475954348E+02;
1.253000000000000E+09;-1.777447868054266E+00;1.038817338494688E+02;
1.254000000000000E+09;-1.757197124633520E+00;1.034384918620465E+02;
1.255000000000000E+09;-1.740203203944623E+00;1.030044672612187E+02;
1.256000000000000E+09;-1.725774076943538E+00;1.025708176720020E+02;
1.257000000000000E+09;-1.706856313925668E+00;1.022032574249857E+02;
1.258000000000000E+09;-1.688751696487180E+00;1.017963949624398E+02;
1.259000000000000E+09;-1.670716275852677E+00;1.013670475502366E+02;
1.260000000000000E+09;-1.654151912435964E+00;1.009632872406381E+02;
1.261000000000000E+09;-1.642158220136775E+00;1.006056428194338E+02;
1.262000000000000E+09;-1.625867774093916E+00;1.002184399203017E+02;
1.263000000000000E+09;-1.604806237462625E+00;9.985118876284342E+01;
1.264000000000000E+09;-1.591671264337807E+00;9.944257119905583E+01;
1.265000000000000E+09;-1.575237216004024E+00;9.907646701627871E+01;
1.266000000000000E+09;-1.560213344364609E+00;9.873797484700424E+01;
1.267000000000000E+09;-1.546606357924702E+00;9.834821147282844E+01;
1.268000000000000E+09;-1.533266897623718E+00;9.798116567729515E+01;
1.269000000000000E+09;-1.520695571177360E+00;9.758893972001684E+01;
1.270000000000000E+09;-1.509038769479972E+00;9.723605141180272E+01;
1.271000000000000E+09;-1.498664431544958E+00;9.689059443437897E+01;
1.272000000000000E+09;-1.486446628194974E+00;9.647026572358584E+01;
1.273000000000000E+09;-1.478774962358962E+00;9.610941356153042E+01;
1.274000000000000E+09;-1.469504191917378E+00;9.573345148057300E+01;
1.275000000000000E+09;-1.462466873583914E+00;9.538956658375973E+01;
1.276000000000000E+09;-1.453323009535547E+00;9.498484731431878E+01;
1.277000000000000E+09;-1.446900092975330E+00;9.462336852651501E+01;
1.278000000000000E+09;-1.445072934592988E+00;9.423464611812055E+01;
1.279000000000000E+09;-1.435617786265625E+00;9.386346636957801E+01;
1.280000000000000E+09;-1.431036168257246E+00;9.348760177100409E+01;
1.281000000000000E+09;-1.431274414327776E+00;9.311002878812620E+01;
1.282000000000000E+09;-1.427222967382940E+00;9.271867172093872E+01;
1.283000000000000E+09;-1.427776989605712E+00;9.228981139963949E+01;
1.284000000000000E+09;-1.421132812847322E+00;9.193632640225104E+01;
1.285000000000000E+09;-1.424793734063220E+00;9.151993386916638E+01;
1.286000000000000E+09;-1.426055397362313E+00;9.111073899141371E+01;
1.287000000000000E+09;-1.426224197077210E+00;9.066518584901787E+01;
1.288000000000000E+09;-1.427709365896659E+00;9.026448034140334E+01;
1.289000000000000E+09;-1.425889060376675E+00;8.986007640335895E+01;
1.290000000000000E+09;-1.430771314923758E+00;8.942048000925534E+01;
1.291000000000000E+09;-1.431478073201879E+00;8.895860857580890E+01;
1.292000000000000E+09;-1.433702560871497E+00;8.854288449643674E+01;
