# Version 1.00
#
freq[Hz];db:Trc4_S11;ang:Trc4_S11;
1.000000000000000E+09;-1.276255133569528E+00;1.577987138924409E+02;
1.001000000000000E+09;-1.299737699025136E+00;1.573189122530584E+02;
1.002000000000000E+09;-1.326248775724530E+00;1.568368221989493E+02;
1.003000000000000E+09;-1.350483549876776E+00;1.563504685590445E+02;
1.004000000000000E+09;-1.380816815393935E+00;1.558435219768382E+02;
1.005000000000000E+09;-1.408031786146235E+00;1.553644189118629E+02;
1.006000000000000E+09;-1.436329808351157E+00;1.548467781318177E+02;
1.007000000000000E+09;-1.470525912953011E+00;1.543244648122209E+02;
1.008000000000000E+09;-1.504297680695430E+00;1.538207285223490E+02;
1.009000000000000E+09;-1.536517817309961E+00;1.533139596733220E+02;
1.010000000000000E+09;-1.571744387354323E+00;1.527813225559768E+02;
1.011000000000000E+09;-1.610583638440055E+00;1.522257219683023E+02;
1.012000000000000E+09;-1.645800428270498E+00;1.516816444976965E+02;
1.013000000000000E+09;-1.682102850348500E+00;1.511432487330190E+02;
1.014000000000000E+09;-1.721648250649203E+00;1.505545439889112E+02;
1.015000000000000E+09;-1.763165825478512E+00;1.500020054938853E+02;
1.016000000000000E+09;-1.802730715355670E+00;1.494393286996530E+02;
1.017000000000000E+09;-1.844411937924005E+00;1.488231341404431E+02;
1.018000000000000E+09;-1.889948358479707E+00;1.482311724688566E+02;
1.019000000000000E+09;-1.934679846770581E+00;1.476239458673016E+02;
1.020000000000000E+09;-1.980831522719874E+00;1.470419654124131E+02;
1.021000000000000E+09;-2.027597380630998E+00;1.464187728999980E+02;
1.022000000000000E+09;-2.072970234533057E+00;1.457960995870109E+02;
1.023000000000000E+09;-2.125594878048776E+00;1.451863730078040E+02;
1.024000000000000E+09;-2.174781877346530E+00;1.445603060089682E+02;
1.025000000000000E+09;-2.225006397749789E+00;1.439154032114981E+02;
1.026000000000000E+09;-2.278616913667511E+00;1.432927078723326E+02;
1.027000000000000E+09;-2.325538091108661E+00;1.426793749154190E+02;
1.028000000000000E+09;-2.380842328506287E+00;1.419999943457670E+02;
1.029000000000000E+09;-2.432078073474426E+00;1.413755936658470E+02;
1.030000000000000E+09;-2.485399545811474E+00;1.407498857067597E+02;
1.031000000000000E+09;-2.541017126867571E+00;1.401196382127504E+02;
1.032000000000000E+09;-2.595797129751650E+00;1.394344866737061E+02;
1.033000000000000E+09;-2.648751742098157E+00;1.387880026060660E+02;
1.034000000000000E+09;-2.700896790291009E+00;1.382017073187965E+02;
1.035000000000000E+09;-2.754382363858138E+00;1.375707991531029E+02;
1.036000000000000E+09;-2.806482849055670E+00;1.369405262766711E+02;
1.037000000000000E+09;-2.861926694126337E+00;1.362790235816060E+02;
1.038000000000000E+09;-2.922101048985095E+00;1.356977591396728E+02;
1.039000000000000E+09;-2.968290923586080E+00;1.350860500750674E+02;
1.040000000000000E+09;-3.024295660053211E+00;1.344283002054839E+02;
1.041000000000000E+09;-3.079953721071623E+00;1.338785094078577E+02;
1.042000000000000E+09;-3.127249086490447E+00;1.332488025125586E+02;
1.043000000000000E+09;-3.185038945336728E+00;1.326290439647139E+02;
1.044000000000000E+09;-3.232883547010197E+00;1.320612260274163E+02;
1.045000000000000E+09;-3.284807333887070E+00;1.314980539706568E+02;
1.046000000000000E+09;-3.333297709882545E+00;1.309293329036592E+02;
1.047000000000000E+09;-3.384849686394718E+00;1.303170437453471E+02;
1.048000000000000E+09;-3.436026915132766E+00;1.297573796632716E+02;
1.049000000000000E+09;-3.484853987320615E+00;1.292043860799466E+02;
1.050000000000000E+09;-3.537181573278664E+00;1.286441217303428E+02;
1.051000000000000E+09;-3.589966143651238E+00;1.280880127196437E+02;
1.052000000000000E+09;-3.644398794322528E+00;1.275611301846510E+02;
1.053000000000000E+09;-3.695533528045130E+00;1.270428420611825E+02;
1.054000000000000E+09;-3.748812266057669E+00;1.264929429687062E+02;
1.055000000000000E+09;-3.795698762226117E+00;1.259843706313364E+02;
1.056000000000000E+09;-3.849698321207785E+00;1.255046934578771E+02;
1.057000000000000E+09;-3.903516561575024E+00;1.250340364882737E+02;
1.058000000000000E+09;-3.959184417376411E+00;1.245328312687087E+02;
1.059000000000000E+09;-4.012040921578277E+00;1.240930540806058E+02;
1.060000000000000E+09;-4.063809845224394E+00;1.236115061346555E+02;
1.061000000000000E+09;-4.115770652047698E+00;1.231478363266054E+02;
1.062000000000000E+09;-4.171152214676950E+00;1.226711767276247E+02;
1.063000000000000E+09;-4.226746441965175E+00;1.222422198937417E+02;
1.064000000000000E+09;-4.278348798668068E+00;1.218158411868519E+02;
1.065000000000000E+09;-4.338450862628606E+00;1.213552148524214E+02;
1.066000000000000E+09;-4.400133416286655E+00;1.208939921193023E+02;
1.067000000000000E+09;-4.458152732858338E+00;1.204542852148072E+02;
1.068000000000000E+09;-4.524236671990694E+00;1.200430195941866E+02;
1.069000000000000E+09;-4.590366900465674E+00;1.195725484682419E+02;
1.070000000000000E+09;-4.657232137522350E+00;1.191048671049519E+02;
1.071000000000000E+09;-4.729838212527440E+00;1.187171709392609E+02;
1.072000000000000E+09;-4.804928517421941E+00;1.182430948098663E+02;
1.073000000000000E+09;-4.878160831719010E+00;1.177958081206683E+02;
1.074000000000000E+09;-4.961176250882683E+00;1.173670110554976E+02;
1.075000000000000E+09;-5.044068706397567E+00;1.169081872164815E+02;
1.076000000000000E+09;-5.131147561216042E+00;1.164674097162635E+02;
1.077000000000000E+09;-5.231395986539900E+00;1.159695543213479E+02;
1.078000000000000E+09;-5.326078362188412E+00;1.155960819715798E+02;
1.079000000000000E+09;-5.430324173981187E+00;1.151064016253141E+02;
1.080000000000000E+09;-5.542889516371226E+00;1.146063154775139E+02;
1.081000000000000E+09;-5.657165773128999E+00;1.141601107427926E+02;
1.082000000000000E+09;-5.780717957251802E+00;1.137144559823836E+02;
1.083000000000000E+09;-5.909118230563172E+00;1.132638791914746E+02;
1.084000000000000E+09;-6.053337041062333E+00;1.128054867402197E+02;
1.085000000000000E+09;-6.193794108540878E+00;1.123302084605601E+02;
1.086000000000000E+09;-6.346827195728761E+00;1.119458967287551E+02;
1.087000000000000E+09;-6.512526467746728E+00;1.114905637608494E+02;
1.088000000000000E+09;-6.679711594875410E+00;1.110166499120393E+02;
1.089000000000000E+09;-6.859127064896342E+00;1.106256882039447E+02;
1.090000000000000E+09;-7.057523986396243E+00;1.101948434807718E+02;
1.091000000000000E+09;-7.265062256752842E+00;1.098035502790617E+02;
1.092000000000000E+09;-7.480136376062965E+00;1.094360929210335E+02;
1.093000000000000E+09;-7.706428574980176E+00;1.091530520491581E+02;
1.094000000000000E+09;-7.948009966925237E+00;1.088457649737012E+02;
1.095000000000000E+09;-8.201845486646798E+00;1.085829416285121E+02;
1.096000000000000E+09;-8.471639369381364E+00;1.083709457195959E+02;
1.097000000000000E+09;-8.750611210670510E+00;1.082294347871070E+02;
1.098000000000000E+09;-9.047890572247072E+00;1.080875079372526E+02;
1.099000000000000E+09;-9.366331488063368E+00;1.080938089308589E+02;
1.100000000000000E+09;-9.696098524932740E+00;1.081232450559007E+02;
1.101000000000000E+09;-1.004770306613229E+01;1.082930122311604E+02;
1.102000000000000E+09;-1.041519676772186E+01;1.086049867308278E+02;
1.103000000000000E+09;-1.080294417349219E+01;1.090638252885535E+02;
1.104000000000000E+09;-1.120658657311983E+01;1.096543863772375E+02;
1.105000000000000E+09;-1.162466962907682E+01;1.104902736571811E+02;
1.106000000000000E+09;-1.205969083773104E+01;1.115090973279954E+02;
1.107000000000000E+09;-1.250997341005315E+01;1.128776660414299E+02;
1.108000000000000E+09;-1.296164142286658E+01;1.145372947516757E+02;
1.109000000000000E+09;-1.342321268756961E+01;1.165196567858653E+02;
1.110000000000000E+09;-1.387747278970381E+01;1.189715315322744E+02;
1.111000000000000E+09;-1.431047549110834E+01;1.218163346150718E+02;
1.112000000000000E+09;-1.470032145910553E+01;1.250539041865366E+02;
1.113000000000000E+09;-1.508075733327351E+01;1.286798153639246E+02;
1.114000000000000E+09;-1.538495206791924E+01;1.328417448517037E+02;
1.115000000000000E+09;-1.560557325711581E+01;1.374195886928989E+02;
1.116000000000000E+09;-1.574345212578214E+01;1.421181084489170E+02;
1.117000000000000E+09;-1.576420083930394E+01;1.470261993359436E+02;
1.118000000000000E+09;-1.567712196411029E+01;1.518181233946787E+02;
1.119000000000000E+09;-1.549432315131591E+01;1.565230043084548E+02;
1.120000000000000E+09;-1.522638067678323E+01;1.607062443834867E+02;
1.121000000000000E+09;-1.488817831480504E+01;1.646434006292735E+02;
1.122000000000000E+09;-1.448684215582376E+01;1.680974891012059E+02;
1.123000000000000E+09;-1.404770899736691E+01;1.710408411347386E+02;
1.124000000000000E+09;-1.357519539608953E+01;1.735694584261078E+02;
1.125000000000000E+09;-1.310790583460309E+01;1.755755514862204E+02;
1.126000000000000E+09;-1.261644576171534E+01;1.771941572040401E+02;
1.127000000000000E+09;-1.214127084309780E+01;1.783781508093366E+02;
1.128000000000000E+09;-1.167955646828732E+01;1.792987660305920E+02;
1.129000000000000E+09;-1.123481941640318E+01;1.798559766862080E+02;
1.130000000000000E+09;-1.080081755422622E+01;-1.797051328899952E+02;
1.131000000000000E+09;-1.038758815908785E+01;-1.795508091280398E+02;
1.132000000000000E+09;-9.989292780375646E+00;-1.795686034453123E+02;
1.133000000000000E+09;-9.610796443061030E+00;-1.797610969168833E+02;
1.134000000000000E+09;-9.249085429142497E+00;1.799482576967141E+02;
1.135000000000000E+09;-8.909210672025281E+00;1.795755502888359E+02;
1.136000000000000E+09;-8.584245546588853E+00;1.790494544151803E+02;
1.137000000000000E+09;-8.265775733511422E+00;1.784842024366885E+02;
1.138000000000000E+09;-7.968593503548548E+00;1.778590351083375E+02;
1.139000000000000E+09;-7.692463477217705E+00;1.771532706086410E+02;
1.140000000000000E+09;-7.417864898817676E+00;1.764622958198040E+02;
1.141000000000000E+09;-7.155725478262474E+00;1.756743637673248E+02;
1.142000000000000E+09;-6.907155775798187E+00;1.748751819940801E+02;
1.143000000000000E+09;-6.664383794918537E+00;1.740600311105075E+02;
1.144000000000000E+09;-6.429048969309747E+00;1.732094052975090E+02;
1.145000000000000E+09;-6.204500484391523E+00;1.723360667298523E+02;
1.146000000000000E+09;-5.994065944560846E+00;1.714317819073037E+02;
1.147000000000000E+09;-5.788290669812316E+00;1.704894924852943E+02;
1.148000000000000E+09;-5.592414095946294E+00;1.695841395445277E+02;
1.149000000000000E+09;-5.409354699636899E+00;1.686539171027234E+02;
1.150000000000000E+09;-5.230584783463501E+00;1.676901501788136E+02;
1.151000000000000E+09;-5.063498029854271E+00;1.667700728917236E+02;
1.152000000000000E+09;-4.896150194771623E+00;1.658231033635198E+02;
1.153000000000000E+09;-4.741047959067937E+00;1.649072380845428E+02;
1.154000000000000E+09;-4.595489985201702E+00;1.639870979442858E+02;
1.155000000000000E+09;-4.453862351393941E+00;1.630823317301470E+02;
1.156000000000000E+09;-4.311695602753602E+00;1.622312853901592E+02;
1.157000000000000E+09;-4.181989505971677E+00;1.613345470342472E+02;
1.158000000000000E+09;-4.050438348352199E+00;1.605001024071200E+02;
1.159000000000000E+09;-3.924249029493975E+00;1.596628198719574E+02;
1.160000000000000E+09;-3.807343308551335E+00;1.588476394891476E+02;
1.161000000000000E+09;-3.689703081702229E+00;1.580048860152385E+02;
1.162000000000000E+09;-3.577548499542777E+00;1.571889900251845E+02;
1.163000000000000E+09;-3.470268447084800E+00;1.564028587169150E+02;
1.164000000000000E+09;-3.364338192172299E+00;1.556026977049446E+02;
1.165000000000000E+09;-3.265753942368146E+00;1.548365732483217E+02;
1.166000000000000E+09;-3.171200555912530E+00;1.540772462660246E+02;
1.167000000000000E+09;-3.078272002410651E+00;1.533276760494487E+02;
1.168000000000000E+09;-2.989843482794694E+00;1.525897181774179E+02;
1.169000000000000E+09;-2.905218486219094E+00;1.518775182113844E+02;
1.170000000000000E+09;-2.825653427055619E+00;1.511458499267262E+02;
1.171000000000000E+09;-2.745770808527989E+00;1.504442550367641E+02;
1.172000000000000E+09;-2.673091823640301E+00;1.497492040747959E+02;
1.173000000000000E+09;-2.600371925407699E+00;1.490582155788620E+02;
1.174000000000000E+09;-2.529527197329987E+00;1.483958000110900E+02;
1.175000000000000E+09;-2.465132454399721E+00;1.477362425991415E+02;
1.176000000000000E+09;-2.404549794251008E+00;1.470610230911365E+02;
1.177000000000000E+09;-2.342498900848830E+00;1.464191264307723E+02;
1.178000000000000E+09;-2.286952549197601E+00;1.457740623617199E+02;
1.179000000000000E+09;-2.234258263821891E+00;1.451359483211820E+02;
1.180000000000000E+09;-2.182867735083283E+00;1.445129991107027E+02;
1.181000000000000E+09;-2.136497838968727E+00;1.439382592227329E+02;
1.182000000000000E+09;-2.091430395531338E+00;1.433189155921963E+02;
1.183000000000000E+09;-2.044875481363197E+00;1.427009016359661E+02;
1.184000000000000E+09;-2.004536790153409E+00;1.420935387038476E+02;
1.185000000000000E+09;-1.965811339591918E+00;1.414963442900248E+02;
1.186000000000000E+09;-1.928124899031469E+00;1.409099492898114E+02;
1.187000000000000E+09;-1.893416421013788E+00;1.403056651327831E+02;
1.188000000000000E+09;-1.862665535960709E+00;1.397344157434927E+02;
1.189000000000000E+09;-1.831691146962256E+00;1.391409457457570E+02;
1.190000000000000E+09;-1.807518023461996E+00;1.385622396647366E+02;
1.191000000000000E+09;-1.776920639125538E+00;1.379742285217990E+02;
1.192000000000000E+09;-1.754900237969712E+00;1.374059910575430E+02;
1.193000000000000E+09;-1.733999488727767E+00;1.368373928407740E+02;
1.194000000000000E+09;-1.718711522505886E+00;1.362475516229682E+02;
1.195000000000000E+09;-1.694679341932679E+00;1.356908538549341E+02;
1.196000000000000E+09;-1.681759887818240E+00;1.351103347847366E+02;
1.197000000000000E+09;-1.665611822881671E+00;1.345261224794586E+02;
1.198000000000000E+09;-1.651939393894679E+00;1.339488815599359E+02;
1.199000000000000E+09;-1.637317700712287E+00;1.334022948981321E+02;
1.200000000000000E+09;-1.625395672574590E+00;1.327996082841542E+02;
1.201000000000000E+09;-1.615803425170601E+00;1.322321032142213E+02;
1.202000000000000E+09;-1.607725781009509E+00;1.316322499490527E+02;
1.203000000000000E+09;-1.602318933594421E+00;1.310468841217235E+02;
1.204000000000000E+09;-1.592324886227720E+00;1.304362511490453E+02;
1.205000000000000E+09;-1.589182545195546E+00;1.298626995641383E+02;
1.206000000000000E+09;-1.586288824600169E+00;1.292712439159533E+02;
1.207000000000000E+09;-1.584865565068101E+00;1.286720922845673E+02;
1.208000000000000E+09;-1.580518130949621E+00;1.280714940883605E+02;
1.209000000000000E+09;-1.579036674857309E+00;1.274792588703468E+02;
1.210000000000000E+09;-1.578152740163447E+00;1.268811419193201E+02;
1.211000000000000E+09;-1.578054881105221E+00;1.262868443339719E+02;
1.212000000000000E+09;-1.576592666375236E+00;1.257041541910989E+02;
1.213000000000000E+09;-1.577716058914808E+00;1.250570435607266E+02;
1.214000000000000E+09;-1.578229578208114E+00;1.244882117178189E+02;
1.215000000000000E+09;-1.575858047548733E+00;1.238656357539619E+02;
1.216000000000000E+09;-1.576236052830926E+00;1.232544095352879E+02;
1.217000000000000E+09;-1.578581497145457E+00;1.226425965323399E+02;
1.218000000000000E+09;-1.576720680431763E+00;1.220362647526718E+02;
1.219000000000000E+09;-1.579191745807913E+00;1.214176627808458E+02;
1.220000000000000E+09;-1.576695512609692E+00;1.207886886121333E+02;
1.221000000000000E+09;-1.577218485052677E+00;1.201736782798841E+02;
1.222000000000000E+09;-1.581541915379108E+00;1.195765163589549E+02;
1.223000000000000E+09;-1.578914756007586E+00;1.189636285679217E+02;
1.224000000000000E+09;-1.578554585539114E+00;1.183278606263858E+02;
1.225000000000000E+09;-1.577182358283263E+00;1.177529864195719E+02;
1.226000000000000E+09;-1.575825664574956E+00;1.171331800037001E+02;
1.227000000000000E+09;-1.575674558964453E+00;1.165207101178209E+02;
1.228000000000000E+09;-1.571832757311960E+00;1.159252605424398E+02;
1.229000000000000E+09;-1.569215419908086E+00;1.153253056937477E+02;
1.230000000000000E+09;-1.568100523929736E+00;1.147432594525512E+02;
1.231000000000000E+09;-1.561852679658148E+00;1.141105178920806E+02;
1.232000000000000E+09;-1.552826056830592E+00;1.135407009042518E+02;
1.233000000000000E+09;-1.555066079238285E+00;1.129512247326413E+02;
1.234000000000000E+09;-1.548499777276284E+00;1.123593308077662E+02;
1.235000000000000E+09;-1.547395659188276E+00;1.118151672010417E+02;
1.236000000000000E+09;-1.539300918879054E+00;1.112520491000083E+02;
1.237000000000000E+09;-1.529199779320482E+00;1.106725489271407E+02;
1.238000000000000E+09;-1.525348485195948E+00;1.101516814483326E+02;
1.239000000000000E+09;-1.516071754357049E+00;1.096128778910238E+02;
1.240000000000000E+09;-1.506762106219494E+00;1.090738457081407E+02;
1.241000000000000E+09;-1.503612894980277E+00;1.085528497582746E+02;
1.242000000000000E+09;-1.493970021058010E+00;1.080610879737519E+02;
1.243000000000000E+09;-1.483910162283494E+00;1.075243026881700E+02;
1.244000000000000E+09;-1.467018959319848E+00;1.070521693502905E+02;
1.245000000000000E+09;-1.460833608340220E+00;1.065585630789401E+02;
1.246000000000000E+09;-1.453265447621557E+00;1.060789672284511E+02;
1.247000000000000E+09;-1.436857288139435E+00;1.056176316133638E+02;
1.248000000000000E+09;-1.430129326363037E+00;1.051546446744398E+02;
1.249000000000000E+09;-1.415231715932330E+00;1.047136244428444E+02;
1.250000000000000E+09;-1.402452051357563E+00;1.042737070841139E+02;
1.251000000000000E+09;-1.392859329417251E+00;1.038504318947559E+02;
1.252000000000000E+09;-1.381632664460861E+00;1.034470251042035E+02;
1.253000000000000E+09;-1.366957639616128E+00;1.030366615393131E+02;
1.254000000000000E+09;-1.353155189186694E+00;1.026145796616114E+02;
1.255000000000000E+09;-1.338059522119920E+00;1.022065840142901E+02;
1.256000000000000E+09;-1.325757728162296E+00;1.018178965845705E+02;
1.257000000000000E+09;-1.313515362288028E+00;1.014506654589369E+02;
1.258000000000000E+09;-1.299508861337811E+00;1.010701013714524E+02;
1.259000000000000E+09;-1.285788387113390E+00;1.006831372935565E+02;
1.260000000000000E+09;-1.269738221057450E+00;1.003150473605965E+02;
1.261000000000000E+09;-1.263490039516659E+00;9.997548848080790E+01;
1.262000000000000E+09;-1.250766346944349E+00;9.962419022601763E+01;
1.263000000000000E+09;-1.235352165725988E+00;9.928508438871398E+01;
1.264000000000000E+09;-1.224087198299086E+00;9.890254424306831E+01;
1.265000000000000E+09;-1.213638767317382E+00;9.857501904542835E+01;
1.266000000000000E+09;-1.201374084592293E+00;9.826364972218902E+01;
1.267000000000000E+09;-1.189551583347663E+00;9.791226841639238E+01;
1.268000000000000E+09;-1.178331974802659E+00;9.757543900384938E+01;
1.269000000000000E+09;-1.168433159693877E+00;9.722606027202698E+01;
1.270000000000000E+09;-1.158297273733780E+00;9.690241725714068E+01;
1.271000000000000E+09;-1.146739501096105E+00;9.656510164303239E+01;
1.272000000000000E+09;-1.138910833532442E+00;9.620983674578514E+01;
1.273000000000000E+09;-1.132251443694777E+00;9.587291965028082E+01;
1.274000000000000E+09;-1.121303506811735E+00;9.551132016566834E+01;
1.275000000000000E+09;-1.116870886657182E+00;9.518735193391792E+01;
1.276000000000000E+09;-1.108564819825683E+00;9.481559940239271E+01;
1.277000000000000E+09;-1.102502338538066E+00;9.448884178862714E+01;
1.278000000000000E+09;-1.101736420887575E+00;9.414210727008690E+01;
1.279000000000000E+09;-1.090020836537106E+00;9.377419825898932E+01;
1.280000000000000E+09;-1.087657355140032E+00;9.344676182361614E+01;
1.281000000000000E+09;-1.085606793191811E+00;9.307605942569161E+01;
1.282000000000000E+09;-1.083639947759803E+00;9.269091940981117E+01;
1.283000000000000E+09;-1.081600897039368E+00;9.229452178710490E+01;
1.284000000000000E+09;-1.076039008269840E+00;9.197967346610361E+01;
1.285000000000000E+09;-1.079381252262997E+00;9.157860897441105E+01;
1.286000000000000E+09;-1.078466631364873E+00;9.118655340450782E+01;
1.287000000000000E+09;-1.080626867276353E+00;9.076952019966863E+01;
1.288000000000000E+09;-1.078909904084262E+00;9.038269704854720E+01;
1.289000000000000E+09;-1.077583305716020E+00;8.996151851951518E+01;
1.290000000000000E+09;-1.083152299444005E+00;8.955099473631101E+01;
1.291000000000000E+09;-1.086263534512464E+00;8.910429031136276E+01;
1.292000000000000E+09;-1.088985110714175E+00;8.867891423271578E+01;
