# Version 1.00
#
freq[Hz];db:Trc4_S11;ang:Trc4_S11;
1.000000000000000E+09;-1.257485397808340E+00;1.582726640849060E+02;
1.001000000000000E+09;-1.278562372845756E+00;1.578029339047810E+02;
1.002000000000000E+09;-1.302858901422113E+00;1.573517252917986E+02;
1.003000000000000E+09;-1.329712156901968E+00;1.568831522457114E+02;
1.004000000000000E+09;-1.355175250281593E+00;1.563912916127827E+02;
1.005000000000000E+09;-1.381040456188237E+00;1.559116112836174E+02;
1.006000000000000E+09;-1.409409776470955E+00;1.554026391275716E+02;
1.007000000000000E+09;-1.441675221162329E+00;1.548968116279587E+02;
1.008000000000000E+09;-1.474150784646000E+00;1.543901173133901E+02;
1.009000000000000E+09;-1.504254986112218E+00;1.538982127086528E+02;
1.010000000000000E+09;-1.536182307418210E+00;1.533580168178574E+02;
1.011000000000000E+09;-1.576029470585486E+00;1.528121256396317E+02;
1.012000000000000E+09;-1.609857951832537E+00;1.522582461831279E+02;
1.013000000000000E+09;-1.645967005252177E+00;1.517221459852803E+02;
1.014000000000000E+09;-1.683952192152812E+00;1.511420452865219E+02;
1.015000000000000E+09;-1.725522072929617E+00;1.505804058117492E+02;
1.016000000000000E+09;-1.764464813211204E+00;1.500120699512170E+02;
1.017000000000000E+09;-1.805626931060627E+00;1.493981715269117E+02;
1.018000000000000E+09;-1.849967861720268E+00;1.487917541695870E+02;
1.019000000000000E+09;-1.895827098070826E+00;1.481901076390635E+02;
1.020000000000000E+09;-1.939150085003925E+00;1.475965770430557E+02;
1.021000000000000E+09;-1.981945247803960E+00;1.469583662491933E+02;
1.022000000000000E+09;-2.026167053065681E+00;1.463174756537291E+02;
1.023000000000000E+09;-2.077751271392958E+00;1.456969604837861E+02;
1.024000000000000E+09;-2.123894206573847E+00;1.450573513104466E+02;
1.025000000000000E+09;-2.177614771071646E+00;1.444095766402414E+02;
1.026000000000000E+09;-2.224953392418287E+00;1.437531455258290E+02;
1.027000000000000E+09;-2.271364591863931E+00;1.431128405033442E+02;
1.028000000000000E+09;-2.322737773551755E+00;1.424295982954895E+02;
1.029000000000000E+09;-2.371627341334350E+00;1.417974009367442E+02;
1.030000000000000E+09;-2.425850154046586E+00;1.411248002003564E+02;
1.031000000000000E+09;-2.477976154296146E+00;1.404512342736990E+02;
1.032000000000000E+09;-2.527573953798898E+00;1.397637205993637E+02;
1.033000000000000E+09;-2.575291569714668E+00;1.391047054284952E+02;
1.034000000000000E+09;-2.627121674857511E+00;1.384381279271330E+02;
1.035000000000000E+09;-2.674195929749099E+00;1.377862571202664E+02;
1.036000000000000E+09;-2.723481874735299E+00;1.370943661327664E+02;
1.037000000000000E+09;-2.780941817456577E+00;1.364356031211357E+02;
1.038000000000000E+09;-2.823150595645274E+00;1.357640199782359E+02;
1.039000000000000E+09;-2.870190032905703E+00;1.351064968243116E+02;
1.040000000000000E+09;-2.920499238882173E+00;1.344591946512626E+02;
1.041000000000000E+09;-2.972901269335228E+00;1.338005542097011E+02;
1.042000000000000E+09;-3.022896920133608E+00;1.331030589214240E+02;
1.043000000000000E+09;-3.073879262575800E+00;1.324550058490086E+02;
1.044000000000000E+09;-3.122064609243498E+00;1.317885101266124E+02;
1.045000000000000E+09;-3.168013487107440E+00;1.312026862145589E+02;
1.046000000000000E+09;-3.211707945538523E+00;1.305555458764951E+02;
1.047000000000000E+09;-3.260567861236350E+00;1.298940797791706E+02;
1.048000000000000E+09;-3.309355982676467E+00;1.292654422946933E+02;
1.049000000000000E+09;-3.357423858619513E+00;1.286571936974214E+02;
1.050000000000000E+09;-3.404454244999058E+00;1.280113332713502E+02;
1.051000000000000E+09;-3.451312206055291E+00;1.274182926110828E+02;
1.052000000000000E+09;-3.495251327836724E+00;1.268009570979148E+02;
1.053000000000000E+09;-3.543169598483351E+00;1.262176035622364E+02;
1.054000000000000E+09;-3.592789310135991E+00;1.255697261913415E+02;
1.055000000000000E+09;-3.635823029986620E+00;1.249648322685772E+02;
1.056000000000000E+09;-3.686196211521093E+00;1.243910243982998E+02;
1.057000000000000E+09;-3.740586246835638E+00;1.238086474502882E+02;
1.058000000000000E+09;-3.791308497762096E+00;1.232114637658563E+02;
1.059000000000000E+09;-3.842002732166857E+00;1.226274400415253E+02;
1.060000000000000E+09;-3.895374555558174E+00;1.220295175191114E+02;
1.061000000000000E+09;-3.950975741061145E+00;1.214560552751976E+02;
1.062000000000000E+09;-4.008942671386786E+00;1.208300411423997E+02;
1.063000000000000E+09;-4.070174501783763E+00;1.202744147098491E+02;
1.064000000000000E+09;-4.129236117726345E+00;1.197161576463618E+02;
1.065000000000000E+09;-4.197414588184842E+00;1.191209941006069E+02;
1.066000000000000E+09;-4.268924542496471E+00;1.185232855065739E+02;
1.067000000000000E+09;-4.340517893183351E+00;1.179593685356914E+02;
1.068000000000000E+09;-4.423204162600882E+00;1.174310796754156E+02;
1.069000000000000E+09;-4.502169879258374E+00;1.168174684212278E+02;
1.070000000000000E+09;-4.586884636311527E+00;1.162446723182225E+02;
1.071000000000000E+09;-4.679926454268840E+00;1.157211783253758E+02;
1.072000000000000E+09;-4.776044476375213E+00;1.151664465036920E+02;
1.073000000000000E+09;-4.879213124780696E+00;1.145871052443894E+02;
1.074000000000000E+09;-4.988050413273968E+00;1.140644236334944E+02;
1.075000000000000E+09;-5.100950258719024E+00;1.135414300359278E+02;
1.076000000000000E+09;-5.215848963430780E+00;1.130090854749650E+02;
1.077000000000000E+09;-5.345735011451003E+00;1.124401109021201E+02;
1.078000000000000E+09;-5.479629874276074E+00;1.119782161795386E+02;
1.079000000000000E+09;-5.623718703647732E+00;1.114475454065388E+02;
1.080000000000000E+09;-5.773420870506586E+00;1.109541401793417E+02;
1.081000000000000E+09;-5.934531811373410E+00;1.104689379793976E+02;
1.082000000000000E+09;-6.102954312545296E+00;1.100551724426265E+02;
1.083000000000000E+09;-6.275620828150692E+00;1.096319667744644E+02;
1.084000000000000E+09;-6.467414793388438E+00;1.092080706477993E+02;
1.085000000000000E+09;-6.658481714060001E+00;1.088399721487154E+02;
1.086000000000000E+09;-6.861807080282507E+00;1.085381065492516E+02;
1.087000000000000E+09;-7.074400717464613E+00;1.082120886528843E+02;
1.088000000000000E+09;-7.300061568932997E+00;1.079198796070755E+02;
1.089000000000000E+09;-7.533569583292744E+00;1.077175108843347E+02;
1.090000000000000E+09;-7.782600694009194E+00;1.074851755039317E+02;
1.091000000000000E+09;-8.041691786696777E+00;1.073236494513654E+02;
1.092000000000000E+09;-8.310610768812033E+00;1.072592417333012E+02;
1.093000000000000E+09;-8.595145872355038E+00;1.072520789294274E+02;
1.094000000000000E+09;-8.891162865613968E+00;1.072389516070469E+02;
1.095000000000000E+09;-9.201133285109675E+00;1.073385144186697E+02;
1.096000000000000E+09;-9.526374259120239E+00;1.075473021990630E+02;
1.097000000000000E+09;-9.867195376302840E+00;1.078739913922601E+02;
1.098000000000000E+09;-1.022027949471531E+01;1.083239993248198E+02;
1.099000000000000E+09;-1.059554676970203E+01;1.089418513361327E+02;
1.100000000000000E+09;-1.097582723584764E+01;1.096899539068062E+02;
1.101000000000000E+09;-1.137088229762535E+01;1.106395679410731E+02;
1.102000000000000E+09;-1.177548601603631E+01;1.117784961202400E+02;
1.103000000000000E+09;-1.218999588202484E+01;1.132160545134330E+02;
1.104000000000000E+09;-1.261558113102168E+01;1.149076360036277E+02;
1.105000000000000E+09;-1.302627215989674E+01;1.168927471855302E+02;
1.106000000000000E+09;-1.344266506599348E+01;1.192383672139168E+02;
1.107000000000000E+09;-1.384325549111833E+01;1.220029853978951E+02;
1.108000000000000E+09;-1.420083884901828E+01;1.251530668489069E+02;
1.109000000000000E+09;-1.452930584192995E+01;1.286753609579700E+02;
1.110000000000000E+09;-1.480019112706352E+01;1.325924200971020E+02;
1.111000000000000E+09;-1.497039382334438E+01;1.368945619782519E+02;
1.112000000000000E+09;-1.505034040159017E+01;1.411986466496669E+02;
1.113000000000000E+09;-1.505321611221370E+01;1.455935998128356E+02;
1.114000000000000E+09;-1.494711386549506E+01;1.497991403850934E+02;
1.115000000000000E+09;-1.475724969103517E+01;1.537982993739491E+02;
1.116000000000000E+09;-1.452925436189654E+01;1.573183326776243E+02;
1.117000000000000E+09;-1.424200949791583E+01;1.605158042020805E+02;
1.118000000000000E+09;-1.391996447293955E+01;1.634192189315172E+02;
1.119000000000000E+09;-1.357559578477969E+01;1.659417107281504E+02;
1.120000000000000E+09;-1.321824550757873E+01;1.680753921573905E+02;
1.121000000000000E+09;-1.285060305693802E+01;1.698995594690313E+02;
1.122000000000000E+09;-1.246957604270231E+01;1.715490053098321E+02;
1.123000000000000E+09;-1.209383146657004E+01;1.728042928303122E+02;
1.124000000000000E+09;-1.171140993934517E+01;1.738084752708234E+02;
1.125000000000000E+09;-1.134557248319368E+01;1.746138358094668E+02;
1.126000000000000E+09;-1.097771503258137E+01;1.751899429705286E+02;
1.127000000000000E+09;-1.062525004676832E+01;1.756019222382857E+02;
1.128000000000000E+09;-1.028215747670431E+01;1.758029440888764E+02;
1.129000000000000E+09;-9.952756791941685E+00;1.758690226915427E+02;
1.130000000000000E+09;-9.619752074268499E+00;1.758338270333647E+02;
1.131000000000000E+09;-9.313293087046882E+00;1.756283444114588E+02;
1.132000000000000E+09;-9.018269281828688E+00;1.753391566251100E+02;
1.133000000000000E+09;-8.730579632472065E+00;1.749504934274357E+02;
1.134000000000000E+09;-8.453547560470714E+00;1.744890143731544E+02;
1.135000000000000E+09;-8.188076757411825E+00;1.739838142248539E+02;
1.136000000000000E+09;-7.939674093857274E+00;1.733870752138997E+02;
1.137000000000000E+09;-7.693645225645024E+00;1.727622434948582E+02;
1.138000000000000E+09;-7.455400188594226E+00;1.721138366000116E+02;
1.139000000000000E+09;-7.235455687559634E+00;1.713330878049316E+02;
1.140000000000000E+09;-7.018480525369207E+00;1.706175086113727E+02;
1.141000000000000E+09;-6.806062790052273E+00;1.698154394961350E+02;
1.142000000000000E+09;-6.612724199086105E+00;1.690172565483378E+02;
1.143000000000000E+09;-6.421758734268785E+00;1.682065530657047E+02;
1.144000000000000E+09;-6.238272128279288E+00;1.674089123165310E+02;
1.145000000000000E+09;-6.058250907391648E+00;1.666093270949441E+02;
1.146000000000000E+09;-5.892096427616918E+00;1.657540101392576E+02;
1.147000000000000E+09;-5.727715803870580E+00;1.648988420626481E+02;
1.148000000000000E+09;-5.563983683352248E+00;1.641018564695582E+02;
1.149000000000000E+09;-5.415827990802942E+00;1.632704478024754E+02;
1.150000000000000E+09;-5.266184319100242E+00;1.624015298692179E+02;
1.151000000000000E+09;-5.124832492962595E+00;1.616143801835273E+02;
1.152000000000000E+09;-4.990449834041581E+00;1.607905593016481E+02;
1.153000000000000E+09;-4.861575565813367E+00;1.600161717735901E+02;
1.154000000000000E+09;-4.735078507866200E+00;1.591819765981471E+02;
1.155000000000000E+09;-4.614563320841586E+00;1.584250094407041E+02;
1.156000000000000E+09;-4.491170770128148E+00;1.576549663070329E+02;
1.157000000000000E+09;-4.373161979838881E+00;1.568881762811723E+02;
1.158000000000000E+09;-4.265191697589700E+00;1.561798141619641E+02;
1.159000000000000E+09;-4.159880925242048E+00;1.554405394638522E+02;
1.160000000000000E+09;-4.054940830932528E+00;1.547488332288785E+02;
1.161000000000000E+09;-3.954392495046836E+00;1.540493089522344E+02;
1.162000000000000E+09;-3.853595726343573E+00;1.533504775575425E+02;
1.163000000000000E+09;-3.761198481933988E+00;1.526940442351517E+02;
1.164000000000000E+09;-3.664984349140664E+00;1.520324600457170E+02;
1.165000000000000E+09;-3.575788442488311E+00;1.513447816789106E+02;
1.166000000000000E+09;-3.493951317688588E+00;1.507237866000518E+02;
1.167000000000000E+09;-3.412114380470746E+00;1.500431124595732E+02;
1.168000000000000E+09;-3.338405905002098E+00;1.494311649205874E+02;
1.169000000000000E+09;-3.264782001512346E+00;1.488236026656993E+02;
1.170000000000000E+09;-3.196712711734367E+00;1.482525222402720E+02;
1.171000000000000E+09;-3.131135590941598E+00;1.476538675102408E+02;
1.172000000000000E+09;-3.066888501507202E+00;1.471012328121572E+02;
1.173000000000000E+09;-3.005295862521820E+00;1.465421305327131E+02;
1.174000000000000E+09;-2.943910647385496E+00;1.460112281916169E+02;
1.175000000000000E+09;-2.887312554337613E+00;1.454807820450365E+02;
1.176000000000000E+09;-2.833198573400862E+00;1.449393428795634E+02;
1.177000000000000E+09;-2.780887645043530E+00;1.444354818585365E+02;
1.178000000000000E+09;-2.732578845438376E+00;1.439073246328259E+02;
1.179000000000000E+09;-2.687892783514939E+00;1.433896285765919E+02;
1.180000000000000E+09;-2.647125007584632E+00;1.429102046927340E+02;
1.181000000000000E+09;-2.601737812552027E+00;1.424265350869432E+02;
1.182000000000000E+09;-2.568080847290606E+00;1.419551634684141E+02;
1.183000000000000E+09;-2.534957240340408E+00;1.414720945157966E+02;
1.184000000000000E+09;-2.499393528611861E+00;1.410221930988767E+02;
1.185000000000000E+09;-2.473355689460238E+00;1.405831393161330E+02;
1.186000000000000E+09;-2.442887560487314E+00;1.401293840035101E+02;
1.187000000000000E+09;-2.419036683189714E+00;1.396912129343749E+02;
1.188000000000000E+09;-2.391145611442747E+00;1.392901166950367E+02;
1.189000000000000E+09;-2.367976675461537E+00;1.388571349571978E+02;
1.190000000000000E+09;-2.344413749382764E+00;1.384682758111781E+02;
1.191000000000000E+09;-2.321316272296294E+00;1.380280171744917E+02;
1.192000000000000E+09;-2.299513988710641E+00;1.376466579131003E+02;
1.193000000000000E+09;-2.278183297364408E+00;1.372437469012283E+02;
1.194000000000000E+09;-2.255902830653297E+00;1.367997634134265E+02;
1.195000000000000E+09;-2.237115475128438E+00;1.363986835478344E+02;
1.196000000000000E+09;-2.218150335411437E+00;1.359996949187067E+02;
1.197000000000000E+09;-2.196387196523706E+00;1.355421686002521E+02;
1.198000000000000E+09;-2.179588697516979E+00;1.350960948141655E+02;
1.199000000000000E+09;-2.160533654046962E+00;1.346711923444483E+02;
1.200000000000000E+09;-2.145593822049864E+00;1.342317340745062E+02;
1.201000000000000E+09;-2.131978980613670E+00;1.337669643387829E+02;
1.202000000000000E+09;-2.119156402533781E+00;1.333115143849309E+02;
1.203000000000000E+09;-2.107507625915088E+00;1.328528441065965E+02;
1.204000000000000E+09;-2.092970814069450E+00;1.323907021463866E+02;
1.205000000000000E+09;-2.081865520723607E+00;1.319155673467689E+02;
1.206000000000000E+09;-2.071471881080987E+00;1.314298407530412E+02;
1.207000000000000E+09;-2.060674909558155E+00;1.309699738409179E+02;
1.208000000000000E+09;-2.051748489146921E+00;1.304788886278681E+02;
1.209000000000000E+09;-2.041213961795103E+00;1.299963926842516E+02;
1.210000000000000E+09;-2.031094963588107E+00;1.295050485708352E+02;
1.211000000000000E+09;-2.019316494267916E+00;1.290049895869584E+02;
1.212000000000000E+09;-2.005789359500802E+00;1.285238675398634E+02;
1.213000000000000E+09;-1.992938984950766E+00;1.279893885673087E+02;
1.214000000000000E+09;-1.978331228146003E+00;1.274872224004955E+02;
1.215000000000000E+09;-1.962840095046775E+00;1.269432845886790E+02;
1.216000000000000E+09;-1.947400987874052E+00;1.263976055565119E+02;
1.217000000000000E+09;-1.933201627596041E+00;1.258453456416811E+02;
1.218000000000000E+09;-1.916747294038481E+00;1.252722543047627E+02;
1.219000000000000E+09;-1.903040237562375E+00;1.247141066102777E+02;
1.220000000000000E+09;-1.885098946590948E+00;1.241121355909151E+02;
1.221000000000000E+09;-1.868401267795986E+00;1.235375262538099E+02;
1.222000000000000E+09;-1.856835705261067E+00;1.229571494588054E+02;
1.223000000000000E+09;-1.837421921107333E+00;1.223663368619441E+02;
1.224000000000000E+09;-1.818064964574079E+00;1.217347706252441E+02;
1.225000000000000E+09;-1.797056121165527E+00;1.211465895636288E+02;
1.226000000000000E+09;-1.779809981417343E+00;1.205447956207648E+02;
1.227000000000000E+09;-1.762513571467548E+00;1.199027069479547E+02;
1.228000000000000E+09;-1.747117160555363E+00;1.192775225197537E+02;
1.229000000000000E+09;-1.724275665211949E+00;1.186529945583040E+02;
1.230000000000000E+09;-1.706949276991288E+00;1.180346665749722E+02;
1.231000000000000E+09;-1.685856201535020E+00;1.173820268346277E+02;
1.232000000000000E+09;-1.666382162349504E+00;1.167555455852356E+02;
1.233000000000000E+09;-1.646846524753472E+00;1.161584208631216E+02;
1.234000000000000E+09;-1.628004598604947E+00;1.155017757229121E+02;
1.235000000000000E+09;-1.611545086011120E+00;1.148830061761696E+02;
1.236000000000000E+09;-1.588041089793423E+00;1.143042952356762E+02;
1.237000000000000E+09;-1.564338546307449E+00;1.136597765474233E+02;
1.238000000000000E+09;-1.546356228097027E+00;1.130794564094489E+02;
1.239000000000000E+09;-1.523904884722960E+00;1.124495080218484E+02;
1.240000000000000E+09;-1.501457469568373E+00;1.118640219001900E+02;
1.241000000000000E+09;-1.485263978506748E+00;1.112614676447695E+02;
1.242000000000000E+09;-1.462203885539544E+00;1.107132921097491E+02;
1.243000000000000E+09;-1.442167273334333E+00;1.101357838926852E+02;
1.244000000000000E+09;-1.416337020356393E+00;1.095756985417999E+02;
1.245000000000000E+09;-1.394247894355524E+00;1.090152790020744E+02;
1.246000000000000E+09;-1.375379851384094E+00;1.084946161877719E+02;
1.247000000000000E+09;-1.350675289553094E+00;1.079198464856606E+02;
1.248000000000000E+09;-1.328245138417888E+00;1.074042700946954E+02;
1.249000000000000E+09;-1.308386631496887E+00;1.068700036415430E+02;
1.250000000000000E+09;-1.289901517518052E+00;1.063354056288346E+02;
1.251000000000000E+09;-1.270185695926730E+00;1.058235971297054E+02;
1.252000000000000E+09;-1.251511822953052E+00;1.053841638046419E+02;
1.253000000000000E+09;-1.228188676876018E+00;1.049081453939405E+02;
1.254000000000000E+09;-1.207873196828300E+00;1.043896502094665E+02;
1.255000000000000E+09;-1.190456410805751E+00;1.039169938038378E+02;
1.256000000000000E+09;-1.174062543722336E+00;1.034629289826258E+02;
1.257000000000000E+09;-1.152950942964872E+00;1.030303858601742E+02;
1.258000000000000E+09;-1.136290251786793E+00;1.025980761802021E+02;
1.259000000000000E+09;-1.118569864175433E+00;1.021229458513111E+02;
1.260000000000000E+09;-1.098144872058863E+00;1.016919967657612E+02;
1.261000000000000E+09;-1.088032372551016E+00;1.012876065850646E+02;
1.262000000000000E+09;-1.073038548239035E+00;1.008663836634082E+02;
1.263000000000000E+09;-1.053305747515065E+00;1.004506761282330E+02;
1.264000000000000E+09;-1.043316312230981E+00;1.000118042596257E+02;
1.265000000000000E+09;-1.031074604828417E+00;9.962568269539966E+01;
1.266000000000000E+09;-1.017072727504008E+00;9.924446907203597E+01;
1.267000000000000E+09;-1.006227598722115E+00;9.882744472092905E+01;
1.268000000000000E+09;-9.960459525174095E-01;9.842648922244416E+01;
1.269000000000000E+09;-9.889547398944880E-01;9.802865375142864E+01;
1.270000000000000E+09;-9.782327712842602E-01;9.765412106916537E+01;
1.271000000000000E+09;-9.709407654957105E-01;9.729223663975988E+01;
1.272000000000000E+09;-9.688957975671131E-01;9.687556012164313E+01;
1.273000000000000E+09;-9.630011054579278E-01;9.650098761426044E+01;
1.274000000000000E+09;-9.574792493033596E-01;9.612347245248088E+01;
1.275000000000000E+09;-9.540095653970213E-01;9.575722526627183E+01;
1.276000000000000E+09;-9.506692015960108E-01;9.536613736174836E+01;
1.277000000000000E+09;-9.511473095848934E-01;9.499110278068609E+01;
1.278000000000000E+09;-9.513266376139400E-01;9.462494971586077E+01;
1.279000000000000E+09;-9.482464696109649E-01;9.423602870383405E+01;
1.280000000000000E+09;-9.472130349130747E-01;9.387506123810304E+01;
1.281000000000000E+09;-9.510129266622874E-01;9.346684050762303E+01;
1.282000000000000E+09;-9.537875534431004E-01;9.307382598454173E+01;
1.283000000000000E+09;-9.582399855433010E-01;9.267104778437023E+01;
1.284000000000000E+09;-9.581401676993491E-01;9.231329845302471E+01;
1.285000000000000E+09;-9.634168352902897E-01;9.191828611565751E+01;
1.286000000000000E+09;-9.730119530248825E-01;9.149586624526928E+01;
1.287000000000000E+09;-9.766931346077978E-01;9.107791492770932E+01;
1.288000000000000E+09;-9.843002743253221E-01;9.067707970022391E+01;
1.289000000000000E+09;-9.901621576027444E-01;9.027831938231307E+01;
1.290000000000000E+09;-1.004228898320171E+00;8.985462073313843E+01;
1.291000000000000E+09;-1.006339820955694E+00;8.941348617829807E+01;
1.292000000000000E+09;-1.018415925416946E+00;8.900582354749687E+01;
