# Version 1.00
#
freq[Hz];db:Trc4_S11;ang:Trc4_S11;
1.000000000000000E+09;-1.264264668479321E+00;1.581648027112236E+02;
1.001000000000000E+09;-1.284361455810411E+00;1.576944773986671E+02;
1.002000000000000E+09;-1.309592863007129E+00;1.572467806491055E+02;
1.003000000000000E+09;-1.335612384745868E+00;1.567556723103623E+02;
1.004000000000000E+09;-1.362945748449879E+00;1.562532316598191E+02;
1.005000000000000E+09;-1.389595539301960E+00;1.557990899304645E+02;
1.006000000000000E+09;-1.415904703848570E+00;1.552828077405588E+02;
1.007000000000000E+09;-1.449714225303508E+00;1.547805018774367E+02;
1.008000000000000E+09;-1.481496480776213E+00;1.542806501882536E+02;
1.009000000000000E+09;-1.514755462878411E+00;1.537721170540436E+02;
1.010000000000000E+09;-1.547796131250110E+00;1.532334690753792E+02;
1.011000000000000E+09;-1.586556091602163E+00;1.526875186074630E+02;
1.012000000000000E+09;-1.621735069470438E+00;1.521434623836794E+02;
1.013000000000000E+09;-1.657299183457983E+00;1.516056495877037E+02;
1.014000000000000E+09;-1.694290236527760E+00;1.510147732939932E+02;
1.015000000000000E+09;-1.736239179481182E+00;1.504495013117730E+02;
1.016000000000000E+09;-1.776675889079006E+00;1.498740929304181E+02;
1.017000000000000E+09;-1.815566294921211E+00;1.492497288813631E+02;
1.018000000000000E+09;-1.861298391328065E+00;1.486470458888998E+02;
1.019000000000000E+09;-1.906779631663545E+00;1.480303244422786E+02;
1.020000000000000E+09;-1.949573301965437E+00;1.474497084816414E+02;
1.021000000000000E+09;-1.994945790907426E+00;1.467999172228990E+02;
1.022000000000000E+09;-2.041870630256706E+00;1.461601290134840E+02;
1.023000000000000E+09;-2.094756763869306E+00;1.455245918595213E+02;
1.024000000000000E+09;-2.144141398191954E+00;1.448853775507170E+02;
1.025000000000000E+09;-2.193700374602117E+00;1.442145537758407E+02;
1.026000000000000E+09;-2.245398448356778E+00;1.435678255730294E+02;
1.027000000000000E+09;-2.295524048778572E+00;1.429249843758377E+02;
1.028000000000000E+09;-2.344926603163560E+00;1.422319025961827E+02;
1.029000000000000E+09;-2.395929417187783E+00;1.416012585784808E+02;
1.030000000000000E+09;-2.449316832100230E+00;1.409157795913581E+02;
1.031000000000000E+09;-2.505900970592230E+00;1.402727475980154E+02;
1.032000000000000E+09;-2.556545230005898E+00;1.395699904880331E+02;
1.033000000000000E+09;-2.610035353030071E+00;1.388981802508077E+02;
1.034000000000000E+09;-2.664224504439851E+00;1.382390746575349E+02;
1.035000000000000E+09;-2.715873473232882E+00;1.375847595076421E+02;
1.036000000000000E+09;-2.768511750187205E+00;1.369285117830355E+02;
1.037000000000000E+09;-2.821330854304930E+00;1.362646887174811E+02;
1.038000000000000E+09;-2.870954704297273E+00;1.356246623712559E+02;
1.039000000000000E+09;-2.921500176437817E+00;1.349725515966655E+02;
1.040000000000000E+09;-2.968238237898349E+00;1.342856471618371E+02;
1.041000000000000E+09;-3.015972161850691E+00;1.336872035261383E+02;
1.042000000000000E+09;-3.062606016531047E+00;1.330194223013624E+02;
1.043000000000000E+09;-3.113115142807394E+00;1.323459692988378E+02;
1.044000000000000E+09;-3.157128331647752E+00;1.316818244001156E+02;
1.045000000000000E+09;-3.209587671866747E+00;1.310666161521692E+02;
1.046000000000000E+09;-3.253604911228939E+00;1.304323300297696E+02;
1.047000000000000E+09;-3.306830555149079E+00;1.297914493194906E+02;
1.048000000000000E+09;-3.357220687521676E+00;1.291382228400122E+02;
1.049000000000000E+09;-3.402587165721951E+00;1.285300590278027E+02;
1.050000000000000E+09;-3.449320041434274E+00;1.279244609792399E+02;
1.051000000000000E+09;-3.496342079478619E+00;1.273110917662148E+02;
1.052000000000000E+09;-3.543585371394182E+00;1.267222107249005E+02;
1.053000000000000E+09;-3.592726263757748E+00;1.261248247009683E+02;
1.054000000000000E+09;-3.639447291527243E+00;1.255043320418694E+02;
1.055000000000000E+09;-3.681388979097621E+00;1.248959051495127E+02;
1.056000000000000E+09;-3.735563863312082E+00;1.243408754925422E+02;
1.057000000000000E+09;-3.781819226142980E+00;1.237643038678301E+02;
1.058000000000000E+09;-3.832835748133383E+00;1.231650851737439E+02;
1.059000000000000E+09;-3.887778580847165E+00;1.225813184398067E+02;
1.060000000000000E+09;-3.938875746332040E+00;1.219902008822057E+02;
1.061000000000000E+09;-3.993695967964343E+00;1.214292099442127E+02;
1.062000000000000E+09;-4.049174599610338E+00;1.208171558293503E+02;
1.063000000000000E+09;-4.108591692327582E+00;1.202856997175389E+02;
1.064000000000000E+09;-4.166270889076565E+00;1.197101000943380E+02;
1.065000000000000E+09;-4.230154155860170E+00;1.191384403101923E+02;
1.066000000000000E+09;-4.299943278651752E+00;1.185585830746537E+02;
1.067000000000000E+09;-4.367159402437078E+00;1.179703061712737E+02;
1.068000000000000E+09;-4.445559371530456E+00;1.174511335056038E+02;
1.069000000000000E+09;-4.525233164475714E+00;1.168570946398860E+02;
1.070000000000000E+09;-4.606269342338042E+00;1.163021950380124E+02;
1.071000000000000E+09;-4.695357568147693E+00;1.157715738094359E+02;
1.072000000000000E+09;-4.783355694946488E+00;1.152262787141209E+02;
1.073000000000000E+09;-4.879804266849870E+00;1.146858805829234E+02;
1.074000000000000E+09;-4.979254110945801E+00;1.141321354447312E+02;
1.075000000000000E+09;-5.085930407664236E+00;1.136120217053046E+02;
1.076000000000000E+09;-5.192732220637732E+00;1.130670856213308E+02;
1.077000000000000E+09;-5.312306882890729E+00;1.124787821047666E+02;
1.078000000000000E+09;-5.433472381994181E+00;1.120115205577513E+02;
1.079000000000000E+09;-5.572738621063069E+00;1.114759722678749E+02;
1.080000000000000E+09;-5.712752418028971E+00;1.109470848239353E+02;
1.081000000000000E+09;-5.863231264071570E+00;1.104194748906438E+02;
1.082000000000000E+09;-6.017817851240467E+00;1.099215147095900E+02;
1.083000000000000E+09;-6.183268843791821E+00;1.094374202161197E+02;
1.084000000000000E+09;-6.362008468581121E+00;1.089509223910510E+02;
1.085000000000000E+09;-6.538455820984817E+00;1.085138312227712E+02;
1.086000000000000E+09;-6.735921446081398E+00;1.081194254334653E+02;
1.087000000000000E+09;-6.942617293645428E+00;1.076828082385864E+02;
1.088000000000000E+09;-7.163988635561060E+00;1.072568509896874E+02;
1.089000000000000E+09;-7.389552016603050E+00;1.069482922557448E+02;
1.090000000000000E+09;-7.633791782951206E+00;1.066355076752909E+02;
1.091000000000000E+09;-7.887268699115193E+00;1.063435784729380E+02;
1.092000000000000E+09;-8.156275978642118E+00;1.061060552856641E+02;
1.093000000000000E+09;-8.436146894461336E+00;1.059295907294944E+02;
1.094000000000000E+09;-8.739054928585958E+00;1.058036700174001E+02;
1.095000000000000E+09;-9.058036625533008E+00;1.057467498664716E+02;
1.096000000000000E+09;-9.390848663670642E+00;1.058131162439138E+02;
1.097000000000000E+09;-9.739095649858790E+00;1.059980750886754E+02;
1.098000000000000E+09;-1.010895699225778E+01;1.062662135739424E+02;
1.099000000000000E+09;-1.049774410294328E+01;1.067097918722861E+02;
1.100000000000000E+09;-1.089043171573944E+01;1.073319740300640E+02;
1.101000000000000E+09;-1.131169725122831E+01;1.081162863139399E+02;
1.102000000000000E+09;-1.175399536884246E+01;1.091344661009919E+02;
1.103000000000000E+09;-1.219255885738851E+01;1.104887589082110E+02;
1.104000000000000E+09;-1.264699234145357E+01;1.120915133324397E+02;
1.105000000000000E+09;-1.310137992037065E+01;1.141065171800974E+02;
1.106000000000000E+09;-1.354167159774678E+01;1.163972837866565E+02;
1.107000000000000E+09;-1.396207609264209E+01;1.191545249365717E+02;
1.108000000000000E+09;-1.434952935580223E+01;1.223319067514404E+02;
1.109000000000000E+09;-1.470758243434980E+01;1.257842120959290E+02;
1.110000000000000E+09;-1.500776733300146E+01;1.296640824930686E+02;
1.111000000000000E+09;-1.522983299732397E+01;1.338429555093684E+02;
1.112000000000000E+09;-1.536815677593451E+01;1.382216178874892E+02;
1.113000000000000E+09;-1.544293696697968E+01;1.426572435891902E+02;
1.114000000000000E+09;-1.541671220846773E+01;1.471127163914802E+02;
1.115000000000000E+09;-1.529560181753561E+01;1.515470600659660E+02;
1.116000000000000E+09;-1.511922992699176E+01;1.555772752947156E+02;
1.117000000000000E+09;-1.486115535900738E+01;1.594320254426681E+02;
1.118000000000000E+09;-1.454762879742538E+01;1.629711327241223E+02;
1.119000000000000E+09;-1.417851578940053E+01;1.661637023889300E+02;
1.120000000000000E+09;-1.377418170479227E+01;1.688030358583523E+02;
1.121000000000000E+09;-1.335084601043629E+01;1.710795224040250E+02;
1.122000000000000E+09;-1.291128744757765E+01;1.729620801241539E+02;
1.123000000000000E+09;-1.247415522137381E+01;1.744237522518811E+02;
1.124000000000000E+09;-1.204113994035053E+01;1.755567319117338E+02;
1.125000000000000E+09;-1.162122296327353E+01;1.764286288433483E+02;
1.126000000000000E+09;-1.120831341164441E+01;1.770355778797612E+02;
1.127000000000000E+09;-1.081423218760618E+01;1.774343057368171E+02;
1.128000000000000E+09;-1.043720216126075E+01;1.776632252775179E+02;
1.129000000000000E+09;-1.007596629859895E+01;1.777135293024360E+02;
1.130000000000000E+09;-9.722916380961511E+00;1.776128951855369E+02;
1.131000000000000E+09;-9.385162157574268E+00;1.773677484363126E+02;
1.132000000000000E+09;-9.063397683405096E+00;1.770323544273285E+02;
1.133000000000000E+09;-8.749228796181610E+00;1.765807852666846E+02;
1.134000000000000E+09;-8.451851572679573E+00;1.760389251486642E+02;
1.135000000000000E+09;-8.166505662412479E+00;1.754625177908131E+02;
1.136000000000000E+09;-7.905124643247820E+00;1.747566728283464E+02;
1.137000000000000E+09;-7.641744633717488E+00;1.740537522369471E+02;
1.138000000000000E+09;-7.396624260946211E+00;1.733057305077315E+02;
1.139000000000000E+09;-7.169820393530610E+00;1.724970048126879E+02;
1.140000000000000E+09;-6.946226300896610E+00;1.717264220072126E+02;
1.141000000000000E+09;-6.728429446889328E+00;1.708769470976986E+02;
1.142000000000000E+09;-6.524141173175870E+00;1.700128096681943E+02;
1.143000000000000E+09;-6.327952694928162E+00;1.691688750898981E+02;
1.144000000000000E+09;-6.135771467317531E+00;1.683293181839680E+02;
1.145000000000000E+09;-5.953119090361491E+00;1.674499902655922E+02;
1.146000000000000E+09;-5.779820838148808E+00;1.665630421708713E+02;
1.147000000000000E+09;-5.610808717137417E+00;1.656586054496098E+02;
1.148000000000000E+09;-5.448530797707798E+00;1.647871805139603E+02;
1.149000000000000E+09;-5.296265894506166E+00;1.639564854254426E+02;
1.150000000000000E+09;-5.145794820465198E+00;1.630667537802192E+02;
1.151000000000000E+09;-5.000458450384172E+00;1.622289671545214E+02;
1.152000000000000E+09;-4.862259552276116E+00;1.613560363347064E+02;
1.153000000000000E+09;-4.726742201148588E+00;1.605347059816301E+02;
1.154000000000000E+09;-4.599265669363862E+00;1.596924450129456E+02;
1.155000000000000E+09;-4.473359342879142E+00;1.588882512214207E+02;
1.156000000000000E+09;-4.346131252469375E+00;1.580883872286920E+02;
1.157000000000000E+09;-4.230590444350707E+00;1.572653071142108E+02;
1.158000000000000E+09;-4.121855963267012E+00;1.565109804126030E+02;
1.159000000000000E+09;-4.011314878174785E+00;1.557176116520950E+02;
1.160000000000000E+09;-3.910476256831223E+00;1.549790746435052E+02;
1.161000000000000E+09;-3.810010272955390E+00;1.542081221064813E+02;
1.162000000000000E+09;-3.710976754392221E+00;1.534999276092809E+02;
1.163000000000000E+09;-3.613956755084058E+00;1.527797097642799E+02;
1.164000000000000E+09;-3.521847546950287E+00;1.520719383953060E+02;
1.165000000000000E+09;-3.438700009040757E+00;1.513722041514909E+02;
1.166000000000000E+09;-3.354255928824116E+00;1.506870751550443E+02;
1.167000000000000E+09;-3.275525142930286E+00;1.500025640591954E+02;
1.168000000000000E+09;-3.204461776860871E+00;1.493511589103958E+02;
1.169000000000000E+09;-3.130413070769611E+00;1.487229160979191E+02;
1.170000000000000E+09;-3.064281611678775E+00;1.480995665118126E+02;
1.171000000000000E+09;-2.998486864765754E+00;1.474704343966435E+02;
1.172000000000000E+09;-2.939457357112496E+00;1.468761864515538E+02;
1.173000000000000E+09;-2.879674057299625E+00;1.462913860919555E+02;
1.174000000000000E+09;-2.821326778298103E+00;1.457322699391287E+02;
1.175000000000000E+09;-2.768064479414174E+00;1.451834064818991E+02;
1.176000000000000E+09;-2.714508523547776E+00;1.446087406364043E+02;
1.177000000000000E+09;-2.665199059452734E+00;1.441009594761047E+02;
1.178000000000000E+09;-2.616076485579262E+00;1.435565461499077E+02;
1.179000000000000E+09;-2.572451084762116E+00;1.430020934243915E+02;
1.180000000000000E+09;-2.531697457087716E+00;1.424883053458928E+02;
1.181000000000000E+09;-2.492408570762124E+00;1.419936079728721E+02;
1.182000000000000E+09;-2.457275043553397E+00;1.414564497685715E+02;
1.183000000000000E+09;-2.423204183428656E+00;1.409633216035578E+02;
1.184000000000000E+09;-2.391195142051337E+00;1.404755534851184E+02;
1.185000000000000E+09;-2.363443661840082E+00;1.399823817932001E+02;
1.186000000000000E+09;-2.339645744882414E+00;1.394863159903394E+02;
1.187000000000000E+09;-2.311127057889043E+00;1.390228166749438E+02;
1.188000000000000E+09;-2.290200415365115E+00;1.385542987888508E+02;
1.189000000000000E+09;-2.269091061491738E+00;1.380939129208691E+02;
1.190000000000000E+09;-2.249038139849539E+00;1.376249710276209E+02;
1.191000000000000E+09;-2.232289091024923E+00;1.371490359154940E+02;
1.192000000000000E+09;-2.213583567886264E+00;1.366871519071040E+02;
1.193000000000000E+09;-2.204139858840685E+00;1.362549899663081E+02;
1.194000000000000E+09;-2.187183114537640E+00;1.357950066342528E+02;
1.195000000000000E+09;-2.175260878422933E+00;1.353473872209701E+02;
1.196000000000000E+09;-2.166584523459863E+00;1.349022125000216E+02;
1.197000000000000E+09;-2.160144940748310E+00;1.344441867689050E+02;
1.198000000000000E+09;-2.154162953295599E+00;1.339765628446740E+02;
1.199000000000000E+09;-2.148703426938984E+00;1.335238415142590E+02;
1.200000000000000E+09;-2.141572447315425E+00;1.330607507703032E+02;
1.201000000000000E+09;-2.140039468360795E+00;1.326093768269643E+02;
1.202000000000000E+09;-2.136878929536782E+00;1.321691166130098E+02;
1.203000000000000E+09;-2.135710419024000E+00;1.317299094455843E+02;
1.204000000000000E+09;-2.132357155088224E+00;1.312932585806331E+02;
1.205000000000000E+09;-2.127999116607265E+00;1.308399369530244E+02;
1.206000000000000E+09;-2.125558452942839E+00;1.304135491783720E+02;
1.207000000000000E+09;-2.123606138169755E+00;1.299798789238464E+02;
1.208000000000000E+09;-2.118059203139183E+00;1.295359403899273E+02;
1.209000000000000E+09;-2.112240932667838E+00;1.290887492795061E+02;
1.210000000000000E+09;-2.103808179792780E+00;1.286357015026190E+02;
1.211000000000000E+09;-2.097488927802536E+00;1.281791369285728E+02;
1.212000000000000E+09;-2.089539321487100E+00;1.277053154509513E+02;
1.213000000000000E+09;-2.080989154505761E+00;1.271807171902156E+02;
1.214000000000000E+09;-2.070965792976295E+00;1.267283883312209E+02;
1.215000000000000E+09;-2.056926607223820E+00;1.262316302619694E+02;
1.216000000000000E+09;-2.048854716478260E+00;1.257076589797092E+02;
1.217000000000000E+09;-2.035487133137449E+00;1.252092437499349E+02;
1.218000000000000E+09;-2.019291023231027E+00;1.246867716026121E+02;
1.219000000000000E+09;-2.009672802743513E+00;1.241468702311673E+02;
1.220000000000000E+09;-1.994889072141746E+00;1.235901760247469E+02;
1.221000000000000E+09;-1.978821888013577E+00;1.230593945633994E+02;
1.222000000000000E+09;-1.965279639301155E+00;1.225203227676144E+02;
1.223000000000000E+09;-1.944657787020601E+00;1.219613580552070E+02;
1.224000000000000E+09;-1.927855662769854E+00;1.213720050750455E+02;
1.225000000000000E+09;-1.909934627039032E+00;1.208168370718179E+02;
1.226000000000000E+09;-1.890520591778088E+00;1.202330042442014E+02;
1.227000000000000E+09;-1.870876496358059E+00;1.196241402999606E+02;
1.228000000000000E+09;-1.852401086401005E+00;1.190421639160790E+02;
1.229000000000000E+09;-1.828000329049350E+00;1.184271430454824E+02;
1.230000000000000E+09;-1.807722683902706E+00;1.178497274155459E+02;
1.231000000000000E+09;-1.783877387071036E+00;1.172132715860281E+02;
1.232000000000000E+09;-1.762149127614316E+00;1.166032499894740E+02;
1.233000000000000E+09;-1.744633282525777E+00;1.160139491036541E+02;
1.234000000000000E+09;-1.719684830008354E+00;1.153807271826386E+02;
1.235000000000000E+09;-1.697028011698157E+00;1.147816633185377E+02;
1.236000000000000E+09;-1.677106204954419E+00;1.142163975073276E+02;
1.237000000000000E+09;-1.651086149837850E+00;1.135736761360391E+02;
1.238000000000000E+09;-1.633975151449696E+00;1.129812233541445E+02;
1.239000000000000E+09;-1.604688413636929E+00;1.123874392284114E+02;
1.240000000000000E+09;-1.580778492713153E+00;1.118043927606846E+02;
1.241000000000000E+09;-1.562482907717406E+00;1.111988386979521E+02;
1.242000000000000E+09;-1.538495543014682E+00;1.106517372233199E+02;
1.243000000000000E+09;-1.513562717915332E+00;1.100743418596434E+02;
1.244000000000000E+09;-1.486652788697950E+00;1.095180652826159E+02;
1.245000000000000E+09;-1.465627369491683E+00;1.089440720968974E+02;
1.246000000000000E+09;-1.443777001263396E+00;1.083998842681695E+02;
1.247000000000000E+09;-1.420750133487786E+00;1.078291868775945E+02;
1.248000000000000E+09;-1.399543846786103E+00;1.072901014184352E+02;
1.249000000000000E+09;-1.377430959615948E+00;1.067606346160728E+02;
1.250000000000000E+09;-1.355437823376834E+00;1.062414063478609E+02;
1.251000000000000E+09;-1.334955350737384E+00;1.057322334574125E+02;
1.252000000000000E+09;-1.316405849036925E+00;1.052739564929087E+02;
1.253000000000000E+09;-1.294544844743569E+00;1.047716096745923E+02;
1.254000000000000E+09;-1.274374248252695E+00;1.042876419355743E+02;
1.255000000000000E+09;-1.252332809922049E+00;1.037838977367682E+02;
1.256000000000000E+09;-1.237517378561338E+00;1.033243634434468E+02;
1.257000000000000E+09;-1.220027687525814E+00;1.029012147753614E+02;
1.258000000000000E+09;-1.199984864742612E+00;1.024514243195187E+02;
1.259000000000000E+09;-1.181687441491841E+00;1.019844123209968E+02;
1.260000000000000E+09;-1.164537311793455E+00;1.015479293649200E+02;
1.261000000000000E+09;-1.149733525940744E+00;1.011493105411164E+02;
1.262000000000000E+09;-1.134985111863522E+00;1.007234208058541E+02;
1.263000000000000E+09;-1.115407571026982E+00;1.003158125896274E+02;
1.264000000000000E+09;-1.101688065351132E+00;9.987044689998478E+01;
1.265000000000000E+09;-1.089244119949188E+00;9.948336765692713E+01;
1.266000000000000E+09;-1.074274530074839E+00;9.909232738324978E+01;
1.267000000000000E+09;-1.062304930083804E+00;9.867874607653306E+01;
1.268000000000000E+09;-1.053171943223933E+00;9.827027660101766E+01;
1.269000000000000E+09;-1.042049669964138E+00;9.786342662886379E+01;
1.270000000000000E+09;-1.034875246841564E+00;9.748940471968459E+01;
1.271000000000000E+09;-1.025285730427604E+00;9.710194452175914E+01;
1.272000000000000E+09;-1.020293497110577E+00;9.669273668108565E+01;
1.273000000000000E+09;-1.015187363172769E+00;9.630201297163077E+01;
1.274000000000000E+09;-1.010362868982862E+00;9.589832753648403E+01;
1.275000000000000E+09;-1.005055087761174E+00;9.553726588837252E+01;
1.276000000000000E+09;-1.003577602731146E+00;9.515015197645168E+01;
1.277000000000000E+09;-1.001745481529494E+00;9.476516881663564E+01;
1.278000000000000E+09;-9.986709393696137E-01;9.439092815321790E+01;
1.279000000000000E+09;-9.981697315818334E-01;9.398381406584818E+01;
1.280000000000000E+09;-9.975116729782018E-01;9.364725133832580E+01;
1.281000000000000E+09;-1.001171524993545E+00;9.323532030421239E+01;
1.282000000000000E+09;-1.008378040869932E+00;9.282550065246656E+01;
1.283000000000000E+09;-1.006412640527411E+00;9.239427560025162E+01;
1.284000000000000E+09;-1.009357472741340E+00;9.205627271523363E+01;
1.285000000000000E+09;-1.016309787710980E+00;9.166291127871062E+01;
1.286000000000000E+09;-1.021744038099247E+00;9.125346520796694E+01;
1.287000000000000E+09;-1.024799590713047E+00;9.082965327955671E+01;
1.288000000000000E+09;-1.031216353901834E+00;9.042776592721322E+01;
1.289000000000000E+09;-1.036033336695364E+00;9.003872496311449E+01;
1.290000000000000E+09;-1.048137210819272E+00;8.963241019195391E+01;
1.291000000000000E+09;-1.053318669934324E+00;8.918938526719263E+01;
1.292000000000000E+09;-1.060103405354580E+00;8.874867678776646E+01;
