# Version 1.00
#
freq[Hz];db:Trc4_S11;ang:Trc4_S11;
1.000000000000000E+09;-1.307192236041940E+00;1.579994373646817E+02;
1.001000000000000E+09;-1.331198642563124E+00;1.575475931522105E+02;
1.002000000000000E+09;-1.361326772259905E+00;1.570916894855005E+02;
1.003000000000000E+09;-1.381637221631382E+00;1.565947430457321E+02;
1.004000000000000E+09;-1.412658977380968E+00;1.561281699602710E+02;
1.005000000000000E+09;-1.440714596067856E+00;1.556783205792629E+02;
1.006000000000000E+09;-1.466931523999810E+00;1.551506207844020E+02;
1.007000000000000E+09;-1.501390159535591E+00;1.546705198975319E+02;
1.008000000000000E+09;-1.534429438859671E+00;1.541739306661906E+02;
1.009000000000000E+09;-1.566729391276707E+00;1.536644836216463E+02;
1.010000000000000E+09;-1.598389963197766E+00;1.531380153348207E+02;
1.011000000000000E+09;-1.639360893154573E+00;1.526015396222039E+02;
1.012000000000000E+09;-1.675040617272647E+00;1.520494344581734E+02;
1.013000000000000E+09;-1.711698721741597E+00;1.515219302089684E+02;
1.014000000000000E+09;-1.748552161872205E+00;1.509334603361388E+02;
1.015000000000000E+09;-1.792496932073427E+00;1.503711602186966E+02;
1.016000000000000E+09;-1.833277000772507E+00;1.497964250255461E+02;
1.017000000000000E+09;-1.871461856348100E+00;1.491737880768149E+02;
1.018000000000000E+09;-1.919662189522549E+00;1.485715102766155E+02;
1.019000000000000E+09;-1.965657970916991E+00;1.479608670451675E+02;
1.020000000000000E+09;-2.013612132706779E+00;1.473578854002258E+02;
1.021000000000000E+09;-2.059279504313317E+00;1.467163467067473E+02;
1.022000000000000E+09;-2.107038140268863E+00;1.460689269288802E+02;
1.023000000000000E+09;-2.162585986373957E+00;1.454430394192403E+02;
1.024000000000000E+09;-2.212651015168467E+00;1.448041081211569E+02;
1.025000000000000E+09;-2.268507762218884E+00;1.441465211388110E+02;
1.026000000000000E+09;-2.320507242430248E+00;1.435063597892694E+02;
1.027000000000000E+09;-2.373475057687997E+00;1.428600260876503E+02;
1.028000000000000E+09;-2.424921517721569E+00;1.421851430935472E+02;
1.029000000000000E+09;-2.480269926190072E+00;1.415537530635139E+02;
1.030000000000000E+09;-2.534850663071686E+00;1.409035722464947E+02;
1.031000000000000E+09;-2.593973573419639E+00;1.402448920397154E+02;
1.032000000000000E+09;-2.646241465896433E+00;1.395497519225246E+02;
1.033000000000000E+09;-2.700506738214619E+00;1.389053506386305E+02;
1.034000000000000E+09;-2.752910286622382E+00;1.382621401080122E+02;
1.035000000000000E+09;-2.811294499323798E+00;1.376167608576073E+02;
1.036000000000000E+09;-2.863233412117960E+00;1.369586436709160E+02;
1.037000000000000E+09;-2.917716323435035E+00;1.362804402632297E+02;
1.038000000000000E+09;-2.969697300986852E+00;1.356491003648589E+02;
1.039000000000000E+09;-3.021418664846982E+00;1.350035373930302E+02;
1.040000000000000E+09;-3.073577697283682E+00;1.343450411396938E+02;
1.041000000000000E+09;-3.134782757308662E+00;1.337324454154271E+02;
1.042000000000000E+09;-3.180565260062128E+00;1.331099321498158E+02;
1.043000000000000E+09;-3.239342121535203E+00;1.324792258882748E+02;
1.044000000000000E+09;-3.284983858794451E+00;1.318309625081327E+02;
1.045000000000000E+09;-3.336916998195044E+00;1.312480439880168E+02;
1.046000000000000E+09;-3.384277950742913E+00;1.306625234622255E+02;
1.047000000000000E+09;-3.436541804264983E+00;1.300333975264531E+02;
1.048000000000000E+09;-3.482588366691980E+00;1.294516230484478E+02;
1.049000000000000E+09;-3.532011872611799E+00;1.288723850071627E+02;
1.050000000000000E+09;-3.581969935362355E+00;1.282638995606921E+02;
1.051000000000000E+09;-3.625122941857458E+00;1.276993225502414E+02;
1.052000000000000E+09;-3.672965538215438E+00;1.271475019573617E+02;
1.053000000000000E+09;-3.720984972454549E+00;1.265892133949193E+02;
1.054000000000000E+09;-3.768640247719841E+00;1.259757867780501E+02;
1.055000000000000E+09;-3.807620637345624E+00;1.254165013653715E+02;
1.056000000000000E+09;-3.860005040978743E+00;1.248892118958707E+02;
1.057000000000000E+09;-3.906512409636758E+00;1.243386603887255E+02;
1.058000000000000E+09;-3.956875662830919E+00;1.237636879529910E+02;
1.059000000000000E+09;-4.003956503634873E+00;1.232251581924638E+02;
1.060000000000000E+09;-4.055589910833028E+00;1.226627167055695E+02;
1.061000000000000E+09;-4.106255656528695E+00;1.221277746856643E+02;
1.062000000000000E+09;-4.161956335455158E+00;1.215531686724301E+02;
1.063000000000000E+09;-4.220093579295849E+00;1.210468951460549E+02;
1.064000000000000E+09;-4.273066998448432E+00;1.205198067725153E+02;
1.065000000000000E+09;-4.334428497327253E+00;1.199978043905429E+02;
1.066000000000000E+09;-4.399392407855737E+00;1.194707431673211E+02;
1.067000000000000E+09;-4.461318581232815E+00;1.189660617721665E+02;
1.068000000000000E+09;-4.531653636115190E+00;1.184755980501517E+02;
1.069000000000000E+09;-4.600108748425631E+00;1.179119537858782E+02;
1.070000000000000E+09;-4.672336464558647E+00;1.173656056065302E+02;
1.071000000000000E+09;-4.749310714078169E+00;1.168859114380438E+02;
1.072000000000000E+09;-4.829201502775727E+00;1.163635321003755E+02;
1.073000000000000E+09;-4.914827908179580E+00;1.158102375641654E+02;
1.074000000000000E+09;-5.006106904438070E+00;1.153265050959352E+02;
1.075000000000000E+09;-5.098874447967160E+00;1.147866489324717E+02;
1.076000000000000E+09;-5.197571127848454E+00;1.143017351922447E+02;
1.077000000000000E+09;-5.305069534289103E+00;1.137275396921768E+02;
1.078000000000000E+09;-5.414742774850728E+00;1.132828092032663E+02;
1.079000000000000E+09;-5.532403940311141E+00;1.127465546676867E+02;
1.080000000000000E+09;-5.662353148595836E+00;1.121969669521835E+02;
1.081000000000000E+09;-5.787716035664387E+00;1.116936929117440E+02;
1.082000000000000E+09;-5.927550127916411E+00;1.111750229442662E+02;
1.083000000000000E+09;-6.082080495441361E+00;1.106740541877019E+02;
1.084000000000000E+09;-6.248234437154849E+00;1.101783218278297E+02;
1.085000000000000E+09;-6.412785635632612E+00;1.096913973499032E+02;
1.086000000000000E+09;-6.594724819537021E+00;1.092795961640288E+02;
1.087000000000000E+09;-6.779162201964773E+00;1.088644882577278E+02;
1.088000000000000E+09;-6.977303416025826E+00;1.084381941732216E+02;
1.089000000000000E+09;-7.183557279647452E+00;1.081067524753560E+02;
1.090000000000000E+09;-7.400060471737788E+00;1.077638260279041E+02;
1.091000000000000E+09;-7.629552559273338E+00;1.074361644853236E+02;
1.092000000000000E+09;-7.865106151447000E+00;1.071742495789837E+02;
1.093000000000000E+09;-8.110285793049966E+00;1.069262756301255E+02;
1.094000000000000E+09;-8.378482940080728E+00;1.066802248413671E+02;
1.095000000000000E+09;-8.658589137157717E+00;1.064747901866467E+02;
1.096000000000000E+09;-8.960993049687442E+00;1.063702461662091E+02;
1.097000000000000E+09;-9.270133296950005E+00;1.063965371752346E+02;
1.098000000000000E+09;-9.599674053858399E+00;1.064171705534001E+02;
1.099000000000000E+09;-9.942426833923395E+00;1.065951480340886E+02;
1.100000000000000E+09;-1.030258863606598E+01;1.069006460451999E+02;
1.101000000000000E+09;-1.068380001211739E+01;1.072899324078856E+02;
1.102000000000000E+09;-1.108049188991913E+01;1.078781234939227E+02;
1.103000000000000E+09;-1.148961368823630E+01;1.087148164238239E+02;
1.104000000000000E+09;-1.192940739065611E+01;1.097390663239577E+02;
1.105000000000000E+09;-1.236674233286387E+01;1.110470630773079E+02;
1.106000000000000E+09;-1.281049853828301E+01;1.126789641882209E+02;
1.107000000000000E+09;-1.325384194792546E+01;1.146610239831997E+02;
1.108000000000000E+09;-1.367243096903723E+01;1.170686523219466E+02;
1.109000000000000E+09;-1.408578694942914E+01;1.197065431683830E+02;
1.110000000000000E+09;-1.446551617080272E+01;1.226987626355622E+02;
1.111000000000000E+09;-1.480466498046284E+01;1.261459105719486E+02;
1.112000000000000E+09;-1.507959935273398E+01;1.298497627525120E+02;
1.113000000000000E+09;-1.532543366997103E+01;1.338467772673513E+02;
1.114000000000000E+09;-1.549211821866269E+01;1.381443733630597E+02;
1.115000000000000E+09;-1.555193937156051E+01;1.426896084269527E+02;
1.116000000000000E+09;-1.554064084996734E+01;1.470640682650031E+02;
1.117000000000000E+09;-1.542925965651922E+01;1.514952354411777E+02;
1.118000000000000E+09;-1.523339591879618E+01;1.556096016402741E+02;
1.119000000000000E+09;-1.495187113986752E+01;1.595587845323237E+02;
1.120000000000000E+09;-1.464278417420502E+01;1.629507563337956E+02;
1.121000000000000E+09;-1.427293876350261E+01;1.659846500653283E+02;
1.122000000000000E+09;-1.386340127327804E+01;1.687477990495419E+02;
1.123000000000000E+09;-1.343542824659261E+01;1.710206370365733E+02;
1.124000000000000E+09;-1.299038259653999E+01;1.728902383895567E+02;
1.125000000000000E+09;-1.255036006549729E+01;1.743528700738978E+02;
1.126000000000000E+09;-1.210230084974929E+01;1.755671409657775E+02;
1.127000000000000E+09;-1.167664636947961E+01;1.764042212378290E+02;
1.128000000000000E+09;-1.124741743801801E+01;1.770078882596535E+02;
1.129000000000000E+09;-1.083754597149267E+01;1.773253180816205E+02;
1.130000000000000E+09;-1.044610855723637E+01;1.775139664774510E+02;
1.131000000000000E+09;-1.007553707551093E+01;1.774192383105037E+02;
1.132000000000000E+09;-9.722886983494131E+00;1.772884400989807E+02;
1.133000000000000E+09;-9.383790076196032E+00;1.769861588540975E+02;
1.134000000000000E+09;-9.054711806508223E+00;1.766644370471641E+02;
1.135000000000000E+09;-8.745631664466659E+00;1.762295574677881E+02;
1.136000000000000E+09;-8.447698407899066E+00;1.757031930505296E+02;
1.137000000000000E+09;-8.155035061342440E+00;1.751103407135423E+02;
1.138000000000000E+09;-7.875724275188932E+00;1.744525022005240E+02;
1.139000000000000E+09;-7.621132500786658E+00;1.737082841201095E+02;
1.140000000000000E+09;-7.371474742671746E+00;1.730003229425676E+02;
1.141000000000000E+09;-7.132243234215293E+00;1.722109428679737E+02;
1.142000000000000E+09;-6.904263764239512E+00;1.714146368006308E+02;
1.143000000000000E+09;-6.684738847526331E+00;1.705886729486373E+02;
1.144000000000000E+09;-6.472548295766179E+00;1.697847196389772E+02;
1.145000000000000E+09;-6.265584801422284E+00;1.689624183582682E+02;
1.146000000000000E+09;-6.073072449580593E+00;1.680932631016258E+02;
1.147000000000000E+09;-5.888945528731621E+00;1.672277750940143E+02;
1.148000000000000E+09;-5.714033126207050E+00;1.664203222444223E+02;
1.149000000000000E+09;-5.541447986607679E+00;1.655925687852695E+02;
1.150000000000000E+09;-5.370399772563968E+00;1.647468430376134E+02;
1.151000000000000E+09;-5.207068631471165E+00;1.639548074567653E+02;
1.152000000000000E+09;-5.045927150697930E+00;1.630904222196921E+02;
1.153000000000000E+09;-4.889073377815017E+00;1.623249763508713E+02;
1.154000000000000E+09;-4.738702183112498E+00;1.614358933063280E+02;
1.155000000000000E+09;-4.596753492264044E+00;1.606339242428442E+02;
1.156000000000000E+09;-4.453890811468468E+00;1.598195400692000E+02;
1.157000000000000E+09;-4.324411779742475E+00;1.589774119813488E+02;
1.158000000000000E+09;-4.194377690586853E+00;1.581844340317910E+02;
1.159000000000000E+09;-4.071367665354351E+00;1.574012628408257E+02;
1.160000000000000E+09;-3.956574916656177E+00;1.566076762930870E+02;
1.161000000000000E+09;-3.845081711765995E+00;1.558426516728652E+02;
1.162000000000000E+09;-3.735629526610206E+00;1.551211889313772E+02;
1.163000000000000E+09;-3.630696658193923E+00;1.543723538022751E+02;
1.164000000000000E+09;-3.526852229062167E+00;1.536621741981985E+02;
1.165000000000000E+09;-3.429424056015919E+00;1.529465195525417E+02;
1.166000000000000E+09;-3.333020767224315E+00;1.522695579813316E+02;
1.167000000000000E+09;-3.240564204408644E+00;1.515830102734319E+02;
1.168000000000000E+09;-3.156082848816106E+00;1.509003880482632E+02;
1.169000000000000E+09;-3.070090998047825E+00;1.502372920800818E+02;
1.170000000000000E+09;-2.990202543940281E+00;1.496071210854106E+02;
1.171000000000000E+09;-2.912578077944467E+00;1.489351186295133E+02;
1.172000000000000E+09;-2.840813060690844E+00;1.483066335303376E+02;
1.173000000000000E+09;-2.771557626926966E+00;1.476702922491935E+02;
1.174000000000000E+09;-2.699904217476614E+00;1.470570754412796E+02;
1.175000000000000E+09;-2.637671155213055E+00;1.464388565241543E+02;
1.176000000000000E+09;-2.579275534378004E+00;1.458173914350854E+02;
1.177000000000000E+09;-2.522895075959956E+00;1.452506338091372E+02;
1.178000000000000E+09;-2.469355201331544E+00;1.446514002452083E+02;
1.179000000000000E+09;-2.419041518285268E+00;1.440527448194167E+02;
1.180000000000000E+09;-2.373004216017103E+00;1.435129011669573E+02;
1.181000000000000E+09;-2.328531890901539E+00;1.429666895606924E+02;
1.182000000000000E+09;-2.287341845996854E+00;1.424255627724687E+02;
1.183000000000000E+09;-2.246014572376861E+00;1.418852047158828E+02;
1.184000000000000E+09;-2.208441498704668E+00;1.413352158599741E+02;
1.185000000000000E+09;-2.173937685657384E+00;1.408299936309606E+02;
1.186000000000000E+09;-2.136060372966316E+00;1.402990613227701E+02;
1.187000000000000E+09;-2.105128414793794E+00;1.397507641256053E+02;
1.188000000000000E+09;-2.078863304351140E+00;1.392503140590370E+02;
1.189000000000000E+09;-2.045223344840494E+00;1.386939231465441E+02;
1.190000000000000E+09;-2.023805167472875E+00;1.381860071753755E+02;
1.191000000000000E+09;-1.999742017535610E+00;1.376534423903440E+02;
1.192000000000000E+09;-1.982798175917328E+00;1.371328266492305E+02;
1.193000000000000E+09;-1.962474648678786E+00;1.366281938513150E+02;
1.194000000000000E+09;-1.946389724411663E+00;1.360942117042067E+02;
1.195000000000000E+09;-1.935219769216758E+00;1.355850127577514E+02;
1.196000000000000E+09;-1.917135691615868E+00;1.350827265746896E+02;
1.197000000000000E+09;-1.908319895522666E+00;1.345349275345301E+02;
1.198000000000000E+09;-1.897411970674175E+00;1.340132412935939E+02;
1.199000000000000E+09;-1.888154645981968E+00;1.335248439383026E+02;
1.200000000000000E+09;-1.877705778833132E+00;1.329963450721189E+02;
1.201000000000000E+09;-1.876558439103011E+00;1.324423296608184E+02;
1.202000000000000E+09;-1.868158560858957E+00;1.319093045036900E+02;
1.203000000000000E+09;-1.864839424290015E+00;1.313763516402151E+02;
1.204000000000000E+09;-1.859938542278028E+00;1.308153194649551E+02;
1.205000000000000E+09;-1.857882888751441E+00;1.302748398439959E+02;
1.206000000000000E+09;-1.859606110496261E+00;1.297317796290099E+02;
1.207000000000000E+09;-1.861530137921480E+00;1.292002738965600E+02;
1.208000000000000E+09;-1.862200678676107E+00;1.286525887010055E+02;
1.209000000000000E+09;-1.863405576290533E+00;1.281173476751787E+02;
1.210000000000000E+09;-1.865850009696681E+00;1.275791118656904E+02;
1.211000000000000E+09;-1.865335596084768E+00;1.270203621306018E+02;
1.212000000000000E+09;-1.864584056993379E+00;1.264798549060237E+02;
1.213000000000000E+09;-1.867832560210659E+00;1.258925346572712E+02;
1.214000000000000E+09;-1.869580077613988E+00;1.253597434879562E+02;
1.215000000000000E+09;-1.865539014275988E+00;1.247877481617393E+02;
1.216000000000000E+09;-1.866382104528319E+00;1.241993022465111E+02;
1.217000000000000E+09;-1.867443050610325E+00;1.236274829350881E+02;
1.218000000000000E+09;-1.866542727659616E+00;1.230418326644704E+02;
1.219000000000000E+09;-1.866906335634441E+00;1.224502415116850E+02;
1.220000000000000E+09;-1.865417586464957E+00;1.218477948062891E+02;
1.221000000000000E+09;-1.863842577753020E+00;1.212542074956952E+02;
1.222000000000000E+09;-1.867330981286730E+00;1.206731788093436E+02;
1.223000000000000E+09;-1.863241840870832E+00;1.201006428697646E+02;
1.224000000000000E+09;-1.860783345951649E+00;1.194562442244192E+02;
1.225000000000000E+09;-1.862080121612926E+00;1.189045416868509E+02;
1.226000000000000E+09;-1.858195112609632E+00;1.182825995002713E+02;
1.227000000000000E+09;-1.856613538915180E+00;1.176846741613203E+02;
1.228000000000000E+09;-1.854813965341058E+00;1.171158433385938E+02;
1.229000000000000E+09;-1.850774719107211E+00;1.165263514077655E+02;
1.230000000000000E+09;-1.850438989237557E+00;1.159605006266456E+02;
1.231000000000000E+09;-1.841562698536735E+00;1.153812770317761E+02;
1.232000000000000E+09;-1.832102326712659E+00;1.148200467457481E+02;
1.233000000000000E+09;-1.825584933293453E+00;1.142685721883114E+02;
1.234000000000000E+09;-1.815119523202772E+00;1.136882046755299E+02;
1.235000000000000E+09;-1.805219024021536E+00;1.131495507676155E+02;
1.236000000000000E+09;-1.788569896039896E+00;1.126123411996925E+02;
1.237000000000000E+09;-1.777492460043322E+00;1.120386280788604E+02;
1.238000000000000E+09;-1.763750476733837E+00;1.115096137188848E+02;
1.239000000000000E+09;-1.750863598373163E+00;1.109540902576682E+02;
1.240000000000000E+09;-1.734562718586539E+00;1.104245793656365E+02;
1.241000000000000E+09;-1.717715987650821E+00;1.098892126777612E+02;
1.242000000000000E+09;-1.705281535722692E+00;1.093890169683879E+02;
1.243000000000000E+09;-1.691563200810659E+00;1.088603344571076E+02;
1.244000000000000E+09;-1.666570280426721E+00;1.083834644234421E+02;
1.245000000000000E+09;-1.651441925018825E+00;1.078719621894607E+02;
1.246000000000000E+09;-1.636434182513629E+00;1.073943008676269E+02;
1.247000000000000E+09;-1.613914873233824E+00;1.069050858902858E+02;
1.248000000000000E+09;-1.594997805502034E+00;1.064097918639331E+02;
1.249000000000000E+09;-1.572340846490067E+00;1.059789944175934E+02;
1.250000000000000E+09;-1.553466635490017E+00;1.054977908962980E+02;
1.251000000000000E+09;-1.536437644580724E+00;1.050437949911353E+02;
1.252000000000000E+09;-1.511257292479194E+00;1.046403304988665E+02;
1.253000000000000E+09;-1.492512112571819E+00;1.041963933584333E+02;
1.254000000000000E+09;-1.472541811966066E+00;1.037408583413812E+02;
1.255000000000000E+09;-1.451441613633516E+00;1.032960033214994E+02;
1.256000000000000E+09;-1.430953190516966E+00;1.028781182709341E+02;
1.257000000000000E+09;-1.412765117841317E+00;1.024757137032464E+02;
1.258000000000000E+09;-1.392406531594533E+00;1.020751814240835E+02;
1.259000000000000E+09;-1.372559673969507E+00;1.016358802080990E+02;
1.260000000000000E+09;-1.351458691355870E+00;1.012352545694081E+02;
1.261000000000000E+09;-1.337142625936506E+00;1.008628849562582E+02;
1.262000000000000E+09;-1.320792107270521E+00;1.004619349816951E+02;
1.263000000000000E+09;-1.301961129751962E+00;1.000805761203659E+02;
1.264000000000000E+09;-1.287825643902511E+00;9.966930932671423E+01;
1.265000000000000E+09;-1.271799758725788E+00;9.930470897338057E+01;
1.266000000000000E+09;-1.258180910284421E+00;9.895494650131063E+01;
1.267000000000000E+09;-1.242278855598103E+00;9.854673835739455E+01;
1.268000000000000E+09;-1.229356145123265E+00;9.818747913250728E+01;
1.269000000000000E+09;-1.216562907956968E+00;9.780465379629017E+01;
1.270000000000000E+09;-1.203650559422037E+00;9.744887675322796E+01;
1.271000000000000E+09;-1.192474925567945E+00;9.709560769961971E+01;
1.272000000000000E+09;-1.183513107618342E+00;9.669675293048861E+01;
1.273000000000000E+09;-1.175289473888880E+00;9.632995431989551E+01;
1.274000000000000E+09;-1.165563585089886E+00;9.594666480169151E+01;
1.275000000000000E+09;-1.161885122863827E+00;9.561445612061254E+01;
1.276000000000000E+09;-1.154013013153224E+00;9.522584314926257E+01;
1.277000000000000E+09;-1.145642372610057E+00;9.485835017269591E+01;
1.278000000000000E+09;-1.143375324509007E+00;9.447642549675575E+01;
1.279000000000000E+09;-1.139308958225922E+00;9.410181667997074E+01;
1.280000000000000E+09;-1.133884643234144E+00;9.373839072167934E+01;
1.281000000000000E+09;-1.128870894991447E+00;9.335357905555449E+01;
1.282000000000000E+09;-1.130167633380255E+00;9.295318748748264E+01;
1.283000000000000E+09;-1.129238690969193E+00;9.254794147017947E+01;
1.284000000000000E+09;-1.125803894295797E+00;9.219244732133535E+01;
1.285000000000000E+09;-1.130462214539619E+00;9.179522347473171E+01;
1.286000000000000E+09;-1.133850744521968E+00;9.139492881194647E+01;
1.287000000000000E+09;-1.132830477200410E+00;9.094850814696997E+01;
1.288000000000000E+09;-1.135657865012524E+00;9.055203630235872E+01;
1.289000000000000E+09;-1.141253918161877E+00;9.014177524021260E+01;
1.290000000000000E+09;-1.144604974337013E+00;8.971305096611960E+01;
1.291000000000000E+09;-1.146704442315538E+00;8.929507530406080E+01;
1.292000000000000E+09;-1.155493033834790E+00;8.885373860681480E+01;
