# Version 1.00
#
freq[Hz];db:Trc4_S11;ang:Trc4_S11;
1.000000000000000E+09;-1.331333989454218E+00;1.576626756827400E+02;
1.001000000000000E+09;-1.356141405378648E+00;1.572172628015143E+02;
1.002000000000000E+09;-1.380419596941816E+00;1.567630998445743E+02;
1.003000000000000E+09;-1.403646355991695E+00;1.563005630281142E+02;
1.004000000000000E+09;-1.431870175473575E+00;1.557839872636050E+02;
1.005000000000000E+09;-1.461885572975213E+00;1.553461333617621E+02;
1.006000000000000E+09;-1.491446026038980E+00;1.548543728731685E+02;
1.007000000000000E+09;-1.521011290261332E+00;1.543324974182099E+02;
1.008000000000000E+09;-1.555734924408778E+00;1.538543755993043E+02;
1.009000000000000E+09;-1.590651479868040E+00;1.533303286325695E+02;
1.010000000000000E+09;-1.621616036165302E+00;1.527929140985534E+02;
1.011000000000000E+09;-1.660551728705248E+00;1.522512210283135E+02;
1.012000000000000E+09;-1.696020120285031E+00;1.517204360429682E+02;
1.013000000000000E+09;-1.733716436296317E+00;1.511762940786227E+02;
1.014000000000000E+09;-1.771940687426963E+00;1.505906361819409E+02;
1.015000000000000E+09;-1.816746590388367E+00;1.500298310623974E+02;
1.016000000000000E+09;-1.857169598684687E+00;1.494505734724239E+02;
1.017000000000000E+09;-1.900096480905558E+00;1.488258656080921E+02;
1.018000000000000E+09;-1.947505448369081E+00;1.482206466546569E+02;
1.019000000000000E+09;-1.995307189701256E+00;1.476085555063223E+02;
1.020000000000000E+09;-2.041031458344719E+00;1.469989688704242E+02;
1.021000000000000E+09;-2.088711109355032E+00;1.463534033766243E+02;
1.022000000000000E+09;-2.140034956270923E+00;1.457206042277364E+02;
1.023000000000000E+09;-2.193170448800167E+00;1.450808228087994E+02;
1.024000000000000E+09;-2.243800316906022E+00;1.444497435132862E+02;
1.025000000000000E+09;-2.301341330660277E+00;1.437985121648541E+02;
1.026000000000000E+09;-2.353168627937750E+00;1.431391829440291E+02;
1.027000000000000E+09;-2.402543571844600E+00;1.425043441014415E+02;
1.028000000000000E+09;-2.457100401407697E+00;1.418078245327100E+02;
1.029000000000000E+09;-2.514975041844686E+00;1.411831077905304E+02;
1.030000000000000E+09;-2.571649867640539E+00;1.405186982794467E+02;
1.031000000000000E+09;-2.629138010060286E+00;1.398640152727144E+02;
1.032000000000000E+09;-2.688737354858576E+00;1.391860268192912E+02;
1.033000000000000E+09;-2.741474892533637E+00;1.385112162044122E+02;
1.034000000000000E+09;-2.793523279254653E+00;1.378580468814825E+02;
1.035000000000000E+09;-2.849506597568314E+00;1.372271704119096E+02;
1.036000000000000E+09;-2.905688265153800E+00;1.365434808997163E+02;
1.037000000000000E+09;-2.963920052428166E+00;1.358893229754954E+02;
1.038000000000000E+09;-3.014824295845266E+00;1.352711440882856E+02;
1.039000000000000E+09;-3.070464264734529E+00;1.346179105917481E+02;
1.040000000000000E+09;-3.119548561113549E+00;1.339759729084000E+02;
1.041000000000000E+09;-3.178023779174473E+00;1.333575429572593E+02;
1.042000000000000E+09;-3.230386311702771E+00;1.327007064387677E+02;
1.043000000000000E+09;-3.287912517027771E+00;1.320687319919626E+02;
1.044000000000000E+09;-3.332039536308447E+00;1.314217249569114E+02;
1.045000000000000E+09;-3.385340174490003E+00;1.308404401787338E+02;
1.046000000000000E+09;-3.436251991357834E+00;1.302207585609402E+02;
1.047000000000000E+09;-3.486261072483041E+00;1.296097697686379E+02;
1.048000000000000E+09;-3.536409512490876E+00;1.289862937491611E+02;
1.049000000000000E+09;-3.583771278294557E+00;1.283985909385462E+02;
1.050000000000000E+09;-3.632900809617148E+00;1.278123822459875E+02;
1.051000000000000E+09;-3.682293663829790E+00;1.272084112667903E+02;
1.052000000000000E+09;-3.734665615731424E+00;1.266597555847995E+02;
1.053000000000000E+09;-3.778555093361525E+00;1.260809986852406E+02;
1.054000000000000E+09;-3.832403510731917E+00;1.254880366764884E+02;
1.055000000000000E+09;-3.873489560944432E+00;1.249075126549656E+02;
1.056000000000000E+09;-3.925891316428169E+00;1.243730130153138E+02;
1.057000000000000E+09;-3.975933281340442E+00;1.238032099152712E+02;
1.058000000000000E+09;-4.028135710623434E+00;1.232316893208797E+02;
1.059000000000000E+09;-4.080939495054240E+00;1.226888483798717E+02;
1.060000000000000E+09;-4.134299895282746E+00;1.221351727273270E+02;
1.061000000000000E+09;-4.186494446680264E+00;1.216018629078107E+02;
1.062000000000000E+09;-4.241674518835658E+00;1.210199002540802E+02;
1.063000000000000E+09;-4.300959427734819E+00;1.204960547576512E+02;
1.064000000000000E+09;-4.355921091450291E+00;1.199869623105409E+02;
1.065000000000000E+09;-4.420551726322937E+00;1.194403016256009E+02;
1.066000000000000E+09;-4.484242149839590E+00;1.188998119773342E+02;
1.067000000000000E+09;-4.551790376574988E+00;1.183617953394579E+02;
1.068000000000000E+09;-4.624431587267478E+00;1.178520142195940E+02;
1.069000000000000E+09;-4.699078258931872E+00;1.173097497452606E+02;
1.070000000000000E+09;-4.777075266740859E+00;1.167798787029266E+02;
1.071000000000000E+09;-4.855998599884477E+00;1.162861682657226E+02;
1.072000000000000E+09;-4.939689502953843E+00;1.157670224459671E+02;
1.073000000000000E+09;-5.029638457346629E+00;1.152521633770143E+02;
1.074000000000000E+09;-5.130277966331013E+00;1.147522397878708E+02;
1.075000000000000E+09;-5.223606178600175E+00;1.142154733711359E+02;
1.076000000000000E+09;-5.324953027073026E+00;1.137164522202319E+02;
1.077000000000000E+09;-5.433511792201690E+00;1.131529109436890E+02;
1.078000000000000E+09;-5.552655036272219E+00;1.126663304267747E+02;
1.079000000000000E+09;-5.674213291660201E+00;1.121735078590683E+02;
1.080000000000000E+09;-5.811526892601053E+00;1.116324160154890E+02;
1.081000000000000E+09;-5.944981285038136E+00;1.111145142482417E+02;
1.082000000000000E+09;-6.092698275397308E+00;1.106553479869234E+02;
1.083000000000000E+09;-6.251136893852326E+00;1.101717695221256E+02;
1.084000000000000E+09;-6.420720427115115E+00;1.096775883936937E+02;
1.085000000000000E+09;-6.590545597390039E+00;1.092153150847066E+02;
1.086000000000000E+09;-6.776739097597027E+00;1.087743092099204E+02;
1.087000000000000E+09;-6.972014992052732E+00;1.083750882836063E+02;
1.088000000000000E+09;-7.184151619634559E+00;1.079657463194292E+02;
1.089000000000000E+09;-7.397392374812974E+00;1.076380614055549E+02;
1.090000000000000E+09;-7.629833384082099E+00;1.073450803813788E+02;
1.091000000000000E+09;-7.874682778244050E+00;1.070566161172237E+02;
1.092000000000000E+09;-8.121294012885690E+00;1.068640851371203E+02;
1.093000000000000E+09;-8.386914400471863E+00;1.066677472678073E+02;
1.094000000000000E+09;-8.664583078043563E+00;1.065380425641583E+02;
1.095000000000000E+09;-8.956618400350603E+00;1.064306202500126E+02;
1.096000000000000E+09;-9.260559603902625E+00;1.064957182504000E+02;
1.097000000000000E+09;-9.585369297406531E+00;1.066057445958124E+02;
1.098000000000000E+09;-9.917947106676454E+00;1.067956225335995E+02;
1.099000000000000E+09;-1.027305317677930E+01;1.071419561542188E+02;
1.100000000000000E+09;-1.063333783669278E+01;1.075659575687567E+02;
1.101000000000000E+09;-1.101112628233727E+01;1.081502135784050E+02;
1.102000000000000E+09;-1.140984741577883E+01;1.089033307904531E+02;
1.103000000000000E+09;-1.181467626753453E+01;1.098533142694555E+02;
1.104000000000000E+09;-1.224749880155361E+01;1.111016261080951E+02;
1.105000000000000E+09;-1.267713045927409E+01;1.125865462312755E+02;
1.106000000000000E+09;-1.312061780187251E+01;1.143424653420462E+02;
1.107000000000000E+09;-1.354773684296274E+01;1.165910639406503E+02;
1.108000000000000E+09;-1.395287355902999E+01;1.191859372322684E+02;
1.109000000000000E+09;-1.435287518709536E+01;1.220886061388913E+02;
1.110000000000000E+09;-1.471345786581077E+01;1.253595723255537E+02;
1.111000000000000E+09;-1.502278657963330E+01;1.291312578984075E+02;
1.112000000000000E+09;-1.525966757968953E+01;1.331591674407274E+02;
1.113000000000000E+09;-1.543893788141734E+01;1.374278715788284E+02;
1.114000000000000E+09;-1.552208764556087E+01;1.419118216249104E+02;
1.115000000000000E+09;-1.549516203705550E+01;1.464951857453084E+02;
1.116000000000000E+09;-1.539006733320486E+01;1.509048520982694E+02;
1.117000000000000E+09;-1.519743999646822E+01;1.550810797026570E+02;
1.118000000000000E+09;-1.492042035291315E+01;1.588933089406671E+02;
1.119000000000000E+09;-1.458618094553652E+01;1.624549816510854E+02;
1.120000000000000E+09;-1.421602789555308E+01;1.654129049690020E+02;
1.121000000000000E+09;-1.380619284156233E+01;1.680124773278224E+02;
1.122000000000000E+09;-1.338506913361072E+01;1.702006274371670E+02;
1.123000000000000E+09;-1.294891434013012E+01;1.719520570133657E+02;
1.124000000000000E+09;-1.251235958332705E+01;1.733574278823658E+02;
1.125000000000000E+09;-1.209498611034130E+01;1.744506985162064E+02;
1.126000000000000E+09;-1.167187263338331E+01;1.752916891051562E+02;
1.127000000000000E+09;-1.126822060274634E+01;1.759087555645413E+02;
1.128000000000000E+09;-1.087782150822990E+01;1.762933129572903E+02;
1.129000000000000E+09;-1.050109173875563E+01;1.764725229659907E+02;
1.130000000000000E+09;-1.013529442631449E+01;1.764955911743506E+02;
1.131000000000000E+09;-9.790640992373635E+00;1.763550187107924E+02;
1.132000000000000E+09;-9.458406791725240E+00;1.761157024727552E+02;
1.133000000000000E+09;-9.140060149799822E+00;1.757329491982283E+02;
1.134000000000000E+09;-8.833944239882504E+00;1.753339952566547E+02;
1.135000000000000E+09;-8.543466961996080E+00;1.748539103370755E+02;
1.136000000000000E+09;-8.267822561508209E+00;1.742853723754467E+02;
1.137000000000000E+09;-7.999894967078029E+00;1.736672464431367E+02;
1.138000000000000E+09;-7.741117967303230E+00;1.730368527431522E+02;
1.139000000000000E+09;-7.498670547167126E+00;1.723348397824146E+02;
1.140000000000000E+09;-7.266016944346092E+00;1.716559181753333E+02;
1.141000000000000E+09;-7.038720038229368E+00;1.709173897913084E+02;
1.142000000000000E+09;-6.812260840085661E+00;1.701369669271282E+02;
1.143000000000000E+09;-6.598346807445169E+00;1.693844184327846E+02;
1.144000000000000E+09;-6.387164132665260E+00;1.686104317858843E+02;
1.145000000000000E+09;-6.187095460840427E+00;1.677629543650994E+02;
1.146000000000000E+09;-5.997652676665420E+00;1.669527995321244E+02;
1.147000000000000E+09;-5.814525168607588E+00;1.660755733631814E+02;
1.148000000000000E+09;-5.630060425029292E+00;1.652503294458590E+02;
1.149000000000000E+09;-5.459988786088992E+00;1.644233381222235E+02;
1.150000000000000E+09;-5.293785798278901E+00;1.635730875593577E+02;
1.151000000000000E+09;-5.132580758308628E+00;1.627295899650468E+02;
1.152000000000000E+09;-4.983154650073591E+00;1.618929734723856E+02;
1.153000000000000E+09;-4.829947959666430E+00;1.610759045951519E+02;
1.154000000000000E+09;-4.684147955226570E+00;1.602107016475652E+02;
1.155000000000000E+09;-4.543099161159757E+00;1.593998016721439E+02;
1.156000000000000E+09;-4.410797014351093E+00;1.586221813559665E+02;
1.157000000000000E+09;-4.279946486756085E+00;1.577737480643389E+02;
1.158000000000000E+09;-4.156373480698300E+00;1.569951385136436E+02;
1.159000000000000E+09;-4.033494861074111E+00;1.562149467442999E+02;
1.160000000000000E+09;-3.920979915130538E+00;1.554628629179528E+02;
1.161000000000000E+09;-3.812561580995976E+00;1.546771733331496E+02;
1.162000000000000E+09;-3.702810598106691E+00;1.539393363548086E+02;
1.163000000000000E+09;-3.602813598928742E+00;1.532324243054729E+02;
1.164000000000000E+09;-3.498331362717401E+00;1.525209845163191E+02;
1.165000000000000E+09;-3.404425310642339E+00;1.517862177302740E+02;
1.166000000000000E+09;-3.311606436606253E+00;1.511170100132119E+02;
1.167000000000000E+09;-3.225348409646452E+00;1.504274466425450E+02;
1.168000000000000E+09;-3.138519847016057E+00;1.497575364279428E+02;
1.169000000000000E+09;-3.057241377123905E+00;1.491025350730582E+02;
1.170000000000000E+09;-2.981797351013300E+00;1.484704882519095E+02;
1.171000000000000E+09;-2.906634610192482E+00;1.478294081368784E+02;
1.172000000000000E+09;-2.834459674965923E+00;1.472147239399054E+02;
1.173000000000000E+09;-2.765958440842278E+00;1.465963249085888E+02;
1.174000000000000E+09;-2.699039346224189E+00;1.460024180332977E+02;
1.175000000000000E+09;-2.637852871452851E+00;1.454053633719277E+02;
1.176000000000000E+09;-2.578751564270802E+00;1.447938409220631E+02;
1.177000000000000E+09;-2.520559947567222E+00;1.442350741663128E+02;
1.178000000000000E+09;-2.467933613562356E+00;1.436638414883514E+02;
1.179000000000000E+09;-2.418100462686933E+00;1.430803558041578E+02;
1.180000000000000E+09;-2.374888928556541E+00;1.425356295417757E+02;
1.181000000000000E+09;-2.326991869094272E+00;1.420025696430912E+02;
1.182000000000000E+09;-2.287136757768027E+00;1.414491039731597E+02;
1.183000000000000E+09;-2.246097664775999E+00;1.409357078369062E+02;
1.184000000000000E+09;-2.210570684598626E+00;1.404001334026713E+02;
1.185000000000000E+09;-2.177123196598356E+00;1.398831145140739E+02;
1.186000000000000E+09;-2.144637245905164E+00;1.393619563782370E+02;
1.187000000000000E+09;-2.109655249829973E+00;1.388183993892742E+02;
1.188000000000000E+09;-2.082733917625492E+00;1.383184193826988E+02;
1.189000000000000E+09;-2.055812693022930E+00;1.378115537755623E+02;
1.190000000000000E+09;-2.030457706306166E+00;1.372763302495053E+02;
1.191000000000000E+09;-2.009581519202967E+00;1.367423933513608E+02;
1.192000000000000E+09;-1.988404926516691E+00;1.362325663623832E+02;
1.193000000000000E+09;-1.968408801819534E+00;1.357418901419145E+02;
1.194000000000000E+09;-1.956822832735398E+00;1.351976117183396E+02;
1.195000000000000E+09;-1.944424527228996E+00;1.347050096191223E+02;
1.196000000000000E+09;-1.926509937528484E+00;1.341822218792229E+02;
1.197000000000000E+09;-1.917951859324667E+00;1.336623682103433E+02;
1.198000000000000E+09;-1.909316829610839E+00;1.331398273601462E+02;
1.199000000000000E+09;-1.899570478028973E+00;1.326204087249843E+02;
1.200000000000000E+09;-1.891506495706161E+00;1.321170001568479E+02;
1.201000000000000E+09;-1.892231101087551E+00;1.315600970816893E+02;
1.202000000000000E+09;-1.884502526426419E+00;1.310216493109002E+02;
1.203000000000000E+09;-1.882772579246131E+00;1.305134936574726E+02;
1.204000000000000E+09;-1.879533668050700E+00;1.299753095579222E+02;
1.205000000000000E+09;-1.879497765693079E+00;1.294406984607882E+02;
1.206000000000000E+09;-1.879968591097105E+00;1.289216141493694E+02;
1.207000000000000E+09;-1.880739035124782E+00;1.283777601426345E+02;
1.208000000000000E+09;-1.878180618442585E+00;1.278145135061629E+02;
1.209000000000000E+09;-1.881107612877353E+00;1.272601129946218E+02;
1.210000000000000E+09;-1.882618696599562E+00;1.267324974233517E+02;
1.211000000000000E+09;-1.887489639397305E+00;1.261619836447737E+02;
1.212000000000000E+09;-1.889075192223145E+00;1.256288837866212E+02;
1.213000000000000E+09;-1.893473405795250E+00;1.250171711019176E+02;
1.214000000000000E+09;-1.895515213948657E+00;1.244893559334106E+02;
1.215000000000000E+09;-1.896549642296299E+00;1.239143839542132E+02;
1.216000000000000E+09;-1.902514521299177E+00;1.233327915691485E+02;
1.217000000000000E+09;-1.900959511130184E+00;1.227743625670303E+02;
1.218000000000000E+09;-1.903965157968631E+00;1.221984895574351E+02;
1.219000000000000E+09;-1.909837147523759E+00;1.216248054025035E+02;
1.220000000000000E+09;-1.907689978419224E+00;1.210093704644867E+02;
1.221000000000000E+09;-1.909312279751090E+00;1.204476936245850E+02;
1.222000000000000E+09;-1.915229531108415E+00;1.198773218742773E+02;
1.223000000000000E+09;-1.913489029071604E+00;1.192911003420604E+02;
1.224000000000000E+09;-1.909365824256944E+00;1.186878174884731E+02;
1.225000000000000E+09;-1.910711211574331E+00;1.181426939478283E+02;
1.226000000000000E+09;-1.909494242917041E+00;1.175380267212136E+02;
1.227000000000000E+09;-1.907932513302667E+00;1.169345348757637E+02;
1.228000000000000E+09;-1.906478251409170E+00;1.163600136269119E+02;
1.229000000000000E+09;-1.903266003533335E+00;1.157980120975647E+02;
1.230000000000000E+09;-1.902235255572796E+00;1.152108805464341E+02;
1.231000000000000E+09;-1.893472375578342E+00;1.146278490822119E+02;
1.232000000000000E+09;-1.885327595455251E+00;1.140742216728462E+02;
1.233000000000000E+09;-1.884818760596790E+00;1.135505714415256E+02;
1.234000000000000E+09;-1.874848422542468E+00;1.129994702991955E+02;
1.235000000000000E+09;-1.863843190290003E+00;1.124143710969248E+02;
1.236000000000000E+09;-1.852761328100687E+00;1.118748433514039E+02;
1.237000000000000E+09;-1.838592101530711E+00;1.113334640286821E+02;
1.238000000000000E+09;-1.829309481956373E+00;1.108137338395787E+02;
1.239000000000000E+09;-1.813572711835708E+00;1.102535942701654E+02;
1.240000000000000E+09;-1.800927851226547E+00;1.097373481313283E+02;
1.241000000000000E+09;-1.786947099656986E+00;1.092347266075862E+02;
1.242000000000000E+09;-1.772875006075332E+00;1.087394399999275E+02;
1.243000000000000E+09;-1.758423975540703E+00;1.082025346359716E+02;
1.244000000000000E+09;-1.737939718202279E+00;1.077579386348509E+02;
1.245000000000000E+09;-1.721660782552703E+00;1.072728472806880E+02;
1.246000000000000E+09;-1.704823002159221E+00;1.067750787868874E+02;
1.247000000000000E+09;-1.685738282099024E+00;1.062968723892569E+02;
1.248000000000000E+09;-1.667137652603399E+00;1.058349557249954E+02;
1.249000000000000E+09;-1.642780474042713E+00;1.053934278659393E+02;
1.250000000000000E+09;-1.626122642721307E+00;1.049125188102484E+02;
1.251000000000000E+09;-1.609710159156124E+00;1.044684323487581E+02;
1.252000000000000E+09;-1.587209950158404E+00;1.040616988440769E+02;
1.253000000000000E+09;-1.563968720181641E+00;1.036453529086086E+02;
1.254000000000000E+09;-1.546807355466393E+00;1.032017993354756E+02;
1.255000000000000E+09;-1.526264353137500E+00;1.027835947074165E+02;
1.256000000000000E+09;-1.505422436816948E+00;1.023714168915413E+02;
1.257000000000000E+09;-1.486367764604870E+00;1.019906213024454E+02;
1.258000000000000E+09;-1.464152193278903E+00;1.015722261098406E+02;
1.259000000000000E+09;-1.445450685102891E+00;1.011642988926743E+02;
1.260000000000000E+09;-1.424930642127499E+00;1.007547058309478E+02;
1.261000000000000E+09;-1.410064170750564E+00;1.003855127438870E+02;
1.262000000000000E+09;-1.392919176416310E+00;9.999616851580274E+01;
1.263000000000000E+09;-1.374364463860709E+00;9.962234884865873E+01;
1.264000000000000E+09;-1.357874060242301E+00;9.920322946220087E+01;
1.265000000000000E+09;-1.341357304573343E+00;9.884998007554938E+01;
1.266000000000000E+09;-1.326328460782103E+00;9.849239140684158E+01;
1.267000000000000E+09;-1.313708031301162E+00;9.810313263137007E+01;
1.268000000000000E+09;-1.296701718100098E+00;9.772589072463082E+01;
1.269000000000000E+09;-1.287964823981026E+00;9.734223832474285E+01;
1.270000000000000E+09;-1.273944920111614E+00;9.699258774914684E+01;
1.271000000000000E+09;-1.263598360463765E+00;9.663276468657500E+01;
1.272000000000000E+09;-1.255569789982282E+00;9.623087630050127E+01;
1.273000000000000E+09;-1.245342270465736E+00;9.588704161778556E+01;
1.274000000000000E+09;-1.236544600478521E+00;9.550586684146248E+01;
1.275000000000000E+09;-1.227924290643199E+00;9.513166581147736E+01;
1.276000000000000E+09;-1.220277869765928E+00;9.476335206433339E+01;
1.277000000000000E+09;-1.214990114952858E+00;9.439398942702965E+01;
1.278000000000000E+09;-1.216423947916238E+00;9.401442734169019E+01;
1.279000000000000E+09;-1.204014631324340E+00;9.363923516112642E+01;
1.280000000000000E+09;-1.204476652810142E+00;9.327974601213738E+01;
1.281000000000000E+09;-1.201221917843365E+00;9.289431005166179E+01;
1.282000000000000E+09;-1.201230571660888E+00;9.250070083690510E+01;
1.283000000000000E+09;-1.201309355227544E+00;9.206072729306418E+01;
1.284000000000000E+09;-1.193778465081906E+00;9.170534853857755E+01;
1.285000000000000E+09;-1.206612620117694E+00;9.135110264839166E+01;
1.286000000000000E+09;-1.206108827063573E+00;9.092766074407534E+01;
1.287000000000000E+09;-1.208259917586067E+00;9.047839556251640E+01;
1.288000000000000E+09;-1.212780571149929E+00;9.008121758980107E+01;
1.289000000000000E+09;-1.213148019041786E+00;8.968875873440493E+01;
1.290000000000000E+09;-1.223002224352778E+00;8.925663217488858E+01;
1.291000000000000E+09;-1.224881792489815E+00;8.881759010326918E+01;
1.292000000000000E+09;-1.229432325487630E+00;8.841204372641579E+01;
