# Version 1.00
#
freq[Hz];db:Trc4_S11;ang:Trc4_S11;
1.000000000000000E+09;-1.367562186273086E+00;1.576173878097813E+02;
1.001000000000000E+09;-1.391653179996985E+00;1.571673107993219E+02;
1.002000000000000E+09;-1.419152580306721E+00;1.567286714514163E+02;
1.003000000000000E+09;-1.442230936774360E+00;1.562634876465307E+02;
1.004000000000000E+09;-1.468987826518718E+00;1.557968892792837E+02;
1.005000000000000E+09;-1.495754787224754E+00;1.553514592493831E+02;
1.006000000000000E+09;-1.524066710349009E+00;1.548502622309466E+02;
1.007000000000000E+09;-1.557284185930199E+00;1.543636318554501E+02;
1.008000000000000E+09;-1.588239687875664E+00;1.539072928697970E+02;
1.009000000000000E+09;-1.620372910824992E+00;1.533831550500447E+02;
1.010000000000000E+09;-1.654597264425548E+00;1.528495606139567E+02;
1.011000000000000E+09;-1.691604256293580E+00;1.523021314619503E+02;
1.012000000000000E+09;-1.727990571226259E+00;1.517630737856473E+02;
1.013000000000000E+09;-1.763359198931796E+00;1.512087130802020E+02;
1.014000000000000E+09;-1.804794542920966E+00;1.506303874704667E+02;
1.015000000000000E+09;-1.847168571662148E+00;1.500495075756893E+02;
1.016000000000000E+09;-1.889749863445056E+00;1.494470712403209E+02;
1.017000000000000E+09;-1.932051322312151E+00;1.488380299834221E+02;
1.018000000000000E+09;-1.978500658584449E+00;1.482222543249688E+02;
1.019000000000000E+09;-2.027972243473754E+00;1.475818877022401E+02;
1.020000000000000E+09;-2.075583507512451E+00;1.469634048198729E+02;
1.021000000000000E+09;-2.126503016962310E+00;1.462992676098567E+02;
1.022000000000000E+09;-2.177903139460635E+00;1.456449646391953E+02;
1.023000000000000E+09;-2.231723639522313E+00;1.449988519054112E+02;
1.024000000000000E+09;-2.286710736299030E+00;1.443278346880117E+02;
1.025000000000000E+09;-2.345275441691991E+00;1.436432003808099E+02;
1.026000000000000E+09;-2.403826485968978E+00;1.429683297096932E+02;
1.027000000000000E+09;-2.455609979075019E+00;1.423160313549490E+02;
1.028000000000000E+09;-2.516403725008666E+00;1.416216376425228E+02;
1.029000000000000E+09;-2.575339695072290E+00;1.409434566652232E+02;
1.030000000000000E+09;-2.635292002705638E+00;1.402421199638578E+02;
1.031000000000000E+09;-2.696963020250451E+00;1.395686008856931E+02;
1.032000000000000E+09;-2.756107031709197E+00;1.388463328614868E+02;
1.033000000000000E+09;-2.815090571152974E+00;1.381661684559991E+02;
1.034000000000000E+09;-2.875582106187680E+00;1.375105439376345E+02;
1.035000000000000E+09;-2.938663403503396E+00;1.368584070589464E+02;
1.036000000000000E+09;-2.995649957756084E+00;1.361252587835556E+02;
1.037000000000000E+09;-3.052576996349163E+00;1.354469364212592E+02;
1.038000000000000E+09;-3.108815380676965E+00;1.348010131486309E+02;
1.039000000000000E+09;-3.170656470790925E+00;1.341367212395637E+02;
1.040000000000000E+09;-3.225541439133157E+00;1.334660697588822E+02;
1.041000000000000E+09;-3.281578796617537E+00;1.328127037576724E+02;
1.042000000000000E+09;-3.343197404844549E+00;1.321602723070651E+02;
1.043000000000000E+09;-3.398861107853752E+00;1.314651742510230E+02;
1.044000000000000E+09;-3.448588122856414E+00;1.308035262592315E+02;
1.045000000000000E+09;-3.504962922211845E+00;1.301828884453585E+02;
1.046000000000000E+09;-3.558687705698205E+00;1.295587465900697E+02;
1.047000000000000E+09;-3.613055236853935E+00;1.289023808158754E+02;
1.048000000000000E+09;-3.669114485620800E+00;1.282734472975117E+02;
1.049000000000000E+09;-3.718244973394546E+00;1.276393564592574E+02;
1.050000000000000E+09;-3.774914233654419E+00;1.270158923584680E+02;
1.051000000000000E+09;-3.827103298347912E+00;1.264257170230769E+02;
1.052000000000000E+09;-3.877794092958299E+00;1.258327240182297E+02;
1.053000000000000E+09;-3.929597087410599E+00;1.252333537147920E+02;
1.054000000000000E+09;-3.987215238667145E+00;1.246056223525794E+02;
1.055000000000000E+09;-4.029970229342029E+00;1.240244433583968E+02;
1.056000000000000E+09;-4.085350000465314E+00;1.234745532485432E+02;
1.057000000000000E+09;-4.138484410608905E+00;1.229142094024836E+02;
1.058000000000000E+09;-4.190215531911997E+00;1.223271359815441E+02;
1.059000000000000E+09;-4.244691482815925E+00;1.217689558479060E+02;
1.060000000000000E+09;-4.295553150229471E+00;1.211857620765534E+02;
1.061000000000000E+09;-4.351542959741766E+00;1.206424920943504E+02;
1.062000000000000E+09;-4.408658234315580E+00;1.200439627145572E+02;
1.063000000000000E+09;-4.466668214132598E+00;1.195298872619417E+02;
1.064000000000000E+09;-4.523427974876065E+00;1.189836876648801E+02;
1.065000000000000E+09;-4.587269523272713E+00;1.184137523358706E+02;
1.066000000000000E+09;-4.655305997728876E+00;1.178463006188850E+02;
1.067000000000000E+09;-4.721204820627499E+00;1.173182559163220E+02;
1.068000000000000E+09;-4.794863318270163E+00;1.167953039175650E+02;
1.069000000000000E+09;-4.864417103877423E+00;1.162421949980642E+02;
1.070000000000000E+09;-4.940599457745549E+00;1.157021525526195E+02;
1.071000000000000E+09;-5.019280898725564E+00;1.151831821664613E+02;
1.072000000000000E+09;-5.103450434015159E+00;1.146431604538311E+02;
1.073000000000000E+09;-5.186513675882173E+00;1.140866298559309E+02;
1.074000000000000E+09;-5.279311255617008E+00;1.135739521934268E+02;
1.075000000000000E+09;-5.376406020268859E+00;1.130271729338681E+02;
1.076000000000000E+09;-5.476239528323790E+00;1.124760971571483E+02;
1.077000000000000E+09;-5.583622556553026E+00;1.119129178743185E+02;
1.078000000000000E+09;-5.694633817617264E+00;1.114269513795507E+02;
1.079000000000000E+09;-5.814365939216354E+00;1.108382835099051E+02;
1.080000000000000E+09;-5.942083922860077E+00;1.103250803713502E+02;
1.081000000000000E+09;-6.076818524159153E+00;1.097221679923227E+02;
1.082000000000000E+09;-6.219822006473538E+00;1.092346390919748E+02;
1.083000000000000E+09;-6.369857704515420E+00;1.086808464668141E+02;
1.084000000000000E+09;-6.532652169701953E+00;1.081276857770346E+02;
1.085000000000000E+09;-6.701511824770996E+00;1.075998593364689E+02;
1.086000000000000E+09;-6.883987726173247E+00;1.071432931923655E+02;
1.087000000000000E+09;-7.080172142405035E+00;1.066659974912731E+02;
1.088000000000000E+09;-7.280934155337980E+00;1.061687657469269E+02;
1.089000000000000E+09;-7.494148778358659E+00;1.057833228179740E+02;
1.090000000000000E+09;-7.715228595612706E+00;1.053709098967047E+02;
1.091000000000000E+09;-7.957783927574934E+00;1.050294184976220E+02;
1.092000000000000E+09;-8.202418770399927E+00;1.046962783678164E+02;
1.093000000000000E+09;-8.459745623261878E+00;1.044389649300474E+02;
1.094000000000000E+09;-8.735160753757105E+00;1.041528484214638E+02;
1.095000000000000E+09;-9.018171299217368E+00;1.038989268425876E+02;
1.096000000000000E+09;-9.326595764755718E+00;1.037586022378499E+02;
1.097000000000000E+09;-9.645454891317771E+00;1.036978702955364E+02;
1.098000000000000E+09;-9.985027489644869E+00;1.036845726881788E+02;
1.099000000000000E+09;-1.033881210804338E+01;1.038174521206562E+02;
1.100000000000000E+09;-1.071349883254544E+01;1.040430391912534E+02;
1.101000000000000E+09;-1.110973310645774E+01;1.043694306790561E+02;
1.102000000000000E+09;-1.152077980363731E+01;1.048649171213795E+02;
1.103000000000000E+09;-1.194781712783662E+01;1.056037541789057E+02;
1.104000000000000E+09;-1.240804463802709E+01;1.065920297235931E+02;
1.105000000000000E+09;-1.287338959863797E+01;1.078294993159197E+02;
1.106000000000000E+09;-1.334592411247255E+01;1.093758660532021E+02;
1.107000000000000E+09;-1.382339219739316E+01;1.113589516620234E+02;
1.108000000000000E+09;-1.428591452338092E+01;1.136662358971725E+02;
1.109000000000000E+09;-1.474761139455891E+01;1.163604639179216E+02;
1.110000000000000E+09;-1.519345210930350E+01;1.194843986717111E+02;
1.111000000000000E+09;-1.557811563748111E+01;1.231857431627773E+02;
1.112000000000000E+09;-1.590901241954201E+01;1.273128259312479E+02;
1.113000000000000E+09;-1.618648025992512E+01;1.317187629485391E+02;
1.114000000000000E+09;-1.634693856422007E+01;1.364789396142605E+02;
1.115000000000000E+09;-1.639948245362617E+01;1.414999180122327E+02;
1.116000000000000E+09;-1.635493206213404E+01;1.463028783853997E+02;
1.117000000000000E+09;-1.621071839604121E+01;1.510689616475894E+02;
1.118000000000000E+09;-1.595662965358701E+01;1.554747609554042E+02;
1.119000000000000E+09;-1.564163739430643E+01;1.595330460278583E+02;
1.120000000000000E+09;-1.526878826472823E+01;1.629489571322518E+02;
1.121000000000000E+09;-1.486118082670236E+01;1.660038927906695E+02;
1.122000000000000E+09;-1.442406331797226E+01;1.686873868401112E+02;
1.123000000000000E+09;-1.397501372215166E+01;1.707932644487604E+02;
1.124000000000000E+09;-1.351831004658805E+01;1.726244313754785E+02;
1.125000000000000E+09;-1.306968694399794E+01;1.740982952525232E+02;
1.126000000000000E+09;-1.260542326310049E+01;1.752637860511666E+02;
1.127000000000000E+09;-1.216538539691787E+01;1.761366346893005E+02;
1.128000000000000E+09;-1.172769349781931E+01;1.767668280602747E+02;
1.129000000000000E+09;-1.130698754134460E+01;1.771147791599431E+02;
1.130000000000000E+09;-1.089113275484675E+01;1.773294509731040E+02;
1.131000000000000E+09;-1.049879156266037E+01;1.772835887212679E+02;
1.132000000000000E+09;-1.012964277804007E+01;1.770980195542080E+02;
1.133000000000000E+09;-9.763166556864869E+00;1.767806746501574E+02;
1.134000000000000E+09;-9.415366497100703E+00;1.763822469619559E+02;
1.135000000000000E+09;-9.097102922225336E+00;1.758943305003766E+02;
1.136000000000000E+09;-8.788801580825385E+00;1.753267786873133E+02;
1.137000000000000E+09;-8.494010141501981E+00;1.746777111129039E+02;
1.138000000000000E+09;-8.203805081486875E+00;1.740261961595781E+02;
1.139000000000000E+09;-7.937312526571803E+00;1.733121354146351E+02;
1.140000000000000E+09;-7.674553209334158E+00;1.726081863652001E+02;
1.141000000000000E+09;-7.415709926454066E+00;1.718284058814552E+02;
1.142000000000000E+09;-7.172967866029460E+00;1.710323206526052E+02;
1.143000000000000E+09;-6.938931584551095E+00;1.701801535573077E+02;
1.144000000000000E+09;-6.707926324612151E+00;1.693423695998435E+02;
1.145000000000000E+09;-6.486095462459883E+00;1.684900491404617E+02;
1.146000000000000E+09;-6.280573996861119E+00;1.675833679478081E+02;
1.147000000000000E+09;-6.083336154126691E+00;1.666705255669850E+02;
1.148000000000000E+09;-5.881816986841616E+00;1.657927486622719E+02;
1.149000000000000E+09;-5.701753268083771E+00;1.649239864462733E+02;
1.150000000000000E+09;-5.520883966620187E+00;1.639988954752970E+02;
1.151000000000000E+09;-5.347482740509248E+00;1.631336171300629E+02;
1.152000000000000E+09;-5.182357053173316E+00;1.622485535216042E+02;
1.153000000000000E+09;-5.024110867994169E+00;1.613580580304289E+02;
1.154000000000000E+09;-4.872175022206486E+00;1.604635059706717E+02;
1.155000000000000E+09;-4.725500291804627E+00;1.596299510087251E+02;
1.156000000000000E+09;-4.583235377634331E+00;1.587752175484096E+02;
1.157000000000000E+09;-4.447254262208522E+00;1.579397067605428E+02;
1.158000000000000E+09;-4.319893858962894E+00;1.571492894751146E+02;
1.159000000000000E+09;-4.190764612228375E+00;1.563590902381503E+02;
1.160000000000000E+09;-4.067620941192819E+00;1.556123178102567E+02;
1.161000000000000E+09;-3.949481656634695E+00;1.548391740649549E+02;
1.162000000000000E+09;-3.837810413125525E+00;1.540892802649800E+02;
1.163000000000000E+09;-3.728937786668896E+00;1.533499334053759E+02;
1.164000000000000E+09;-3.619642106252060E+00;1.526473391995248E+02;
1.165000000000000E+09;-3.518859778386425E+00;1.519234464992421E+02;
1.166000000000000E+09;-3.423389208097406E+00;1.512518548858724E+02;
1.167000000000000E+09;-3.324978241999155E+00;1.505754028365885E+02;
1.168000000000000E+09;-3.237971220012728E+00;1.499059515480747E+02;
1.169000000000000E+09;-3.148087879431562E+00;1.492523312723745E+02;
1.170000000000000E+09;-3.065481131721643E+00;1.486223492605156E+02;
1.171000000000000E+09;-2.983092974300197E+00;1.479829197152528E+02;
1.172000000000000E+09;-2.906575408115672E+00;1.473589878479070E+02;
1.173000000000000E+09;-2.833914933227919E+00;1.467293750877092E+02;
1.174000000000000E+09;-2.760734081598004E+00;1.461360030810252E+02;
1.175000000000000E+09;-2.695111924590987E+00;1.455435626272699E+02;
1.176000000000000E+09;-2.634443615487034E+00;1.449421513800657E+02;
1.177000000000000E+09;-2.572686780693409E+00;1.443813263615857E+02;
1.178000000000000E+09;-2.514823138322284E+00;1.438071779521865E+02;
1.179000000000000E+09;-2.461270948736384E+00;1.432371143339818E+02;
1.180000000000000E+09;-2.410389390704460E+00;1.426898691972511E+02;
1.181000000000000E+09;-2.360030347571110E+00;1.421499169469654E+02;
1.182000000000000E+09;-2.320944735160926E+00;1.415983294882422E+02;
1.183000000000000E+09;-2.277489448862720E+00;1.410634337299812E+02;
1.184000000000000E+09;-2.237308089562232E+00;1.405405087871428E+02;
1.185000000000000E+09;-2.200493859056579E+00;1.400208762766436E+02;
1.186000000000000E+09;-2.165916443658206E+00;1.394973198751762E+02;
1.187000000000000E+09;-2.132784125970304E+00;1.389810223346247E+02;
1.188000000000000E+09;-2.102126713368142E+00;1.384895648021195E+02;
1.189000000000000E+09;-2.073133219120353E+00;1.379534584341408E+02;
1.190000000000000E+09;-2.053158822493856E+00;1.374472260219167E+02;
1.191000000000000E+09;-2.029177434460966E+00;1.369280586763565E+02;
1.192000000000000E+09;-2.004544635699505E+00;1.364296901167542E+02;
1.193000000000000E+09;-1.988900405888992E+00;1.359398874505511E+02;
1.194000000000000E+09;-1.973089906943735E+00;1.354109775733536E+02;
1.195000000000000E+09;-1.955409458143805E+00;1.349308480659334E+02;
1.196000000000000E+09;-1.941477055627268E+00;1.344235080553204E+02;
1.197000000000000E+09;-1.931022265882904E+00;1.339119587236084E+02;
1.198000000000000E+09;-1.920712200075239E+00;1.333680399513595E+02;
1.199000000000000E+09;-1.909412176388289E+00;1.328903910215215E+02;
1.200000000000000E+09;-1.901051224141699E+00;1.323828868543646E+02;
1.201000000000000E+09;-1.897032726548392E+00;1.318479284463627E+02;
1.202000000000000E+09;-1.889705795085598E+00;1.313112930266691E+02;
1.203000000000000E+09;-1.886335250258727E+00;1.307861405319334E+02;
1.204000000000000E+09;-1.881743761064157E+00;1.302677071489185E+02;
1.205000000000000E+09;-1.879469810615935E+00;1.297103671293360E+02;
1.206000000000000E+09;-1.884712241330574E+00;1.291839738875541E+02;
1.207000000000000E+09;-1.883949601976991E+00;1.286397697066961E+02;
1.208000000000000E+09;-1.883650981386716E+00;1.280822682334882E+02;
1.209000000000000E+09;-1.885255123904912E+00;1.275405124540903E+02;
1.210000000000000E+09;-1.889214584253764E+00;1.270033767619435E+02;
1.211000000000000E+09;-1.890430227040725E+00;1.264385435328255E+02;
1.212000000000000E+09;-1.894193710007372E+00;1.259081713122155E+02;
1.213000000000000E+09;-1.895159659877586E+00;1.252934291167908E+02;
1.214000000000000E+09;-1.896420019442191E+00;1.247503557612351E+02;
1.215000000000000E+09;-1.896435824540288E+00;1.241587254662378E+02;
1.216000000000000E+09;-1.901606153293662E+00;1.235450554117680E+02;
1.217000000000000E+09;-1.900976125371756E+00;1.229564110572400E+02;
1.218000000000000E+09;-1.905836502578773E+00;1.223582494035562E+02;
1.219000000000000E+09;-1.909634272089593E+00;1.217527740223142E+02;
1.220000000000000E+09;-1.913333782015912E+00;1.211340701804235E+02;
1.221000000000000E+09;-1.915360791339968E+00;1.205303748155857E+02;
1.222000000000000E+09;-1.921994593893820E+00;1.199066624718881E+02;
1.223000000000000E+09;-1.924263243555627E+00;1.193031366673817E+02;
1.224000000000000E+09;-1.927149259856820E+00;1.186808634179244E+02;
1.225000000000000E+09;-1.930241749115053E+00;1.180775888202112E+02;
1.226000000000000E+09;-1.933822123867556E+00;1.174559498523326E+02;
1.227000000000000E+09;-1.935388126602070E+00;1.168331139415394E+02;
1.228000000000000E+09;-1.936191340667266E+00;1.162121301458910E+02;
1.229000000000000E+09;-1.938838504313853E+00;1.156162909426916E+02;
1.230000000000000E+09;-1.942844575727166E+00;1.150184604950707E+02;
1.231000000000000E+09;-1.945013413427336E+00;1.143962997024100E+02;
1.232000000000000E+09;-1.942289867692405E+00;1.138108685740473E+02;
1.233000000000000E+09;-1.944832964949115E+00;1.132397343259881E+02;
1.234000000000000E+09;-1.941683860519269E+00;1.126353803399106E+02;
1.235000000000000E+09;-1.939297489576314E+00;1.121019267379023E+02;
1.236000000000000E+09;-1.936492559445313E+00;1.115484355554825E+02;
1.237000000000000E+09;-1.930440705880573E+00;1.109504624457618E+02;
1.238000000000000E+09;-1.927644470677741E+00;1.104332282643346E+02;
1.239000000000000E+09;-1.919961963795549E+00;1.098662727663051E+02;
1.240000000000000E+09;-1.912686374273869E+00;1.093249053835146E+02;
1.241000000000000E+09;-1.905610810507774E+00;1.087909271834081E+02;
1.242000000000000E+09;-1.897857889101184E+00;1.082981247139429E+02;
1.243000000000000E+09;-1.889100420961746E+00;1.077577072222332E+02;
1.244000000000000E+09;-1.872710205346066E+00;1.072754992122561E+02;
1.245000000000000E+09;-1.865690460493444E+00;1.067813129846959E+02;
1.246000000000000E+09;-1.854657047752621E+00;1.062756342139229E+02;
1.247000000000000E+09;-1.841694232320389E+00;1.058080154306046E+02;
1.248000000000000E+09;-1.828174833945879E+00;1.053321179546869E+02;
1.249000000000000E+09;-1.817811912624572E+00;1.048861342462957E+02;
1.250000000000000E+09;-1.799243835193938E+00;1.044179336916331E+02;
1.251000000000000E+09;-1.787306219643402E+00;1.039686493129250E+02;
1.252000000000000E+09;-1.770401649976344E+00;1.035592394724673E+02;
1.253000000000000E+09;-1.756285122711963E+00;1.031333840243863E+02;
1.254000000000000E+09;-1.742740524772004E+00;1.026978698525610E+02;
1.255000000000000E+09;-1.724340444068722E+00;1.022699335707043E+02;
1.256000000000000E+09;-1.711084363549017E+00;1.018488755881672E+02;
1.257000000000000E+09;-1.694970172634983E+00;1.014845009029196E+02;
1.258000000000000E+09;-1.678270345198167E+00;1.010691303704427E+02;
1.259000000000000E+09;-1.661535951413839E+00;1.006563397646914E+02;
1.260000000000000E+09;-1.645816398605596E+00;1.002616688361843E+02;
1.261000000000000E+09;-1.633266173226681E+00;9.989641108313045E+01;
1.262000000000000E+09;-1.618589977280038E+00;9.951217379347902E+01;
1.263000000000000E+09;-1.600224007632010E+00;9.914268619957140E+01;
1.264000000000000E+09;-1.588224051099349E+00;9.872133431989452E+01;
1.265000000000000E+09;-1.573971533402419E+00;9.836210926982987E+01;
1.266000000000000E+09;-1.561557255294058E+00;9.801872154065481E+01;
1.267000000000000E+09;-1.552019440413491E+00;9.762179461291679E+01;
1.268000000000000E+09;-1.541670283051413E+00;9.723999341001553E+01;
1.269000000000000E+09;-1.530313987743209E+00;9.687211391291048E+01;
1.270000000000000E+09;-1.522320437743927E+00;9.650648416808833E+01;
1.271000000000000E+09;-1.514077156710522E+00;9.615464239876326E+01;
1.272000000000000E+09;-1.506261367639580E+00;9.577003381876381E+01;
1.273000000000000E+09;-1.498532539168506E+00;9.542766246709621E+01;
1.274000000000000E+09;-1.491142412381566E+00;9.505326114468055E+01;
1.275000000000000E+09;-1.485525942282224E+00;9.469770156425918E+01;
1.276000000000000E+09;-1.476667401940681E+00;9.432042979071761E+01;
1.277000000000000E+09;-1.473767950854071E+00;9.394463843192564E+01;
1.278000000000000E+09;-1.471433102240830E+00;9.357884469806004E+01;
1.279000000000000E+09;-1.472202508518047E+00;9.317958315415127E+01;
1.280000000000000E+09;-1.464395264634166E+00;9.282899347914807E+01;
1.281000000000000E+09;-1.463773629680282E+00;9.244290974001994E+01;
1.282000000000000E+09;-1.464685370449984E+00;9.204644272705048E+01;
1.283000000000000E+09;-1.463159661383187E+00;9.162736542237593E+01;
1.284000000000000E+09;-1.458977122700006E+00;9.125093093516705E+01;
1.285000000000000E+09;-1.466800883542297E+00;9.087258171303310E+01;
1.286000000000000E+09;-1.465721756747653E+00;9.044405834729363E+01;
1.287000000000000E+09;-1.465832561623941E+00;9.005088628772589E+01;
1.288000000000000E+09;-1.471128896084857E+00;8.963709616482087E+01;
1.289000000000000E+09;-1.471557516159602E+00;8.921635389406518E+01;
1.290000000000000E+09;-1.480890618296134E+00;8.878861398783911E+01;
1.291000000000000E+09;-1.481319775554935E+00;8.836768743450671E+01;
1.292000000000000E+09;-1.488383208672045E+00;8.792944704262136E+01;
