# Version 1.00
#
freq[Hz];db:Trc4_S11;ang:Trc4_S11;
1.000000000000000E+09;-1.303855993565316E+00;1.577549915619053E+02;
1.001000000000000E+09;-1.327627629553372E+00;1.572877084964917E+02;
1.002000000000000E+09;-1.352267796050509E+00;1.568414982838325E+02;
1.003000000000000E+09;-1.377881902375114E+00;1.563505524053049E+02;
1.004000000000000E+09;-1.405935714795608E+00;1.558547915340651E+02;
1.005000000000000E+09;-1.430524581958998E+00;1.554043010237125E+02;
1.006000000000000E+09;-1.460096873954768E+00;1.548753879929349E+02;
1.007000000000000E+09;-1.490378654135410E+00;1.543777015988402E+02;
1.008000000000000E+09;-1.522738537318949E+00;1.538961879292379E+02;
1.009000000000000E+09;-1.554781859170802E+00;1.533864044743170E+02;
1.010000000000000E+09;-1.584786358604518E+00;1.528464198922057E+02;
1.011000000000000E+09;-1.622574335363478E+00;1.522918914711770E+02;
1.012000000000000E+09;-1.656834146576991E+00;1.517621503617493E+02;
1.013000000000000E+09;-1.691047265569792E+00;1.512176991193546E+02;
1.014000000000000E+09;-1.729719472112944E+00;1.506362216606477E+02;
1.015000000000000E+09;-1.771493142265800E+00;1.500984731682078E+02;
1.016000000000000E+09;-1.810505155930900E+00;1.495346335733011E+02;
1.017000000000000E+09;-1.848446633314505E+00;1.489321983855246E+02;
1.018000000000000E+09;-1.895803827231355E+00;1.483494076497541E+02;
1.019000000000000E+09;-1.937970782262075E+00;1.477515315442432E+02;
1.020000000000000E+09;-1.980563110890139E+00;1.471726277372302E+02;
1.021000000000000E+09;-2.026461269047656E+00;1.465615651680266E+02;
1.022000000000000E+09;-2.071025797517885E+00;1.459421842656344E+02;
1.023000000000000E+09;-2.121369730217381E+00;1.453223137860511E+02;
1.024000000000000E+09;-2.166065386965114E+00;1.447237269622577E+02;
1.025000000000000E+09;-2.218176261587061E+00;1.440774562282847E+02;
1.026000000000000E+09;-2.266902186839664E+00;1.434395037187003E+02;
1.027000000000000E+09;-2.310837649741571E+00;1.428410130423689E+02;
1.028000000000000E+09;-2.364608521273861E+00;1.421834430466812E+02;
1.029000000000000E+09;-2.411193440027518E+00;1.415931595430486E+02;
1.030000000000000E+09;-2.463167221230421E+00;1.409355589784422E+02;
1.031000000000000E+09;-2.515905523339463E+00;1.402988956489210E+02;
1.032000000000000E+09;-2.568781979658397E+00;1.396475143226996E+02;
1.033000000000000E+09;-2.615901946989115E+00;1.390207526746261E+02;
1.034000000000000E+09;-2.663745668351166E+00;1.384041625031506E+02;
1.035000000000000E+09;-2.712538853784791E+00;1.377770078799627E+02;
1.036000000000000E+09;-2.762673678619230E+00;1.371546147276292E+02;
1.037000000000000E+09;-2.813447916680962E+00;1.364701390054412E+02;
1.038000000000000E+09;-2.863337598752361E+00;1.358688970975062E+02;
1.039000000000000E+09;-2.913569416949302E+00;1.352400001196594E+02;
1.040000000000000E+09;-2.960648461904637E+00;1.346169996876651E+02;
1.041000000000000E+09;-3.007704536095181E+00;1.340311306388089E+02;
1.042000000000000E+09;-3.059854653465343E+00;1.333858560328497E+02;
1.043000000000000E+09;-3.111826788264909E+00;1.327715691156652E+02;
1.044000000000000E+09;-3.159596883857812E+00;1.321367375548793E+02;
1.045000000000000E+09;-3.207739897319764E+00;1.316038308711914E+02;
1.046000000000000E+09;-3.253267734479142E+00;1.310018186932393E+02;
1.047000000000000E+09;-3.301470162669599E+00;1.304047236063765E+02;
1.048000000000000E+09;-3.347648306735393E+00;1.298090933726243E+02;
1.049000000000000E+09;-3.395590702707302E+00;1.292621449123273E+02;
1.050000000000000E+09;-3.439206498229010E+00;1.286818822743117E+02;
1.051000000000000E+09;-3.485201843599949E+00;1.281353083676632E+02;
1.052000000000000E+09;-3.531946898789945E+00;1.275785427662455E+02;
1.053000000000000E+09;-3.576493476240081E+00;1.270146764329672E+02;
1.054000000000000E+09;-3.624992962994857E+00;1.264429905513095E+02;
1.055000000000000E+09;-3.666364790433579E+00;1.258790815420861E+02;
1.056000000000000E+09;-3.715721761583235E+00;1.253491871499019E+02;
1.057000000000000E+09;-3.764744096799237E+00;1.248233532853052E+02;
1.058000000000000E+09;-3.815586477469520E+00;1.242678821239026E+02;
1.059000000000000E+09;-3.865248827110305E+00;1.237535465923536E+02;
1.060000000000000E+09;-3.915311919790297E+00;1.232126913834583E+02;
1.061000000000000E+09;-3.967523475732368E+00;1.226852834983476E+02;
1.062000000000000E+09;-4.022432017579590E+00;1.221373614735849E+02;
1.063000000000000E+09;-4.080563229427771E+00;1.216376364871374E+02;
1.064000000000000E+09;-4.132493624091177E+00;1.211463431344936E+02;
1.065000000000000E+09;-4.195593111732519E+00;1.206335290593095E+02;
1.066000000000000E+09;-4.257271230664139E+00;1.200911710660617E+02;
1.067000000000000E+09;-4.320054642318384E+00;1.195856748956284E+02;
1.068000000000000E+09;-4.390638014535162E+00;1.190887996952390E+02;
1.069000000000000E+09;-4.460947716983794E+00;1.185473540735953E+02;
1.070000000000000E+09;-4.533968997458309E+00;1.180102049910100E+02;
1.071000000000000E+09;-4.614043486970647E+00;1.175518489045512E+02;
1.072000000000000E+09;-4.694143075945308E+00;1.169992118750960E+02;
1.073000000000000E+09;-4.781559637108536E+00;1.164598997728871E+02;
1.074000000000000E+09;-4.874243426235331E+00;1.159557043263008E+02;
1.075000000000000E+09;-4.977778527745109E+00;1.154439171655881E+02;
1.076000000000000E+09;-5.083086031579342E+00;1.149694255346612E+02;
1.077000000000000E+09;-5.195237730169912E+00;1.144185100961273E+02;
1.078000000000000E+09;-5.311861198552044E+00;1.139621754874791E+02;
1.079000000000000E+09;-5.435844272712958E+00;1.135034014790977E+02;
1.080000000000000E+09;-5.564259985291409E+00;1.130177694316910E+02;
1.081000000000000E+09;-5.695417251931138E+00;1.125692687661924E+02;
1.082000000000000E+09;-5.830935118471745E+00;1.121597065455595E+02;
1.083000000000000E+09;-5.978077603703063E+00;1.117086580718953E+02;
1.084000000000000E+09;-6.138605600294154E+00;1.112388246217513E+02;
1.085000000000000E+09;-6.293289957000274E+00;1.107735492355287E+02;
1.086000000000000E+09;-6.467702027581449E+00;1.103634468907344E+02;
1.087000000000000E+09;-6.651946404581635E+00;1.099336853464701E+02;
1.088000000000000E+09;-6.849913972832632E+00;1.095318602563184E+02;
1.089000000000000E+09;-7.051650426271188E+00;1.091749888208788E+02;
1.090000000000000E+09;-7.266051142820974E+00;1.088238600175511E+02;
1.091000000000000E+09;-7.494397197121446E+00;1.085211418628360E+02;
1.092000000000000E+09;-7.723023943484031E+00;1.082243970406801E+02;
1.093000000000000E+09;-7.967927573982787E+00;1.080394593937009E+02;
1.094000000000000E+09;-8.236370341369680E+00;1.077959019997782E+02;
1.095000000000000E+09;-8.512458032246093E+00;1.075920178521910E+02;
1.096000000000000E+09;-8.807981083820671E+00;1.074979993501809E+02;
1.097000000000000E+09;-9.108850901026685E+00;1.075243872107682E+02;
1.098000000000000E+09;-9.432253778912255E+00;1.075392231926380E+02;
1.099000000000000E+09;-9.772802797033716E+00;1.076911716878679E+02;
1.100000000000000E+09;-1.012567270223183E+01;1.079326813435941E+02;
1.101000000000000E+09;-1.050083230297318E+01;1.083170310788989E+02;
1.102000000000000E+09;-1.089872839811060E+01;1.088423330656369E+02;
1.103000000000000E+09;-1.130599134584492E+01;1.096095287602882E+02;
1.104000000000000E+09;-1.174488431452617E+01;1.106075630642037E+02;
1.105000000000000E+09;-1.218140893125834E+01;1.118120424045309E+02;
1.106000000000000E+09;-1.262665578191285E+01;1.133303891557477E+02;
1.107000000000000E+09;-1.307773300722565E+01;1.152033442337420E+02;
1.108000000000000E+09;-1.351672218125599E+01;1.174400153984244E+02;
1.109000000000000E+09;-1.395557399765289E+01;1.200634623148826E+02;
1.110000000000000E+09;-1.435873548810894E+01;1.231128488131170E+02;
1.111000000000000E+09;-1.471608024020014E+01;1.266287134610788E+02;
1.112000000000000E+09;-1.501345916889632E+01;1.304724990899564E+02;
1.113000000000000E+09;-1.527292204169421E+01;1.346137327111004E+02;
1.114000000000000E+09;-1.542711132775820E+01;1.390605270075062E+02;
1.115000000000000E+09;-1.548810564667576E+01;1.436566011391636E+02;
1.116000000000000E+09;-1.546816803325319E+01;1.481838445268579E+02;
1.117000000000000E+09;-1.534618312000719E+01;1.526033406997613E+02;
1.118000000000000E+09;-1.515097713249313E+01;1.567479368568247E+02;
1.119000000000000E+09;-1.487532235828212E+01;1.606905590594357E+02;
1.120000000000000E+09;-1.455038039448078E+01;1.641028993150755E+02;
1.121000000000000E+09;-1.418195421290726E+01;1.671774089579414E+02;
1.122000000000000E+09;-1.377749318020736E+01;1.698328862610418E+02;
1.123000000000000E+09;-1.335275578064372E+01;1.720217133346525E+02;
1.124000000000000E+09;-1.291724246691091E+01;1.738673793908197E+02;
1.125000000000000E+09;-1.250400704670106E+01;1.753479858212484E+02;
1.126000000000000E+09;-1.206715423111784E+01;1.765874998620053E+02;
1.127000000000000E+09;-1.164698597267699E+01;1.774866532175741E+02;
1.128000000000000E+09;-1.123343114338412E+01;1.781615349085239E+02;
1.129000000000000E+09;-1.083116731600893E+01;1.786319330956510E+02;
1.130000000000000E+09;-1.044357810354876E+01;1.788677240852022E+02;
1.131000000000000E+09;-1.007207420884394E+01;1.788970897652593E+02;
1.132000000000000E+09;-9.717598556374757E+00;1.788386197253919E+02;
1.133000000000000E+09;-9.372399183198080E+00;1.786432798086049E+02;
1.134000000000000E+09;-9.042018250174177E+00;1.783181220500098E+02;
1.135000000000000E+09;-8.729350669536336E+00;1.779441296572562E+02;
1.136000000000000E+09;-8.431791970238248E+00;1.774435400659922E+02;
1.137000000000000E+09;-8.132413650254101E+00;1.769416350752957E+02;
1.138000000000000E+09;-7.849902598604071E+00;1.763288711704241E+02;
1.139000000000000E+09;-7.584197415607678E+00;1.756493557159915E+02;
1.140000000000000E+09;-7.324599505829927E+00;1.749496261712729E+02;
1.141000000000000E+09;-7.071691805163812E+00;1.741667877224316E+02;
1.142000000000000E+09;-6.828870155953513E+00;1.733129436661012E+02;
1.143000000000000E+09;-6.610684012164478E+00;1.724753777758927E+02;
1.144000000000000E+09;-6.391508434745257E+00;1.715989204171503E+02;
1.145000000000000E+09;-6.181363443832424E+00;1.707133180586059E+02;
1.146000000000000E+09;-5.991066597316435E+00;1.697681846276676E+02;
1.147000000000000E+09;-5.803743557275286E+00;1.688825742662070E+02;
1.148000000000000E+09;-5.622325052638695E+00;1.680210449600849E+02;
1.149000000000000E+09;-5.452132366560678E+00;1.671340182818979E+02;
1.150000000000000E+09;-5.281650588011448E+00;1.662042513418340E+02;
1.151000000000000E+09;-5.120375572228943E+00;1.653349956838136E+02;
1.152000000000000E+09;-4.968428621376367E+00;1.644726235918717E+02;
1.153000000000000E+09;-4.819240900131776E+00;1.636089644438009E+02;
1.154000000000000E+09;-4.673565519265576E+00;1.627311405224062E+02;
1.155000000000000E+09;-4.531930696299357E+00;1.618901647553483E+02;
1.156000000000000E+09;-4.393229176335031E+00;1.610563863736518E+02;
1.157000000000000E+09;-4.267262783764846E+00;1.601903745752858E+02;
1.158000000000000E+09;-4.139609181600171E+00;1.593620789506953E+02;
1.159000000000000E+09;-4.016369347901777E+00;1.585600988799799E+02;
1.160000000000000E+09;-3.903394723253691E+00;1.577596004415859E+02;
1.161000000000000E+09;-3.792252193604486E+00;1.569628226438220E+02;
1.162000000000000E+09;-3.681021082688708E+00;1.561858644569471E+02;
1.163000000000000E+09;-3.575684290845829E+00;1.554075280708380E+02;
1.164000000000000E+09;-3.472867165819693E+00;1.546583306144343E+02;
1.165000000000000E+09;-3.377125013370556E+00;1.538767822916911E+02;
1.166000000000000E+09;-3.284926242076451E+00;1.531627418136192E+02;
1.167000000000000E+09;-3.193835861057233E+00;1.524312875225183E+02;
1.168000000000000E+09;-3.106388535999814E+00;1.517152939041982E+02;
1.169000000000000E+09;-3.022523966238169E+00;1.510073140591830E+02;
1.170000000000000E+09;-2.942767475872121E+00;1.503120361144836E+02;
1.171000000000000E+09;-2.867702655563120E+00;1.496148456360071E+02;
1.172000000000000E+09;-2.797898814911249E+00;1.489315103916359E+02;
1.173000000000000E+09;-2.730585429669973E+00;1.482742473991422E+02;
1.174000000000000E+09;-2.663748035687514E+00;1.476377273617267E+02;
1.175000000000000E+09;-2.601868293059643E+00;1.470050594496152E+02;
1.176000000000000E+09;-2.542562172442357E+00;1.463778848794970E+02;
1.177000000000000E+09;-2.483080447371017E+00;1.457887948269485E+02;
1.178000000000000E+09;-2.427357438311785E+00;1.451917129024289E+02;
1.179000000000000E+09;-2.373665204420289E+00;1.445645297809254E+02;
1.180000000000000E+09;-2.322796393298767E+00;1.439908023724802E+02;
1.181000000000000E+09;-2.271128829546339E+00;1.434209428700543E+02;
1.182000000000000E+09;-2.228069470690557E+00;1.428010088143345E+02;
1.183000000000000E+09;-2.182314541067756E+00;1.422087246395087E+02;
1.184000000000000E+09;-2.138828839156007E+00;1.416369770929758E+02;
1.185000000000000E+09;-2.105287215214191E+00;1.410564673178264E+02;
1.186000000000000E+09;-2.068271503925311E+00;1.404824039596341E+02;
1.187000000000000E+09;-2.035288106427477E+00;1.399081417381048E+02;
1.188000000000000E+09;-2.006693943352808E+00;1.393480565583679E+02;
1.189000000000000E+09;-1.976003848772377E+00;1.387856782220692E+02;
1.190000000000000E+09;-1.951413363546348E+00;1.382389886301230E+02;
1.191000000000000E+09;-1.927155845629437E+00;1.376824377392577E+02;
1.192000000000000E+09;-1.906707740941307E+00;1.371248064412618E+02;
1.193000000000000E+09;-1.885647423436916E+00;1.365952283808137E+02;
1.194000000000000E+09;-1.861473655713036E+00;1.360280158018413E+02;
1.195000000000000E+09;-1.845665809362296E+00;1.355034808340391E+02;
1.196000000000000E+09;-1.826772738450303E+00;1.349497784885321E+02;
1.197000000000000E+09;-1.815332203141137E+00;1.344026288868954E+02;
1.198000000000000E+09;-1.800025598863051E+00;1.338229805128984E+02;
1.199000000000000E+09;-1.786607454468424E+00;1.333012430987695E+02;
1.200000000000000E+09;-1.776221146519759E+00;1.327254072273015E+02;
1.201000000000000E+09;-1.763209750989842E+00;1.321721618031048E+02;
1.202000000000000E+09;-1.758449746481018E+00;1.315972943575928E+02;
1.203000000000000E+09;-1.751691267460238E+00;1.310603406069122E+02;
1.204000000000000E+09;-1.744741781432678E+00;1.304869612072254E+02;
1.205000000000000E+09;-1.739881844296709E+00;1.299476739602383E+02;
1.206000000000000E+09;-1.736128837509226E+00;1.293677096537440E+02;
1.207000000000000E+09;-1.731537531713111E+00;1.288180448787161E+02;
1.208000000000000E+09;-1.725716061118257E+00;1.282230413158596E+02;
1.209000000000000E+09;-1.722388255726214E+00;1.276367162826697E+02;
1.210000000000000E+09;-1.723118687192032E+00;1.270762490780263E+02;
1.211000000000000E+09;-1.722703610159324E+00;1.264894746960752E+02;
1.212000000000000E+09;-1.721462280347496E+00;1.259335346485742E+02;
1.213000000000000E+09;-1.721418393968117E+00;1.253127563202098E+02;
1.214000000000000E+09;-1.722139619150876E+00;1.247623106793992E+02;
1.215000000000000E+09;-1.718551353772252E+00;1.241707429211468E+02;
1.216000000000000E+09;-1.720283084848362E+00;1.235898579538998E+02;
1.217000000000000E+09;-1.720730092837887E+00;1.230061620036808E+02;
1.218000000000000E+09;-1.718614394112245E+00;1.224321513857580E+02;
1.219000000000000E+09;-1.721785834210981E+00;1.218339633154035E+02;
1.220000000000000E+09;-1.717376873493368E+00;1.212405572954592E+02;
1.221000000000000E+09;-1.718206237694512E+00;1.206586967670480E+02;
1.222000000000000E+09;-1.717776228883170E+00;1.200899248481846E+02;
1.223000000000000E+09;-1.715673681584831E+00;1.195011363900108E+02;
1.224000000000000E+09;-1.712310011857689E+00;1.189010560028537E+02;
1.225000000000000E+09;-1.713626086843229E+00;1.183570733459079E+02;
1.226000000000000E+09;-1.710108398661246E+00;1.177743459840456E+02;
1.227000000000000E+09;-1.709298261517893E+00;1.171899826394416E+02;
1.228000000000000E+09;-1.703584547783572E+00;1.166261782296966E+02;
1.229000000000000E+09;-1.696747115063255E+00;1.160746847069615E+02;
1.230000000000000E+09;-1.696300689714267E+00;1.155259909482804E+02;
1.231000000000000E+09;-1.683662753621626E+00;1.149569392925351E+02;
1.232000000000000E+09;-1.677638756093106E+00;1.144094693995880E+02;
1.233000000000000E+09;-1.670495552401953E+00;1.138644292045726E+02;
1.234000000000000E+09;-1.660628283620546E+00;1.133197203392690E+02;
1.235000000000000E+09;-1.653864785168201E+00;1.128043670367255E+02;
1.236000000000000E+09;-1.638838284640443E+00;1.122818933255112E+02;
1.237000000000000E+09;-1.624916339653760E+00;1.117478129417115E+02;
1.238000000000000E+09;-1.614879145960459E+00;1.112445737484670E+02;
1.239000000000000E+09;-1.599221698001646E+00;1.107372687202732E+02;
1.240000000000000E+09;-1.582651649308461E+00;1.102379472595370E+02;
1.241000000000000E+09;-1.568479230322371E+00;1.097356382335843E+02;
1.242000000000000E+09;-1.550661241085076E+00;1.092695867792271E+02;
1.243000000000000E+09;-1.534514202122140E+00;1.087466123571048E+02;
1.244000000000000E+09;-1.514051562291498E+00;1.082966049730760E+02;
1.245000000000000E+09;-1.495243097329414E+00;1.078195153981153E+02;
1.246000000000000E+09;-1.479404079292568E+00;1.073657088954047E+02;
1.247000000000000E+09;-1.453906445132841E+00;1.068878608345441E+02;
1.248000000000000E+09;-1.438609070849316E+00;1.064368609461404E+02;
1.249000000000000E+09;-1.417475158144147E+00;1.059797195571421E+02;
1.250000000000000E+09;-1.398801722957095E+00;1.055453884859119E+02;
1.251000000000000E+09;-1.381085441510870E+00;1.050941186990437E+02;
1.252000000000000E+09;-1.362820544252152E+00;1.047070507359885E+02;
1.253000000000000E+09;-1.340923999049153E+00;1.042897244718848E+02;
1.254000000000000E+09;-1.317520928248172E+00;1.038914491460606E+02;
1.255000000000000E+09;-1.295771145279095E+00;1.034747208760781E+02;
1.256000000000000E+09;-1.274408719791024E+00;1.030678077326635E+02;
1.257000000000000E+09;-1.252271179219712E+00;1.026937163750598E+02;
1.258000000000000E+09;-1.232464075008420E+00;1.022792910972874E+02;
1.259000000000000E+09;-1.208804272859231E+00;1.018760992813192E+02;
1.260000000000000E+09;-1.185829523809739E+00;1.014745908883138E+02;
1.261000000000000E+09;-1.169189252015191E+00;1.010991741487657E+02;
1.262000000000000E+09;-1.152100650648471E+00;1.006951107758716E+02;
1.263000000000000E+09;-1.128754662212273E+00;1.003092812485789E+02;
1.264000000000000E+09;-1.113775404109920E+00;9.988128654841053E+01;
1.265000000000000E+09;-1.097977432364873E+00;9.951142750067051E+01;
1.266000000000000E+09;-1.083514816505108E+00;9.914815339090043E+01;
1.267000000000000E+09;-1.067028740698032E+00;9.874659200111071E+01;
1.268000000000000E+09;-1.053989481013870E+00;9.834817626437022E+01;
1.269000000000000E+09;-1.042330379018165E+00;9.795338048376910E+01;
1.270000000000000E+09;-1.031729624950256E+00;9.757928078281000E+01;
1.271000000000000E+09;-1.020437554659169E+00;9.721139163923371E+01;
1.272000000000000E+09;-1.012970579986241E+00;9.679375694117186E+01;
1.273000000000000E+09;-1.006934569977887E+00;9.641734038224786E+01;
1.274000000000000E+09;-9.985105410403803E-01;9.604705223117959E+01;
1.275000000000000E+09;-9.932869870613910E-01;9.566887364682218E+01;
1.276000000000000E+09;-9.857294447304634E-01;9.527233927289078E+01;
1.277000000000000E+09;-9.811929164563853E-01;9.489292351988198E+01;
1.278000000000000E+09;-9.840204840115213E-01;9.450671694630594E+01;
1.279000000000000E+09;-9.773876583133849E-01;9.412533621812696E+01;
1.280000000000000E+09;-9.740345369378360E-01;9.377360559840156E+01;
1.281000000000000E+09;-9.750633016253024E-01;9.335718400978283E+01;
1.282000000000000E+09;-9.769010970919028E-01;9.293234806027939E+01;
1.283000000000000E+09;-9.760157250156627E-01;9.254475769163928E+01;
1.284000000000000E+09;-9.753092858466622E-01;9.217811556054042E+01;
1.285000000000000E+09;-9.844045669398939E-01;9.176624822495671E+01;
1.286000000000000E+09;-9.855054018843522E-01;9.137341906923240E+01;
1.287000000000000E+09;-9.893405837505074E-01;9.093967597697393E+01;
1.288000000000000E+09;-9.927814220857469E-01;9.051039973396063E+01;
1.289000000000000E+09;-9.971935434288072E-01;9.009085944258901E+01;
1.290000000000000E+09;-1.003737607833103E+00;8.967924066552415E+01;
1.291000000000000E+09;-1.010683449601534E+00;8.924267929444301E+01;
1.292000000000000E+09;-1.017421310099394E+00;8.879378194415698E+01;
