# Version 1.00
#
freq[Hz];db:Trc4_S11;ang:Trc4_S11;
1.000000000000000E+09;-1.323177922884425E+00;1.576684326975087E+02;
1.001000000000000E+09;-1.347673726560326E+00;1.571996554714431E+02;
1.002000000000000E+09;-1.372588634292957E+00;1.567206808138798E+02;
1.003000000000000E+09;-1.399905538211932E+00;1.562777609268675E+02;
1.004000000000000E+09;-1.426073633484682E+00;1.557825478005099E+02;
1.005000000000000E+09;-1.457048025770077E+00;1.553478697448705E+02;
1.006000000000000E+09;-1.482252854478308E+00;1.548452811419543E+02;
1.007000000000000E+09;-1.517622329007597E+00;1.543438480101747E+02;
1.008000000000000E+09;-1.548637075850056E+00;1.538629117067987E+02;
1.009000000000000E+09;-1.580146752638130E+00;1.533756527274043E+02;
1.010000000000000E+09;-1.614716792451719E+00;1.528287374685758E+02;
1.011000000000000E+09;-1.654193591785766E+00;1.522817760625915E+02;
1.012000000000000E+09;-1.687904519638828E+00;1.517483604280769E+02;
1.013000000000000E+09;-1.724475209536734E+00;1.512130732649773E+02;
1.014000000000000E+09;-1.764589725381076E+00;1.506361348200701E+02;
1.015000000000000E+09;-1.804634797908254E+00;1.500752908956854E+02;
1.016000000000000E+09;-1.846589607497410E+00;1.494936399675482E+02;
1.017000000000000E+09;-1.886843039784171E+00;1.488853133324928E+02;
1.018000000000000E+09;-1.932136589362952E+00;1.482848382531978E+02;
1.019000000000000E+09;-1.980841129901227E+00;1.476690688767980E+02;
1.020000000000000E+09;-2.024524636677568E+00;1.470582898831855E+02;
1.021000000000000E+09;-2.070389001769358E+00;1.464117030788107E+02;
1.022000000000000E+09;-2.118427574848786E+00;1.457819436939571E+02;
1.023000000000000E+09;-2.170148925614914E+00;1.451469228258881E+02;
1.024000000000000E+09;-2.221104423090872E+00;1.444993934360704E+02;
1.025000000000000E+09;-2.276250724425529E+00;1.438421977633793E+02;
1.026000000000000E+09;-2.324920482912137E+00;1.431870385605606E+02;
1.027000000000000E+09;-2.377861626248893E+00;1.425460283155919E+02;
1.028000000000000E+09;-2.433988380594056E+00;1.418592795634474E+02;
1.029000000000000E+09;-2.484173796279241E+00;1.412421559445499E+02;
1.030000000000000E+09;-2.542503156749296E+00;1.405484453170451E+02;
1.031000000000000E+09;-2.596839280278007E+00;1.398721947656217E+02;
1.032000000000000E+09;-2.655421219863475E+00;1.392274554110146E+02;
1.033000000000000E+09;-2.709814977681281E+00;1.385539867259842E+02;
1.034000000000000E+09;-2.764080000326766E+00;1.379056696456346E+02;
1.035000000000000E+09;-2.817698937617834E+00;1.372612294840202E+02;
1.036000000000000E+09;-2.870691983948578E+00;1.365951118786310E+02;
1.037000000000000E+09;-2.926437335268043E+00;1.359339465027093E+02;
1.038000000000000E+09;-2.977068936832134E+00;1.353082956566150E+02;
1.039000000000000E+09;-3.033762511675126E+00;1.346486929054850E+02;
1.040000000000000E+09;-3.084003931068364E+00;1.340125985368419E+02;
1.041000000000000E+09;-3.133429683972682E+00;1.334015151254588E+02;
1.042000000000000E+09;-3.187400101451427E+00;1.327452140288913E+02;
1.043000000000000E+09;-3.238057285689438E+00;1.320982793425378E+02;
1.044000000000000E+09;-3.287387417522743E+00;1.315016607980350E+02;
1.045000000000000E+09;-3.336772202029269E+00;1.308743596836424E+02;
1.046000000000000E+09;-3.382809752357151E+00;1.302669007662983E+02;
1.047000000000000E+09;-3.433050728747635E+00;1.296447390588976E+02;
1.048000000000000E+09;-3.482002874581431E+00;1.290463398420794E+02;
1.049000000000000E+09;-3.528164363462688E+00;1.284456089424653E+02;
1.050000000000000E+09;-3.577533390399071E+00;1.278776348024225E+02;
1.051000000000000E+09;-3.623522927023895E+00;1.272695634855740E+02;
1.052000000000000E+09;-3.671450459544655E+00;1.267075290326326E+02;
1.053000000000000E+09;-3.721364940569894E+00;1.261132674385838E+02;
1.054000000000000E+09;-3.768806357580216E+00;1.255427789737657E+02;
1.055000000000000E+09;-3.808857282789858E+00;1.249830777093821E+02;
1.056000000000000E+09;-3.861894480196896E+00;1.244609754970908E+02;
1.057000000000000E+09;-3.908772310428195E+00;1.239089251205257E+02;
1.058000000000000E+09;-3.957779948615785E+00;1.233614603544024E+02;
1.059000000000000E+09;-4.005455259657552E+00;1.228486746300558E+02;
1.060000000000000E+09;-4.056098735756975E+00;1.222887041161273E+02;
1.061000000000000E+09;-4.106447492847300E+00;1.217542796909861E+02;
1.062000000000000E+09;-4.158091695741487E+00;1.211920483258125E+02;
1.063000000000000E+09;-4.216358996103159E+00;1.206849995549216E+02;
1.064000000000000E+09;-4.269850968637121E+00;1.201870124393481E+02;
1.065000000000000E+09;-4.328914986757882E+00;1.196522591039088E+02;
1.066000000000000E+09;-4.388094791085270E+00;1.191084962743280E+02;
1.067000000000000E+09;-4.449050358252872E+00;1.186142100653984E+02;
1.068000000000000E+09;-4.519019384971184E+00;1.181253142051124E+02;
1.069000000000000E+09;-4.587766370801898E+00;1.175818514769219E+02;
1.070000000000000E+09;-4.659888663626025E+00;1.170714984202678E+02;
1.071000000000000E+09;-4.733589934659557E+00;1.165853156792028E+02;
1.072000000000000E+09;-4.812520184760164E+00;1.160349628239434E+02;
1.073000000000000E+09;-4.894979309543648E+00;1.155041504558134E+02;
1.074000000000000E+09;-4.984793631317683E+00;1.150158531936874E+02;
1.075000000000000E+09;-5.076923519668871E+00;1.144855332589691E+02;
1.076000000000000E+09;-5.169347301371260E+00;1.139790812585527E+02;
1.077000000000000E+09;-5.277580297680634E+00;1.134198213869043E+02;
1.078000000000000E+09;-5.384647125312860E+00;1.129328808075781E+02;
1.079000000000000E+09;-5.501103528223904E+00;1.123901569676761E+02;
1.080000000000000E+09;-5.629090302917422E+00;1.118658788526128E+02;
1.081000000000000E+09;-5.762891823092863E+00;1.113405598069114E+02;
1.082000000000000E+09;-5.900404826549611E+00;1.108609091304067E+02;
1.083000000000000E+09;-6.052157869156376E+00;1.103652945231519E+02;
1.084000000000000E+09;-6.219651259274959E+00;1.098599368746869E+02;
1.085000000000000E+09;-6.377927468493453E+00;1.094033176669150E+02;
1.086000000000000E+09;-6.557094414698846E+00;1.089640685684265E+02;
1.087000000000000E+09;-6.745144836400266E+00;1.085563370807620E+02;
1.088000000000000E+09;-6.941339564319997E+00;1.081310630573393E+02;
1.089000000000000E+09;-7.145661849958818E+00;1.077449912657629E+02;
1.090000000000000E+09;-7.369344934992561E+00;1.074085734727721E+02;
1.091000000000000E+09;-7.591707509941683E+00;1.070926986997760E+02;
1.092000000000000E+09;-7.829428302933675E+00;1.068067468035131E+02;
1.093000000000000E+09;-8.079030184532956E+00;1.065513658355894E+02;
1.094000000000000E+09;-8.343680422356996E+00;1.063399839120842E+02;
1.095000000000000E+09;-8.620563387225262E+00;1.061330734840001E+02;
1.096000000000000E+09;-8.914486347417753E+00;1.060684492417465E+02;
1.097000000000000E+09;-9.219668045027159E+00;1.060382803812414E+02;
1.098000000000000E+09;-9.543826281977513E+00;1.060544348046532E+02;
1.099000000000000E+09;-9.880835000949224E+00;1.061833090199061E+02;
1.100000000000000E+09;-1.024160082455357E+01;1.063975704998862E+02;
1.101000000000000E+09;-1.061978614319992E+01;1.067590895665633E+02;
1.102000000000000E+09;-1.102514553696816E+01;1.072747090216631E+02;
1.103000000000000E+09;-1.143683350088019E+01;1.079791800671282E+02;
1.104000000000000E+09;-1.187722122397422E+01;1.089520087359912E+02;
1.105000000000000E+09;-1.232300531017835E+01;1.102091120833161E+02;
1.106000000000000E+09;-1.278241050926932E+01;1.116892949448802E+02;
1.107000000000000E+09;-1.323952859908217E+01;1.136722484429633E+02;
1.108000000000000E+09;-1.368774529628772E+01;1.159839767838179E+02;
1.109000000000000E+09;-1.412908834613379E+01;1.186737337898208E+02;
1.110000000000000E+09;-1.454325988545830E+01;1.218021803110679E+02;
1.111000000000000E+09;-1.489573972937740E+01;1.254462910411002E+02;
1.112000000000000E+09;-1.518133004857983E+01;1.294065781808577E+02;
1.113000000000000E+09;-1.540720684019898E+01;1.336339286988748E+02;
1.114000000000000E+09;-1.554488164144017E+01;1.381085991466213E+02;
1.115000000000000E+09;-1.557104864774070E+01;1.426982321593513E+02;
1.116000000000000E+09;-1.552596849947653E+01;1.471723020004437E+02;
1.117000000000000E+09;-1.539403355345800E+01;1.514813143219621E+02;
1.118000000000000E+09;-1.517097611633633E+01;1.555058262086760E+02;
1.119000000000000E+09;-1.488538227024733E+01;1.592588716139675E+02;
1.120000000000000E+09;-1.454095753299528E+01;1.625330100039994E+02;
1.121000000000000E+09;-1.416707997640073E+01;1.653710211989676E+02;
1.122000000000000E+09;-1.376002594095269E+01;1.678953977898387E+02;
1.123000000000000E+09;-1.334116089449923E+01;1.698895099838718E+02;
1.124000000000000E+09;-1.292581028587535E+01;1.715749998670388E+02;
1.125000000000000E+09;-1.251463827260271E+01;1.729582507015252E+02;
1.126000000000000E+09;-1.209355235157719E+01;1.740724616462722E+02;
1.127000000000000E+09;-1.169155815360240E+01;1.749215576976792E+02;
1.128000000000000E+09;-1.129133177688643E+01;1.755583975917327E+02;
1.129000000000000E+09;-1.089914519525344E+01;1.759848318510700E+02;
1.130000000000000E+09;-1.052246982809364E+01;1.761940617397364E+02;
1.131000000000000E+09;-1.016099516817605E+01;1.762409460676848E+02;
1.132000000000000E+09;-9.810200765119671E+00;1.761259370673216E+02;
1.133000000000000E+09;-9.476797074776258E+00;1.758888056648744E+02;
1.134000000000000E+09;-9.147303806997982E+00;1.755749820423183E+02;
1.135000000000000E+09;-8.843894523621964E+00;1.751910388085460E+02;
1.136000000000000E+09;-8.551334866787979E+00;1.747035725509821E+02;
1.137000000000000E+09;-8.260161910138677E+00;1.741663165511223E+02;
1.138000000000000E+09;-7.985644926608778E+00;1.735565190130295E+02;
1.139000000000000E+09;-7.731468655050090E+00;1.728975705277716E+02;
1.140000000000000E+09;-7.481177428317540E+00;1.722317273292071E+02;
1.141000000000000E+09;-7.232976141698577E+00;1.714770092046775E+02;
1.142000000000000E+09;-7.001060798386794E+00;1.707305686841488E+02;
1.143000000000000E+09;-6.776075656679344E+00;1.699432926405485E+02;
1.144000000000000E+09;-6.556216986907635E+00;1.691344643354483E+02;
1.145000000000000E+09;-6.349044939282885E+00;1.683334812041888E+02;
1.146000000000000E+09;-6.152514764684787E+00;1.674729176761739E+02;
1.147000000000000E+09;-5.961825539650096E+00;1.666377954002047E+02;
1.148000000000000E+09;-5.776836535185693E+00;1.658435074913940E+02;
1.149000000000000E+09;-5.598107833678285E+00;1.650155680534683E+02;
1.150000000000000E+09;-5.422670395995635E+00;1.641217406843047E+02;
1.151000000000000E+09;-5.253722960869057E+00;1.633137233577312E+02;
1.152000000000000E+09;-5.096194694424966E+00;1.624467116179460E+02;
1.153000000000000E+09;-4.941473062474273E+00;1.616096226783484E+02;
1.154000000000000E+09;-4.785438886717038E+00;1.607671814978263E+02;
1.155000000000000E+09;-4.643483810301444E+00;1.599381976136632E+02;
1.156000000000000E+09;-4.502714799611165E+00;1.591244566440310E+02;
1.157000000000000E+09;-4.371543372699739E+00;1.583148583328895E+02;
1.158000000000000E+09;-4.240761989898140E+00;1.575331880021033E+02;
1.159000000000000E+09;-4.115905607794178E+00;1.567288593359337E+02;
1.160000000000000E+09;-3.996329080958374E+00;1.559605682656709E+02;
1.161000000000000E+09;-3.882152053790419E+00;1.551963764731396E+02;
1.162000000000000E+09;-3.767635799871449E+00;1.544538790723749E+02;
1.163000000000000E+09;-3.662459949118515E+00;1.537021033757763E+02;
1.164000000000000E+09;-3.558364309433188E+00;1.529693204447634E+02;
1.165000000000000E+09;-3.457176451215687E+00;1.522504737899532E+02;
1.166000000000000E+09;-3.365734772150859E+00;1.515720292375720E+02;
1.167000000000000E+09;-3.275666280320883E+00;1.508668604762501E+02;
1.168000000000000E+09;-3.188696885030346E+00;1.502109348144840E+02;
1.169000000000000E+09;-3.106004788831134E+00;1.495642730169466E+02;
1.170000000000000E+09;-3.023615589203224E+00;1.489216728075405E+02;
1.171000000000000E+09;-2.943306736065719E+00;1.482647154222233E+02;
1.172000000000000E+09;-2.871182378909886E+00;1.476404324246280E+02;
1.173000000000000E+09;-2.800469744616152E+00;1.470181548077733E+02;
1.174000000000000E+09;-2.731075963945035E+00;1.464262067426363E+02;
1.175000000000000E+09;-2.665283495547030E+00;1.458217160327836E+02;
1.176000000000000E+09;-2.602759458849626E+00;1.452239878050298E+02;
1.177000000000000E+09;-2.542331699874591E+00;1.446558648778445E+02;
1.178000000000000E+09;-2.487041442492866E+00;1.440724643116026E+02;
1.179000000000000E+09;-2.432013714725524E+00;1.434678082552531E+02;
1.180000000000000E+09;-2.382832608994825E+00;1.429102999273221E+02;
1.181000000000000E+09;-2.336688109685297E+00;1.423579143291169E+02;
1.182000000000000E+09;-2.294954239894381E+00;1.417959463702084E+02;
1.183000000000000E+09;-2.251494340322103E+00;1.412403620697323E+02;
1.184000000000000E+09;-2.212464235371056E+00;1.406890908490803E+02;
1.185000000000000E+09;-2.179812327468648E+00;1.401613716154125E+02;
1.186000000000000E+09;-2.146108514891849E+00;1.396140668222703E+02;
1.187000000000000E+09;-2.109328674954845E+00;1.390678332052582E+02;
1.188000000000000E+09;-2.084413682145764E+00;1.385387556733575E+02;
1.189000000000000E+09;-2.060479352458217E+00;1.380027211792687E+02;
1.190000000000000E+09;-2.036734579807630E+00;1.374980085315558E+02;
1.191000000000000E+09;-2.011139135752940E+00;1.369595486345490E+02;
1.192000000000000E+09;-1.995220498038612E+00;1.364463049965241E+02;
1.193000000000000E+09;-1.975887522806294E+00;1.359358421703277E+02;
1.194000000000000E+09;-1.958385667071429E+00;1.353826168048615E+02;
1.195000000000000E+09;-1.943533204134095E+00;1.348923759851883E+02;
1.196000000000000E+09;-1.930846007701845E+00;1.343821869245897E+02;
1.197000000000000E+09;-1.918343160744384E+00;1.338429745107869E+02;
1.198000000000000E+09;-1.911222638385734E+00;1.333148210146188E+02;
1.199000000000000E+09;-1.900046506251929E+00;1.328054195338588E+02;
1.200000000000000E+09;-1.893769081755137E+00;1.322877164265433E+02;
1.201000000000000E+09;-1.887350899646927E+00;1.317375093959192E+02;
1.202000000000000E+09;-1.880477965295752E+00;1.311930394068176E+02;
1.203000000000000E+09;-1.877570873597851E+00;1.306504355867669E+02;
1.204000000000000E+09;-1.873000914142522E+00;1.301059781103621E+02;
1.205000000000000E+09;-1.873274229623524E+00;1.295741635038653E+02;
1.206000000000000E+09;-1.874755736076187E+00;1.290311633352743E+02;
1.207000000000000E+09;-1.875916298666735E+00;1.284858287583591E+02;
1.208000000000000E+09;-1.874041587165022E+00;1.279310830580974E+02;
1.209000000000000E+09;-1.872855258915290E+00;1.273558097792948E+02;
1.210000000000000E+09;-1.874547520389092E+00;1.268334827798629E+02;
1.211000000000000E+09;-1.878400067240471E+00;1.262473769110229E+02;
1.212000000000000E+09;-1.877762857297575E+00;1.257007272037289E+02;
1.213000000000000E+09;-1.880242553001549E+00;1.250953130254517E+02;
1.214000000000000E+09;-1.879696396954134E+00;1.245474351584751E+02;
1.215000000000000E+09;-1.877906191403595E+00;1.239596208176505E+02;
1.216000000000000E+09;-1.880578276801205E+00;1.233689350931715E+02;
1.217000000000000E+09;-1.881133962328106E+00;1.227771527853879E+02;
1.218000000000000E+09;-1.881083701163276E+00;1.221650481849244E+02;
1.219000000000000E+09;-1.887397194551753E+00;1.215645469643237E+02;
1.220000000000000E+09;-1.884530359761945E+00;1.209393424825893E+02;
1.221000000000000E+09;-1.885428734981854E+00;1.203454647024087E+02;
1.222000000000000E+09;-1.892304859322966E+00;1.197636794503866E+02;
1.223000000000000E+09;-1.891407272898018E+00;1.191482135741000E+02;
1.224000000000000E+09;-1.890817432869716E+00;1.185383573406383E+02;
1.225000000000000E+09;-1.888795310071941E+00;1.179658033229487E+02;
1.226000000000000E+09;-1.887363320712585E+00;1.173568711037178E+02;
1.227000000000000E+09;-1.886283023903248E+00;1.167535609950487E+02;
1.228000000000000E+09;-1.887136770426662E+00;1.161552345210646E+02;
1.229000000000000E+09;-1.880189612847523E+00;1.155665804837010E+02;
1.230000000000000E+09;-1.880658286164997E+00;1.150090385741614E+02;
1.231000000000000E+09;-1.876053495518057E+00;1.144133586002083E+02;
1.232000000000000E+09;-1.864804258128042E+00;1.138231545174440E+02;
1.233000000000000E+09;-1.862305293387847E+00;1.132836224460691E+02;
1.234000000000000E+09;-1.852984979755052E+00;1.127047243177935E+02;
1.235000000000000E+09;-1.849582553244321E+00;1.121353439973440E+02;
1.236000000000000E+09;-1.833932037497429E+00;1.116025058602419E+02;
1.237000000000000E+09;-1.822803037053203E+00;1.110293678009230E+02;
1.238000000000000E+09;-1.816197282904415E+00;1.105039851080682E+02;
1.239000000000000E+09;-1.799476892909315E+00;1.099691342128699E+02;
1.240000000000000E+09;-1.786524179817025E+00;1.094328094779254E+02;
1.241000000000000E+09;-1.770455085883914E+00;1.089194037787198E+02;
1.242000000000000E+09;-1.754718805876567E+00;1.083917029351473E+02;
1.243000000000000E+09;-1.741191263763615E+00;1.078995856111680E+02;
1.244000000000000E+09;-1.721751345686934E+00;1.074291022755712E+02;
1.245000000000000E+09;-1.708490847044245E+00;1.068908392420414E+02;
1.246000000000000E+09;-1.691999584505591E+00;1.064231960241432E+02;
1.247000000000000E+09;-1.669787356821252E+00;1.059276080874716E+02;
1.248000000000000E+09;-1.652076822177899E+00;1.054657866627019E+02;
1.249000000000000E+09;-1.632504824992296E+00;1.050076484691708E+02;
1.250000000000000E+09;-1.613770373977211E+00;1.045542563791393E+02;
1.251000000000000E+09;-1.598671412617445E+00;1.041024047370211E+02;
1.252000000000000E+09;-1.577596223675080E+00;1.036891929404627E+02;
1.253000000000000E+09;-1.558941521387486E+00;1.032768695025851E+02;
1.254000000000000E+09;-1.539069112276961E+00;1.028392054282806E+02;
1.255000000000000E+09;-1.518588304993964E+00;1.024260152869001E+02;
1.256000000000000E+09;-1.501618213973284E+00;1.020219948377587E+02;
1.257000000000000E+09;-1.481146304159022E+00;1.016404711055694E+02;
1.258000000000000E+09;-1.461655567974327E+00;1.012332779998677E+02;
1.259000000000000E+09;-1.444024853393654E+00;1.008186031695725E+02;
1.260000000000000E+09;-1.422429247736641E+00;1.004323184387839E+02;
1.261000000000000E+09;-1.406665666960615E+00;1.000698846858185E+02;
1.262000000000000E+09;-1.390805938125947E+00;9.967720299517305E+01;
1.263000000000000E+09;-1.370476298183418E+00;9.932394547105744E+01;
1.264000000000000E+09;-1.354355321342683E+00;9.890488890716446E+01;
1.265000000000000E+09;-1.338531493756267E+00;9.855744033659487E+01;
1.266000000000000E+09;-1.324839951294672E+00;9.822388714366305E+01;
1.267000000000000E+09;-1.309670927583466E+00;9.783111470990748E+01;
1.268000000000000E+09;-1.296624986184152E+00;9.746473563786671E+01;
1.269000000000000E+09;-1.284507236815821E+00;9.709462799947839E+01;
1.270000000000000E+09;-1.272817567941762E+00;9.673629905584579E+01;
1.271000000000000E+09;-1.260999282317339E+00;9.639182825789042E+01;
1.272000000000000E+09;-1.252243063706031E+00;9.601930424596121E+01;
1.273000000000000E+09;-1.247365831891027E+00;9.565590026280087E+01;
1.274000000000000E+09;-1.237447872399308E+00;9.529476668960018E+01;
1.275000000000000E+09;-1.227532694067669E+00;9.493170854443737E+01;
1.276000000000000E+09;-1.220573185962085E+00;9.457613768774345E+01;
1.277000000000000E+09;-1.217641080207097E+00;9.421118357991351E+01;
1.278000000000000E+09;-1.212988610983158E+00;9.384675735259114E+01;
1.279000000000000E+09;-1.206657744112527E+00;9.347855412068624E+01;
1.280000000000000E+09;-1.203443500908933E+00;9.312181351438878E+01;
1.281000000000000E+09;-1.201066576446397E+00;9.274645718082215E+01;
1.282000000000000E+09;-1.201656238743399E+00;9.237224607091989E+01;
1.283000000000000E+09;-1.203120816902247E+00;9.196549299912209E+01;
1.284000000000000E+09;-1.193444746881952E+00;9.162600348827965E+01;
1.285000000000000E+09;-1.205845528507412E+00;9.123713430484804E+01;
1.286000000000000E+09;-1.204736965145251E+00;9.081622711272698E+01;
1.287000000000000E+09;-1.204900394846242E+00;9.040074423133944E+01;
1.288000000000000E+09;-1.208212169772651E+00;8.999025363015161E+01;
1.289000000000000E+09;-1.210016693930545E+00;8.958413612962602E+01;
1.290000000000000E+09;-1.220729683834936E+00;8.919716544815147E+01;
1.291000000000000E+09;-1.222961780333575E+00;8.874625341023821E+01;
1.292000000000000E+09;-1.229085877333897E+00;8.833373726420807E+01;
