# Version 1.00
#
freq[Hz];db:Trc4_S11;ang:Trc4_S11;
1.000000000000000E+09;-1.294095014820715E+00;1.580218456249558E+02;
1.001000000000000E+09;-1.318563488173824E+00;1.575759401496411E+02;
1.002000000000000E+09;-1.344152175519170E+00;1.571179741340423E+02;
1.003000000000000E+09;-1.370487186029523E+00;1.566661918882274E+02;
1.004000000000000E+09;-1.401448217882510E+00;1.561648011260964E+02;
1.005000000000000E+09;-1.426986760370270E+00;1.557167807163882E+02;
1.006000000000000E+09;-1.455770570897036E+00;1.551992982157193E+02;
1.007000000000000E+09;-1.488752641905280E+00;1.546949973888459E+02;
1.008000000000000E+09;-1.522295925498510E+00;1.542079160878384E+02;
1.009000000000000E+09;-1.556243499601906E+00;1.537110149732593E+02;
1.010000000000000E+09;-1.591470632332531E+00;1.531820499470358E+02;
1.011000000000000E+09;-1.628556304800328E+00;1.526217182997283E+02;
1.012000000000000E+09;-1.664052058050965E+00;1.520739205545977E+02;
1.013000000000000E+09;-1.698700148162555E+00;1.515250818206817E+02;
1.014000000000000E+09;-1.736475864673162E+00;1.509493115376619E+02;
1.015000000000000E+09;-1.779908867660014E+00;1.503798991839606E+02;
1.016000000000000E+09;-1.819707022926167E+00;1.498002554269341E+02;
1.017000000000000E+09;-1.860759735509395E+00;1.491735139729759E+02;
1.018000000000000E+09;-1.907279642000324E+00;1.485609819763467E+02;
1.019000000000000E+09;-1.955068359252663E+00;1.479415916541407E+02;
1.020000000000000E+09;-2.000027493352924E+00;1.473356651813351E+02;
1.021000000000000E+09;-2.048455696100917E+00;1.466785956891088E+02;
1.022000000000000E+09;-2.097692103708722E+00;1.460399678896594E+02;
1.023000000000000E+09;-2.151302313788668E+00;1.453827339593784E+02;
1.024000000000000E+09;-2.204241458895122E+00;1.447481351540982E+02;
1.025000000000000E+09;-2.258569621314934E+00;1.440667166735429E+02;
1.026000000000000E+09;-2.309573907210085E+00;1.434187818888637E+02;
1.027000000000000E+09;-2.362737903827382E+00;1.427858588704645E+02;
1.028000000000000E+09;-2.414860534078298E+00;1.420866339798785E+02;
1.029000000000000E+09;-2.468515251345761E+00;1.414296959063973E+02;
1.030000000000000E+09;-2.526494275083651E+00;1.407527031635150E+02;
1.031000000000000E+09;-2.582559097053451E+00;1.400918160868297E+02;
1.032000000000000E+09;-2.636629182457903E+00;1.393881954245502E+02;
1.033000000000000E+09;-2.691220546880053E+00;1.387104616635959E+02;
1.034000000000000E+09;-2.748272366696461E+00;1.380756715090930E+02;
1.035000000000000E+09;-2.804609128717479E+00;1.374083353050557E+02;
1.036000000000000E+09;-2.860178696839566E+00;1.367068709021336E+02;
1.037000000000000E+09;-2.914771922012974E+00;1.360362429152133E+02;
1.038000000000000E+09;-2.966305149519722E+00;1.354260097952512E+02;
1.039000000000000E+09;-3.022146888422457E+00;1.347795134762003E+02;
1.040000000000000E+09;-3.071971750302168E+00;1.340981961593178E+02;
1.041000000000000E+09;-3.128237166732764E+00;1.334490798234543E+02;
1.042000000000000E+09;-3.182032196817421E+00;1.328198709422267E+02;
1.043000000000000E+09;-3.227721777384410E+00;1.321694124203696E+02;
1.044000000000000E+09;-3.281007046618662E+00;1.314971362521968E+02;
1.045000000000000E+09;-3.333820986540066E+00;1.309008182446642E+02;
1.046000000000000E+09;-3.379271436015616E+00;1.302928313641599E+02;
1.047000000000000E+09;-3.431568857243558E+00;1.296370694899574E+02;
1.048000000000000E+09;-3.479288251523940E+00;1.290505018066702E+02;
1.049000000000000E+09;-3.530501829987362E+00;1.284673658074430E+02;
1.050000000000000E+09;-3.580926038369719E+00;1.278420265270312E+02;
1.051000000000000E+09;-3.626340713837624E+00;1.272501415463106E+02;
1.052000000000000E+09;-3.675147351806554E+00;1.266688341731868E+02;
1.053000000000000E+09;-3.724448654838435E+00;1.260830737260790E+02;
1.054000000000000E+09;-3.770903503922709E+00;1.254767884061584E+02;
1.055000000000000E+09;-3.812910134155494E+00;1.249101600925822E+02;
1.056000000000000E+09;-3.866187246100730E+00;1.243597508683279E+02;
1.057000000000000E+09;-3.909568314580782E+00;1.238115895139105E+02;
1.058000000000000E+09;-3.962285248761865E+00;1.232344885121485E+02;
1.059000000000000E+09;-4.013160419074452E+00;1.226820806563437E+02;
1.060000000000000E+09;-4.061056224480323E+00;1.221084743718651E+02;
1.061000000000000E+09;-4.114462223850374E+00;1.215546543908714E+02;
1.062000000000000E+09;-4.167907774446315E+00;1.209750498898421E+02;
1.063000000000000E+09;-4.224523170898184E+00;1.204553872564789E+02;
1.064000000000000E+09;-4.276951353049276E+00;1.199165105536296E+02;
1.065000000000000E+09;-4.339554044758111E+00;1.193683942120298E+02;
1.066000000000000E+09;-4.402920071697190E+00;1.188126069118671E+02;
1.067000000000000E+09;-4.469094083040078E+00;1.182862835224802E+02;
1.068000000000000E+09;-4.535995901702828E+00;1.177683360312986E+02;
1.069000000000000E+09;-4.606276927907562E+00;1.171938790326762E+02;
1.070000000000000E+09;-4.682806027294736E+00;1.166566284097312E+02;
1.071000000000000E+09;-4.760639848152552E+00;1.161411866678006E+02;
1.072000000000000E+09;-4.842487043211347E+00;1.156073149997257E+02;
1.073000000000000E+09;-4.924617120841789E+00;1.150950085824201E+02;
1.074000000000000E+09;-5.014333464025670E+00;1.145612860826661E+02;
1.075000000000000E+09;-5.107139641799586E+00;1.140177884553417E+02;
1.076000000000000E+09;-5.205382252366784E+00;1.134800535886032E+02;
1.077000000000000E+09;-5.309182956757309E+00;1.129011152181075E+02;
1.078000000000000E+09;-5.421146820695974E+00;1.123889332870753E+02;
1.079000000000000E+09;-5.536145210105142E+00;1.118223895381529E+02;
1.080000000000000E+09;-5.666331257020251E+00;1.112258665765834E+02;
1.081000000000000E+09;-5.800225545986112E+00;1.106627408574804E+02;
1.082000000000000E+09;-5.946214794153674E+00;1.101106913593480E+02;
1.083000000000000E+09;-6.104310138851124E+00;1.095598881565819E+02;
1.084000000000000E+09;-6.276613381084040E+00;1.089990947898056E+02;
1.085000000000000E+09;-6.447120015808188E+00;1.085104321817274E+02;
1.086000000000000E+09;-6.636655961595598E+00;1.080530211076558E+02;
1.087000000000000E+09;-6.832757891490315E+00;1.076117687379658E+02;
1.088000000000000E+09;-7.038625884168602E+00;1.071662093240980E+02;
1.089000000000000E+09;-7.252701724559251E+00;1.067850095502750E+02;
1.090000000000000E+09;-7.480635275629053E+00;1.064092939744002E+02;
1.091000000000000E+09;-7.712646047372552E+00;1.060756121541749E+02;
1.092000000000000E+09;-7.958186332150241E+00;1.057327956514368E+02;
1.093000000000000E+09;-8.219409434632540E+00;1.054896179267519E+02;
1.094000000000000E+09;-8.495728940976095E+00;1.052129033618790E+02;
1.095000000000000E+09;-8.788939445548710E+00;1.049723941602014E+02;
1.096000000000000E+09;-9.099275805780962E+00;1.048533622358552E+02;
1.097000000000000E+09;-9.423834642574743E+00;1.048427338842493E+02;
1.098000000000000E+09;-9.762537592816754E+00;1.048528229597370E+02;
1.099000000000000E+09;-1.013131342308461E+01;1.049847925225656E+02;
1.100000000000000E+09;-1.051023969613387E+01;1.052643196954512E+02;
1.101000000000000E+09;-1.090891590932240E+01;1.056698659283024E+02;
1.102000000000000E+09;-1.132691836953252E+01;1.062488340260943E+02;
1.103000000000000E+09;-1.176090865692933E+01;1.070361487075741E+02;
1.104000000000000E+09;-1.221316733637255E+01;1.080662093465601E+02;
1.105000000000000E+09;-1.267816735315546E+01;1.093751274773370E+02;
1.106000000000000E+09;-1.315682476511248E+01;1.109663021724920E+02;
1.107000000000000E+09;-1.363757321295180E+01;1.129332078764383E+02;
1.108000000000000E+09;-1.410900879913531E+01;1.153537706387040E+02;
1.109000000000000E+09;-1.458307772152933E+01;1.180744397664542E+02;
1.110000000000000E+09;-1.502716907042371E+01;1.213133407589425E+02;
1.111000000000000E+09;-1.543100733641470E+01;1.251279693486769E+02;
1.112000000000000E+09;-1.577024463894979E+01;1.294607308084995E+02;
1.113000000000000E+09;-1.604954627894236E+01;1.340265528520137E+02;
1.114000000000000E+09;-1.622108273207516E+01;1.390185914665874E+02;
1.115000000000000E+09;-1.626492248684757E+01;1.443068074629236E+02;
1.116000000000000E+09;-1.620505875187925E+01;1.494063426818689E+02;
1.117000000000000E+09;-1.603132630544717E+01;1.543600085438478E+02;
1.118000000000000E+09;-1.573425718844421E+01;1.588887194093479E+02;
1.119000000000000E+09;-1.538297947703506E+01;1.631156214169148E+02;
1.120000000000000E+09;-1.496680300369776E+01;1.666237264643084E+02;
1.121000000000000E+09;-1.451089983897430E+01;1.696757198127777E+02;
1.122000000000000E+09;-1.402630639713453E+01;1.722994126203465E+02;
1.123000000000000E+09;-1.353798528094680E+01;1.743067078251848E+02;
1.124000000000000E+09;-1.304638022664248E+01;1.759373828714968E+02;
1.125000000000000E+09;-1.257359004068068E+01;1.771256662777035E+02;
1.126000000000000E+09;-1.209957545110083E+01;1.780660920624797E+02;
1.127000000000000E+09;-1.165342657013071E+01;1.786961575480171E+02;
1.128000000000000E+09;-1.121684398129922E+01;1.791079095247658E+02;
1.129000000000000E+09;-1.081048364807565E+01;1.792872820522439E+02;
1.130000000000000E+09;-1.041436645810606E+01;1.792957733185044E+02;
1.131000000000000E+09;-1.004036747341496E+01;1.791774073379033E+02;
1.132000000000000E+09;-9.683820593239732E+00;1.788998264087698E+02;
1.133000000000000E+09;-9.343065734975093E+00;1.785261418844727E+02;
1.134000000000000E+09;-9.012120442224020E+00;1.781460739941654E+02;
1.135000000000000E+09;-8.701251371503439E+00;1.776394789259691E+02;
1.136000000000000E+09;-8.402535746271646E+00;1.770535912400470E+02;
1.137000000000000E+09;-8.103025315427990E+00;1.764358914589357E+02;
1.138000000000000E+09;-7.827308178359860E+00;1.756992986361252E+02;
1.139000000000000E+09;-7.569783255341449E+00;1.749452593741694E+02;
1.140000000000000E+09;-7.313791605067799E+00;1.742113834887174E+02;
1.141000000000000E+09;-7.067387903181240E+00;1.733740634630914E+02;
1.142000000000000E+09;-6.835706788666864E+00;1.725510494860951E+02;
1.143000000000000E+09;-6.614669632218090E+00;1.716757414498772E+02;
1.144000000000000E+09;-6.397686357942336E+00;1.708631026021592E+02;
1.145000000000000E+09;-6.189805016590437E+00;1.700232471126826E+02;
1.146000000000000E+09;-5.990610988573390E+00;1.691084916808340E+02;
1.147000000000000E+09;-5.797682937057232E+00;1.682171312879362E+02;
1.148000000000000E+09;-5.612740234785292E+00;1.673446574853984E+02;
1.149000000000000E+09;-5.433249246942703E+00;1.664526411453810E+02;
1.150000000000000E+09;-5.259040795652570E+00;1.655291016490096E+02;
1.151000000000000E+09;-5.090663413680358E+00;1.646471663713200E+02;
1.152000000000000E+09;-4.929586753365780E+00;1.637458655474499E+02;
1.153000000000000E+09;-4.774673409262554E+00;1.628571508186429E+02;
1.154000000000000E+09;-4.625308563748040E+00;1.619509743300466E+02;
1.155000000000000E+09;-4.489731958795657E+00;1.610811580241451E+02;
1.156000000000000E+09;-4.348797527121063E+00;1.602532100234092E+02;
1.157000000000000E+09;-4.221473605455451E+00;1.593814790177605E+02;
1.158000000000000E+09;-4.097817421689171E+00;1.585666523891601E+02;
1.159000000000000E+09;-3.976732663804913E+00;1.577598064365934E+02;
1.160000000000000E+09;-3.863137446910067E+00;1.569731192064680E+02;
1.161000000000000E+09;-3.754062757636595E+00;1.561959880613177E+02;
1.162000000000000E+09;-3.644701942218781E+00;1.554307166081313E+02;
1.163000000000000E+09;-3.540279113927544E+00;1.547128026876169E+02;
1.164000000000000E+09;-3.434121668965461E+00;1.539657467511447E+02;
1.165000000000000E+09;-3.337777206319374E+00;1.532389454304373E+02;
1.166000000000000E+09;-3.241774227791757E+00;1.525425503870215E+02;
1.167000000000000E+09;-3.152056107876370E+00;1.518289856583117E+02;
1.168000000000000E+09;-3.065777684912112E+00;1.511349978545935E+02;
1.169000000000000E+09;-2.983482105198926E+00;1.504485429074706E+02;
1.170000000000000E+09;-2.908195268060058E+00;1.497853505695018E+02;
1.171000000000000E+09;-2.832315668148067E+00;1.491319381631723E+02;
1.172000000000000E+09;-2.761161297609985E+00;1.485065820550595E+02;
1.173000000000000E+09;-2.692423078472595E+00;1.478743085959584E+02;
1.174000000000000E+09;-2.624809281315022E+00;1.472703519586935E+02;
1.175000000000000E+09;-2.561895921272221E+00;1.466672116021107E+02;
1.176000000000000E+09;-2.503111542332502E+00;1.460498826487299E+02;
1.177000000000000E+09;-2.445037223869473E+00;1.454797968677932E+02;
1.178000000000000E+09;-2.390835959698452E+00;1.448874122173489E+02;
1.179000000000000E+09;-2.335563647797910E+00;1.442986935353426E+02;
1.180000000000000E+09;-2.290912870452994E+00;1.437403663111626E+02;
1.181000000000000E+09;-2.245591497129189E+00;1.432101292198395E+02;
1.182000000000000E+09;-2.202448956346195E+00;1.426374541751088E+02;
1.183000000000000E+09;-2.158772417235922E+00;1.420811829526974E+02;
1.184000000000000E+09;-2.120391628520583E+00;1.415247293419931E+02;
1.185000000000000E+09;-2.085028153060074E+00;1.409839006468336E+02;
1.186000000000000E+09;-2.048139577456225E+00;1.404624081302104E+02;
1.187000000000000E+09;-2.017758186313260E+00;1.398935667456992E+02;
1.188000000000000E+09;-1.990605862846619E+00;1.393604189040243E+02;
1.189000000000000E+09;-1.965111766448198E+00;1.388336609070122E+02;
1.190000000000000E+09;-1.942393379448330E+00;1.382804995654294E+02;
1.191000000000000E+09;-1.922887743351577E+00;1.377521980438123E+02;
1.192000000000000E+09;-1.900578733788246E+00;1.372464291968623E+02;
1.193000000000000E+09;-1.886049406665185E+00;1.367149213521326E+02;
1.194000000000000E+09;-1.872017393282175E+00;1.361830029538844E+02;
1.195000000000000E+09;-1.860276087944779E+00;1.356606573385312E+02;
1.196000000000000E+09;-1.844550342780669E+00;1.351569656736321E+02;
1.197000000000000E+09;-1.833823722290962E+00;1.346049700313632E+02;
1.198000000000000E+09;-1.825386592161983E+00;1.340844635491031E+02;
1.199000000000000E+09;-1.816845899575057E+00;1.336004841468083E+02;
1.200000000000000E+09;-1.809303785844314E+00;1.330469692017713E+02;
1.201000000000000E+09;-1.803114836764737E+00;1.325100666703285E+02;
1.202000000000000E+09;-1.797417274248509E+00;1.319730340794568E+02;
1.203000000000000E+09;-1.793154860512503E+00;1.314275246992781E+02;
1.204000000000000E+09;-1.791742091447896E+00;1.308778362729431E+02;
1.205000000000000E+09;-1.788462771462379E+00;1.303396826784981E+02;
1.206000000000000E+09;-1.788663208186646E+00;1.297723825426543E+02;
1.207000000000000E+09;-1.790244143260456E+00;1.292314960782749E+02;
1.208000000000000E+09;-1.787518120072188E+00;1.286560733212744E+02;
1.209000000000000E+09;-1.789943648894644E+00;1.280889530774862E+02;
1.210000000000000E+09;-1.793277820240863E+00;1.275216821961492E+02;
1.211000000000000E+09;-1.795592629128937E+00;1.269455762510595E+02;
1.212000000000000E+09;-1.800469331740630E+00;1.263741107240698E+02;
1.213000000000000E+09;-1.803543120629931E+00;1.257713568472107E+02;
1.214000000000000E+09;-1.809494234769522E+00;1.252211473473139E+02;
1.215000000000000E+09;-1.808998786108607E+00;1.246406900105112E+02;
1.216000000000000E+09;-1.813404120628228E+00;1.240468325037472E+02;
1.217000000000000E+09;-1.814795720365655E+00;1.234707882261283E+02;
1.218000000000000E+09;-1.818284563932028E+00;1.228808331099694E+02;
1.219000000000000E+09;-1.823866823639843E+00;1.222857261164813E+02;
1.220000000000000E+09;-1.824280985020656E+00;1.216769695793001E+02;
1.221000000000000E+09;-1.823635644377704E+00;1.210853028712660E+02;
1.222000000000000E+09;-1.829945389094192E+00;1.205004226088324E+02;
1.223000000000000E+09;-1.827640223247753E+00;1.199028994409370E+02;
1.224000000000000E+09;-1.827931259564324E+00;1.192784097903420E+02;
1.225000000000000E+09;-1.824712875062894E+00;1.186816294986808E+02;
1.226000000000000E+09;-1.822345941425635E+00;1.180935669687825E+02;
1.227000000000000E+09;-1.822797045921898E+00;1.174662561215396E+02;
1.228000000000000E+09;-1.821051589627537E+00;1.168710421254817E+02;
1.229000000000000E+09;-1.819068861004003E+00;1.162789941338973E+02;
1.230000000000000E+09;-1.814866956765549E+00;1.156767711176086E+02;
1.231000000000000E+09;-1.809423879730816E+00;1.151010954487860E+02;
1.232000000000000E+09;-1.803717280374027E+00;1.145040107313452E+02;
1.233000000000000E+09;-1.795641648500979E+00;1.139189856880271E+02;
1.234000000000000E+09;-1.789976469408401E+00;1.133349807081295E+02;
1.235000000000000E+09;-1.786637939800641E+00;1.127620932592232E+02;
1.236000000000000E+09;-1.777911674234320E+00;1.122287993417544E+02;
1.237000000000000E+09;-1.766645124409070E+00;1.116430254973777E+02;
1.238000000000000E+09;-1.761878332233268E+00;1.111003622773356E+02;
1.239000000000000E+09;-1.748127951514439E+00;1.105650810216903E+02;
1.240000000000000E+09;-1.734889831138911E+00;1.100170906800751E+02;
1.241000000000000E+09;-1.721968895042255E+00;1.094773450663544E+02;
1.242000000000000E+09;-1.709947006429483E+00;1.089776809183098E+02;
1.243000000000000E+09;-1.695868018650184E+00;1.084483313389149E+02;
1.244000000000000E+09;-1.676741532984852E+00;1.079602543831440E+02;
1.245000000000000E+09;-1.661738633202705E+00;1.074707394133791E+02;
1.246000000000000E+09;-1.645803126248121E+00;1.069840867705807E+02;
1.247000000000000E+09;-1.626291009023652E+00;1.065020292557602E+02;
1.248000000000000E+09;-1.608305011812103E+00;1.060155257246760E+02;
1.249000000000000E+09;-1.593623644612884E+00;1.055577697566751E+02;
1.250000000000000E+09;-1.573054147384652E+00;1.050774997009412E+02;
1.251000000000000E+09;-1.556136342601851E+00;1.046370829575698E+02;
1.252000000000000E+09;-1.535427849808192E+00;1.042045224634555E+02;
1.253000000000000E+09;-1.516893721786908E+00;1.037689605828307E+02;
1.254000000000000E+09;-1.500283257609791E+00;1.033242130296627E+02;
1.255000000000000E+09;-1.479957356425181E+00;1.028900252019906E+02;
1.256000000000000E+09;-1.464403355924013E+00;1.024595937054529E+02;
1.257000000000000E+09;-1.447182281420010E+00;1.020817529317908E+02;
1.258000000000000E+09;-1.427985860214712E+00;1.016729491456399E+02;
1.259000000000000E+09;-1.409708257150768E+00;1.012510182971182E+02;
1.260000000000000E+09;-1.392658203027662E+00;1.008558769311539E+02;
1.261000000000000E+09;-1.375120158206750E+00;1.004934294677860E+02;
1.262000000000000E+09;-1.361066908635800E+00;1.001004526574928E+02;
1.263000000000000E+09;-1.343118125654583E+00;9.974135460104253E+01;
1.264000000000000E+09;-1.329003091774129E+00;9.931507316921709E+01;
1.265000000000000E+09;-1.311874391533518E+00;9.895766448429583E+01;
1.266000000000000E+09;-1.300826660783299E+00;9.861151275915218E+01;
1.267000000000000E+09;-1.287273961148797E+00;9.822950983709688E+01;
1.268000000000000E+09;-1.275099259861898E+00;9.784672860137462E+01;
1.269000000000000E+09;-1.262065183845277E+00;9.747157459438024E+01;
1.270000000000000E+09;-1.251651459744075E+00;9.712064652217406E+01;
1.271000000000000E+09;-1.240579922685357E+00;9.677216624862785E+01;
1.272000000000000E+09;-1.232485900616062E+00;9.638793156671929E+01;
1.273000000000000E+09;-1.225467234359244E+00;9.602138121522027E+01;
1.274000000000000E+09;-1.218348202759445E+00;9.563911159921948E+01;
1.275000000000000E+09;-1.211045925563306E+00;9.531410007278508E+01;
1.276000000000000E+09;-1.201041968157377E+00;9.491934085866421E+01;
1.277000000000000E+09;-1.197160279310894E+00;9.456538149133347E+01;
1.278000000000000E+09;-1.198489944662642E+00;9.417652145238404E+01;
1.279000000000000E+09;-1.193721364688664E+00;9.381795416510911E+01;
1.280000000000000E+09;-1.190023950152513E+00;9.346121299297799E+01;
1.281000000000000E+09;-1.187863774962500E+00;9.310357839186808E+01;
1.282000000000000E+09;-1.189744000062980E+00;9.269572391918680E+01;
1.283000000000000E+09;-1.190476544778161E+00;9.228786067396494E+01;
1.284000000000000E+09;-1.186247311929183E+00;9.193076755368267E+01;
1.285000000000000E+09;-1.194565037747232E+00;9.153235977202141E+01;
1.286000000000000E+09;-1.197802625880367E+00;9.113966392176630E+01;
1.287000000000000E+09;-1.199480629447269E+00;9.073851742433986E+01;
1.288000000000000E+09;-1.204402526085562E+00;9.032643261332868E+01;
1.289000000000000E+09;-1.207671861067130E+00;8.992989342816104E+01;
1.290000000000000E+09;-1.215527731567364E+00;8.952653370244619E+01;
1.291000000000000E+09;-1.217300086668122E+00;8.910711729706014E+01;
1.292000000000000E+09;-1.225145096733973E+00;8.868469138345452E+01;
