# Version 1.00
#
freq[Hz];db:Trc4_S11;ang:Trc4_S11;
1.000000000000000E+09;-1.317701226469481E+00;1.575756137229641E+02;
1.001000000000000E+09;-1.341729781006440E+00;1.571222015176170E+02;
1.002000000000000E+09;-1.369396419948432E+00;1.566592668301824E+02;
1.003000000000000E+09;-1.396654904427090E+00;1.561796935792327E+02;
1.004000000000000E+09;-1.427472134679800E+00;1.557072250260302E+02;
1.005000000000000E+09;-1.454643990730818E+00;1.552119548414601E+02;
1.006000000000000E+09;-1.483993050811083E+00;1.547156206272585E+02;
1.007000000000000E+09;-1.518083540321436E+00;1.541858569375901E+02;
1.008000000000000E+09;-1.551850716053188E+00;1.537035497441783E+02;
1.009000000000000E+09;-1.586893129866336E+00;1.531826542075989E+02;
1.010000000000000E+09;-1.622154253230373E+00;1.526536889725323E+02;
1.011000000000000E+09;-1.663494377310297E+00;1.521010749020711E+02;
1.012000000000000E+09;-1.701379915480802E+00;1.515556616148479E+02;
1.013000000000000E+09;-1.738791150213300E+00;1.510202911844246E+02;
1.014000000000000E+09;-1.780559614918620E+00;1.504468620232506E+02;
1.015000000000000E+09;-1.823602474926440E+00;1.498897462200887E+02;
1.016000000000000E+09;-1.867495411444981E+00;1.493255372914130E+02;
1.017000000000000E+09;-1.909019063604279E+00;1.487194712477094E+02;
1.018000000000000E+09;-1.957619099235232E+00;1.481258968683926E+02;
1.019000000000000E+09;-2.007271134476205E+00;1.475350184141360E+02;
1.020000000000000E+09;-2.052719147430563E+00;1.469438373618853E+02;
1.021000000000000E+09;-2.102563237454342E+00;1.463233064547176E+02;
1.022000000000000E+09;-2.150317945313447E+00;1.457137974588797E+02;
1.023000000000000E+09;-2.203470766109320E+00;1.451041871060527E+02;
1.024000000000000E+09;-2.254904183862904E+00;1.444907748030521E+02;
1.025000000000000E+09;-2.311727271924133E+00;1.438357396583752E+02;
1.026000000000000E+09;-2.363868493106445E+00;1.432161131673944E+02;
1.027000000000000E+09;-2.416712622670604E+00;1.426049115121415E+02;
1.028000000000000E+09;-2.470084049808399E+00;1.419442198323649E+02;
1.029000000000000E+09;-2.527081168139699E+00;1.413633354247494E+02;
1.030000000000000E+09;-2.582730745862363E+00;1.406875656109255E+02;
1.031000000000000E+09;-2.641184583852323E+00;1.400838639252367E+02;
1.032000000000000E+09;-2.697191770717152E+00;1.394086541029125E+02;
1.033000000000000E+09;-2.753846286468265E+00;1.387972225936659E+02;
1.034000000000000E+09;-2.809340534304787E+00;1.381887097883803E+02;
1.035000000000000E+09;-2.864351144942850E+00;1.375788783684796E+02;
1.036000000000000E+09;-2.919707248139856E+00;1.369520986572833E+02;
1.037000000000000E+09;-2.977696464927218E+00;1.363151039939327E+02;
1.038000000000000E+09;-3.029973326192161E+00;1.357099424002553E+02;
1.039000000000000E+09;-3.087209133127920E+00;1.351419173107394E+02;
1.040000000000000E+09;-3.140313475946247E+00;1.345272956306567E+02;
1.041000000000000E+09;-3.196857944606033E+00;1.339689327598772E+02;
1.042000000000000E+09;-3.249489820728803E+00;1.334113315619881E+02;
1.043000000000000E+09;-3.304934544425507E+00;1.328118265595711E+02;
1.044000000000000E+09;-3.354889202719240E+00;1.322272928868101E+02;
1.045000000000000E+09;-3.406796536052896E+00;1.317078802519264E+02;
1.046000000000000E+09;-3.450667402815525E+00;1.311378237196634E+02;
1.047000000000000E+09;-3.502966166110176E+00;1.305803566618186E+02;
1.048000000000000E+09;-3.552621488096701E+00;1.300133773952779E+02;
1.049000000000000E+09;-3.598466023724236E+00;1.294945881377364E+02;
1.050000000000000E+09;-3.648857833147088E+00;1.289547159782901E+02;
1.051000000000000E+09;-3.691957852092256E+00;1.284504908195225E+02;
1.052000000000000E+09;-3.741740681444059E+00;1.279453162901195E+02;
1.053000000000000E+09;-3.789518244218529E+00;1.274217891951499E+02;
1.054000000000000E+09;-3.838248553692897E+00;1.268863021740515E+02;
1.055000000000000E+09;-3.876943147735830E+00;1.264113591149338E+02;
1.056000000000000E+09;-3.929936174179764E+00;1.259319311908704E+02;
1.057000000000000E+09;-3.972019864260362E+00;1.254526592215751E+02;
1.058000000000000E+09;-4.018132047566770E+00;1.249485482777075E+02;
1.059000000000000E+09;-4.063228566723531E+00;1.244796368147399E+02;
1.060000000000000E+09;-4.106311964526096E+00;1.239842129614728E+02;
1.061000000000000E+09;-4.157215013587862E+00;1.234872838959453E+02;
1.062000000000000E+09;-4.207395093970876E+00;1.229775707186972E+02;
1.063000000000000E+09;-4.261165926058883E+00;1.225030535668290E+02;
1.064000000000000E+09;-4.311516940859494E+00;1.220365031528348E+02;
1.065000000000000E+09;-4.373030907342875E+00;1.215439166355424E+02;
1.066000000000000E+09;-4.431200733463582E+00;1.210617092739209E+02;
1.067000000000000E+09;-4.491175928915802E+00;1.205922126025471E+02;
1.068000000000000E+09;-4.560838854406556E+00;1.201503196918685E+02;
1.069000000000000E+09;-4.624283474081437E+00;1.196679623039120E+02;
1.070000000000000E+09;-4.696425026006051E+00;1.191989538653243E+02;
1.071000000000000E+09;-4.767487727243934E+00;1.187646198442800E+02;
1.072000000000000E+09;-4.847984661643155E+00;1.183076372856139E+02;
1.073000000000000E+09;-4.928419910559340E+00;1.178386913761239E+02;
1.074000000000000E+09;-5.012461021808362E+00;1.174043606759392E+02;
1.075000000000000E+09;-5.101062477396255E+00;1.169604680822822E+02;
1.076000000000000E+09;-5.191703016930507E+00;1.165432757751508E+02;
1.077000000000000E+09;-5.291363663911268E+00;1.160409257470905E+02;
1.078000000000000E+09;-5.392533757884392E+00;1.156256555441410E+02;
1.079000000000000E+09;-5.499957248176647E+00;1.151783283919722E+02;
1.080000000000000E+09;-5.620995964364171E+00;1.147351879554829E+02;
1.081000000000000E+09;-5.742239829339164E+00;1.142863317482346E+02;
1.082000000000000E+09;-5.868992432142212E+00;1.138902011361876E+02;
1.083000000000000E+09;-6.004540206978568E+00;1.134607120966550E+02;
1.084000000000000E+09;-6.151154934861880E+00;1.130204676183233E+02;
1.085000000000000E+09;-6.302432444000106E+00;1.126387214660812E+02;
1.086000000000000E+09;-6.461660587872786E+00;1.122599946765910E+02;
1.087000000000000E+09;-6.631152275489676E+00;1.119037539427075E+02;
1.088000000000000E+09;-6.810460730369297E+00;1.115329456848387E+02;
1.089000000000000E+09;-6.994949031429387E+00;1.112766701046261E+02;
1.090000000000000E+09;-7.191593386172133E+00;1.109793257211761E+02;
1.091000000000000E+09;-7.396470467834191E+00;1.106695345740636E+02;
1.092000000000000E+09;-7.613160368847591E+00;1.104329911905806E+02;
1.093000000000000E+09;-7.838553067292234E+00;1.102427683046107E+02;
1.094000000000000E+09;-8.077917859444492E+00;1.100642292078959E+02;
1.095000000000000E+09;-8.327451992816806E+00;1.099102989620681E+02;
1.096000000000000E+09;-8.595445135219734E+00;1.098880179475437E+02;
1.097000000000000E+09;-8.871348609651518E+00;1.099025193229869E+02;
1.098000000000000E+09;-9.158129100336831E+00;1.099814563369638E+02;
1.099000000000000E+09;-9.452630835012755E+00;1.101753644995708E+02;
1.100000000000000E+09;-9.761823696935526E+00;1.103827800297836E+02;
1.101000000000000E+09;-1.008682395417142E+01;1.107452789915833E+02;
1.102000000000000E+09;-1.042596744012691E+01;1.111816508926065E+02;
1.103000000000000E+09;-1.077876810180256E+01;1.117888030028751E+02;
1.104000000000000E+09;-1.114822144868940E+01;1.125729233576587E+02;
1.105000000000000E+09;-1.153206675797069E+01;1.135552808130801E+02;
1.106000000000000E+09;-1.192668993269101E+01;1.147556739130840E+02;
1.107000000000000E+09;-1.231636996824091E+01;1.162719822559700E+02;
1.108000000000000E+09;-1.269569673894090E+01;1.180358307662507E+02;
1.109000000000000E+09;-1.308760307538628E+01;1.201278119875236E+02;
1.110000000000000E+09;-1.345680767421546E+01;1.223818884503271E+02;
1.111000000000000E+09;-1.379673421825802E+01;1.251649629333836E+02;
1.112000000000000E+09;-1.410257804194541E+01;1.281598935891776E+02;
1.113000000000000E+09;-1.437752847902653E+01;1.314975729945473E+02;
1.114000000000000E+09;-1.459658967732319E+01;1.351030310491865E+02;
1.115000000000000E+09;-1.473478898662634E+01;1.390007271146947E+02;
1.116000000000000E+09;-1.481476229200196E+01;1.428295325311799E+02;
1.117000000000000E+09;-1.481532066963973E+01;1.468186358563819E+02;
1.118000000000000E+09;-1.473634607834519E+01;1.508114818325560E+02;
1.119000000000000E+09;-1.458867402507291E+01;1.546114326816316E+02;
1.120000000000000E+09;-1.436522253520766E+01;1.581160581084364E+02;
1.121000000000000E+09;-1.409295012041085E+01;1.613390970982081E+02;
1.122000000000000E+09;-1.376389052817725E+01;1.642624765830216E+02;
1.123000000000000E+09;-1.341052761255476E+01;1.667622348175125E+02;
1.124000000000000E+09;-1.301817869427029E+01;1.688922508837370E+02;
1.125000000000000E+09;-1.264900369165444E+01;1.706661220058439E+02;
1.126000000000000E+09;-1.225482905650418E+01;1.721349168351174E+02;
1.127000000000000E+09;-1.187665561457765E+01;1.733169533402248E+02;
1.128000000000000E+09;-1.149217683065546E+01;1.742699062476271E+02;
1.129000000000000E+09;-1.111122775182816E+01;1.750314851793797E+02;
1.130000000000000E+09;-1.073628554111597E+01;1.755992934743648E+02;
1.131000000000000E+09;-1.037846329518842E+01;1.759629159739715E+02;
1.132000000000000E+09;-1.002437447830578E+01;1.761114338905358E+02;
1.133000000000000E+09;-9.681556776375629E+00;1.761213623893507E+02;
1.134000000000000E+09;-9.342255190303696E+00;1.760232326521371E+02;
1.135000000000000E+09;-9.025794324963694E+00;1.758317801077586E+02;
1.136000000000000E+09;-8.719335243733914E+00;1.755193897168963E+02;
1.137000000000000E+09;-8.416016554776450E+00;1.751022805494053E+02;
1.138000000000000E+09;-8.130309637721892E+00;1.745755321964685E+02;
1.139000000000000E+09;-7.864431454463757E+00;1.740114556745276E+02;
1.140000000000000E+09;-7.596040673939475E+00;1.734142239923137E+02;
1.141000000000000E+09;-7.347966376397577E+00;1.727310217286450E+02;
1.142000000000000E+09;-7.104801696741930E+00;1.720174567208955E+02;
1.143000000000000E+09;-6.877480726208423E+00;1.712696708604611E+02;
1.144000000000000E+09;-6.659184725906072E+00;1.705355355475833E+02;
1.145000000000000E+09;-6.448488259554722E+00;1.697825722782543E+02;
1.146000000000000E+09;-6.242550838972844E+00;1.689745381523227E+02;
1.147000000000000E+09;-6.050249767866564E+00;1.681812863241653E+02;
1.148000000000000E+09;-5.857562442539342E+00;1.673924510844835E+02;
1.149000000000000E+09;-5.675237098425106E+00;1.665926614208616E+02;
1.150000000000000E+09;-5.498086743161730E+00;1.657462513754998E+02;
1.151000000000000E+09;-5.326240290508261E+00;1.649391500887615E+02;
1.152000000000000E+09;-5.167417997389442E+00;1.641181815838979E+02;
1.153000000000000E+09;-5.007231696193105E+00;1.633201503553447E+02;
1.154000000000000E+09;-4.854166296047063E+00;1.624830754298926E+02;
1.155000000000000E+09;-4.701986377613587E+00;1.616939750325378E+02;
1.156000000000000E+09;-4.560144047490723E+00;1.609012803752074E+02;
1.157000000000000E+09;-4.423933237522191E+00;1.600661484395000E+02;
1.158000000000000E+09;-4.293320989826040E+00;1.593188657730202E+02;
1.159000000000000E+09;-4.165794151655354E+00;1.585070082631984E+02;
1.160000000000000E+09;-4.043432305630193E+00;1.577679278840965E+02;
1.161000000000000E+09;-3.924032113412832E+00;1.570046181311223E+02;
1.162000000000000E+09;-3.812133509428240E+00;1.562690694392772E+02;
1.163000000000000E+09;-3.703164299181175E+00;1.555611162559337E+02;
1.164000000000000E+09;-3.594875907654505E+00;1.548449290090540E+02;
1.165000000000000E+09;-3.494211241635851E+00;1.541373212911352E+02;
1.166000000000000E+09;-3.393056726893602E+00;1.534642697312485E+02;
1.167000000000000E+09;-3.296044742615254E+00;1.527771707063673E+02;
1.168000000000000E+09;-3.201852787847586E+00;1.521123752897597E+02;
1.169000000000000E+09;-3.111411593793439E+00;1.514506495750485E+02;
1.170000000000000E+09;-3.022911410110079E+00;1.507992951515026E+02;
1.171000000000000E+09;-2.935655500205824E+00;1.501330774160998E+02;
1.172000000000000E+09;-2.856401650382627E+00;1.494990721134187E+02;
1.173000000000000E+09;-2.777897478752229E+00;1.488451374014451E+02;
1.174000000000000E+09;-2.700061065880847E+00;1.482175080549724E+02;
1.175000000000000E+09;-2.630879077267987E+00;1.475897052131347E+02;
1.176000000000000E+09;-2.564538133778787E+00;1.469441947979590E+02;
1.177000000000000E+09;-2.499941766600434E+00;1.463329866596172E+02;
1.178000000000000E+09;-2.438708239318384E+00;1.457266550359430E+02;
1.179000000000000E+09;-2.380109187238130E+00;1.451084305201906E+02;
1.180000000000000E+09;-2.327003957824181E+00;1.445216180423078E+02;
1.181000000000000E+09;-2.274828368145308E+00;1.439536370355751E+02;
1.182000000000000E+09;-2.224579162316635E+00;1.433577550999631E+02;
1.183000000000000E+09;-2.179757321629158E+00;1.427818128749181E+02;
1.184000000000000E+09;-2.132684337713156E+00;1.422212620461300E+02;
1.185000000000000E+09;-2.092646142486348E+00;1.416524930302758E+02;
1.186000000000000E+09;-2.052926789365430E+00;1.410921959421125E+02;
1.187000000000000E+09;-2.016313569023288E+00;1.405246819122311E+02;
1.188000000000000E+09;-1.980817533764277E+00;1.399760353415672E+02;
1.189000000000000E+09;-1.943932102516127E+00;1.394093784768146E+02;
1.190000000000000E+09;-1.913757523033338E+00;1.388560834986872E+02;
1.191000000000000E+09;-1.885851731610469E+00;1.382812487100070E+02;
1.192000000000000E+09;-1.859984055701599E+00;1.377387527847941E+02;
1.193000000000000E+09;-1.835642898249150E+00;1.371946154175931E+02;
1.194000000000000E+09;-1.814147860382209E+00;1.366039903135556E+02;
1.195000000000000E+09;-1.794751060481570E+00;1.360943715112760E+02;
1.196000000000000E+09;-1.775507639053933E+00;1.355211786342014E+02;
1.197000000000000E+09;-1.753993117011770E+00;1.349713383426295E+02;
1.198000000000000E+09;-1.738963109259753E+00;1.344098986740097E+02;
1.199000000000000E+09;-1.721987633459416E+00;1.338605693394030E+02;
1.200000000000000E+09;-1.708123598355511E+00;1.332963662991010E+02;
1.201000000000000E+09;-1.696382758500887E+00;1.327451327832561E+02;
1.202000000000000E+09;-1.687398717341605E+00;1.321605417250925E+02;
1.203000000000000E+09;-1.675318247347245E+00;1.315864207145662E+02;
1.204000000000000E+09;-1.668229228456062E+00;1.310062368107064E+02;
1.205000000000000E+09;-1.657445123870114E+00;1.304575489729088E+02;
1.206000000000000E+09;-1.650353897342433E+00;1.298759500959009E+02;
1.207000000000000E+09;-1.644769352067806E+00;1.293031312357336E+02;
1.208000000000000E+09;-1.638496167573602E+00;1.286960067679657E+02;
1.209000000000000E+09;-1.629947268086336E+00;1.281179708649080E+02;
1.210000000000000E+09;-1.626784495932231E+00;1.275432234174178E+02;
1.211000000000000E+09;-1.622948766709744E+00;1.269389594208853E+02;
1.212000000000000E+09;-1.617713458609499E+00;1.263412045701099E+02;
1.213000000000000E+09;-1.615599755404574E+00;1.256983988084482E+02;
1.214000000000000E+09;-1.613304283770211E+00;1.251059952919751E+02;
1.215000000000000E+09;-1.608611486696406E+00;1.244822257000474E+02;
1.216000000000000E+09;-1.607825414160579E+00;1.238688679930416E+02;
1.217000000000000E+09;-1.603769510661951E+00;1.232596132289746E+02;
1.218000000000000E+09;-1.599477229490657E+00;1.226427011977416E+02;
1.219000000000000E+09;-1.600538763099689E+00;1.220203832404958E+02;
1.220000000000000E+09;-1.594289709901396E+00;1.213920814918547E+02;
1.221000000000000E+09;-1.591739870115138E+00;1.207759502683267E+02;
1.222000000000000E+09;-1.590543957671709E+00;1.201672026497699E+02;
1.223000000000000E+09;-1.583130035813657E+00;1.195279828350043E+02;
1.224000000000000E+09;-1.580026678764996E+00;1.188719544673900E+02;
1.225000000000000E+09;-1.573180003063444E+00;1.182659792275036E+02;
1.226000000000000E+09;-1.568757059131489E+00;1.176144690924662E+02;
1.227000000000000E+09;-1.564668151843392E+00;1.169709617798652E+02;
1.228000000000000E+09;-1.561783716177853E+00;1.163570749056058E+02;
1.229000000000000E+09;-1.555249717335324E+00;1.157347938332604E+02;
1.230000000000000E+09;-1.553267034393443E+00;1.151334459900094E+02;
1.231000000000000E+09;-1.546623043583740E+00;1.144750431768437E+02;
1.232000000000000E+09;-1.538496170303232E+00;1.138612990296155E+02;
1.233000000000000E+09;-1.535261302050262E+00;1.132790776427276E+02;
1.234000000000000E+09;-1.530850430873056E+00;1.126822570814120E+02;
1.235000000000000E+09;-1.524930653555210E+00;1.120847658899747E+02;
1.236000000000000E+09;-1.513745625858222E+00;1.115188500399583E+02;
1.237000000000000E+09;-1.504262964326471E+00;1.109415892523165E+02;
1.238000000000000E+09;-1.498332245960654E+00;1.103706576360259E+02;
1.239000000000000E+09;-1.488275832935524E+00;1.098297460471258E+02;
1.240000000000000E+09;-1.472275162742437E+00;1.092708156376177E+02;
1.241000000000000E+09;-1.466246148938708E+00;1.087119730868478E+02;
1.242000000000000E+09;-1.450495247542259E+00;1.081832017630620E+02;
1.243000000000000E+09;-1.440535732216175E+00;1.076218045538128E+02;
1.244000000000000E+09;-1.426588177641595E+00;1.071274984613423E+02;
1.245000000000000E+09;-1.412459716082904E+00;1.065878095494117E+02;
1.246000000000000E+09;-1.403442376026641E+00;1.060787780215342E+02;
1.247000000000000E+09;-1.386879400668792E+00;1.055840543651306E+02;
1.248000000000000E+09;-1.375975830389015E+00;1.050805613358344E+02;
1.249000000000000E+09;-1.362366950585953E+00;1.046058616053674E+02;
1.250000000000000E+09;-1.349678388510140E+00;1.041418324795065E+02;
1.251000000000000E+09;-1.339883968354612E+00;1.036668165335113E+02;
1.252000000000000E+09;-1.328692001023887E+00;1.032444077026040E+02;
1.253000000000000E+09;-1.312366436382608E+00;1.028133510434923E+02;
1.254000000000000E+09;-1.301987911928130E+00;1.023691372090584E+02;
1.255000000000000E+09;-1.288345121142717E+00;1.019197021394294E+02;
1.256000000000000E+09;-1.276234686838525E+00;1.015090191046520E+02;
1.257000000000000E+09;-1.262891951426530E+00;1.011343438899260E+02;
1.258000000000000E+09;-1.251494088867156E+00;1.007302065413239E+02;
1.259000000000000E+09;-1.241031121408974E+00;1.003150110426762E+02;
1.260000000000000E+09;-1.225313812541811E+00;9.993372311148836E+01;
1.261000000000000E+09;-1.214752757925363E+00;9.957734851618375E+01;
1.262000000000000E+09;-1.205990121814400E+00;9.919591353314931E+01;
1.263000000000000E+09;-1.189219751213023E+00;9.882301381792540E+01;
1.264000000000000E+09;-1.179887238390415E+00;9.841682269648358E+01;
1.265000000000000E+09;-1.171349149631633E+00;9.806808127744817E+01;
1.266000000000000E+09;-1.160252170542367E+00;9.773391075269870E+01;
1.267000000000000E+09;-1.153103148263750E+00;9.734607734737118E+01;
1.268000000000000E+09;-1.145104056629103E+00;9.698414232362171E+01;
1.269000000000000E+09;-1.139404991394432E+00;9.661104429889559E+01;
1.270000000000000E+09;-1.131834763692912E+00;9.628819743826595E+01;
1.271000000000000E+09;-1.126916195224640E+00;9.595173003180400E+01;
1.272000000000000E+09;-1.121296982491789E+00;9.557685232492148E+01;
1.273000000000000E+09;-1.117928163423924E+00;9.524684648636543E+01;
1.274000000000000E+09;-1.116662056266305E+00;9.490005398457865E+01;
1.275000000000000E+09;-1.112929983046598E+00;9.457751150635693E+01;
1.276000000000000E+09;-1.109162733498988E+00;9.421610504548386E+01;
1.277000000000000E+09;-1.104645568764629E+00;9.387195235557265E+01;
1.278000000000000E+09;-1.104760580491286E+00;9.352986311330434E+01;
1.279000000000000E+09;-1.103383506508038E+00;9.317741993914883E+01;
1.280000000000000E+09;-1.097295429512189E+00;9.284509041043331E+01;
1.281000000000000E+09;-1.101276557055567E+00;9.248012342683425E+01;
1.282000000000000E+09;-1.104232781549608E+00;9.211255554474276E+01;
1.283000000000000E+09;-1.106212937424753E+00;9.173757328884579E+01;
1.284000000000000E+09;-1.101186149270074E+00;9.141281582798389E+01;
1.285000000000000E+09;-1.112866794838464E+00;9.103648846426850E+01;
1.286000000000000E+09;-1.112558817058663E+00;9.066401876844263E+01;
1.287000000000000E+09;-1.116154572164647E+00;9.026729808671313E+01;
1.288000000000000E+09;-1.120214040135145E+00;8.987334792798055E+01;
1.289000000000000E+09;-1.122283623163775E+00;8.949194606801838E+01;
1.290000000000000E+09;-1.130365308633893E+00;8.909546423542454E+01;
1.291000000000000E+09;-1.131808509126068E+00;8.869584076349234E+01;
1.292000000000000E+09;-1.138052122869851E+00;8.829760509618843E+01;
