# Version 1.00
#
freq[Hz];db:Trc4_S11;ang:Trc4_S11;
1.000000000000000E+09;-1.337458570676262E+00;1.580365575287407E+02;
1.001000000000000E+09;-1.357860094494554E+00;1.575944405259312E+02;
1.002000000000000E+09;-1.388224089510657E+00;1.571698012542026E+02;
1.003000000000000E+09;-1.412324393130669E+00;1.567002049045836E+02;
1.004000000000000E+09;-1.440202078902981E+00;1.562509859005982E+02;
1.005000000000000E+09;-1.467485635666274E+00;1.557928775278792E+02;
1.006000000000000E+09;-1.495522266647623E+00;1.552912186554752E+02;
1.007000000000000E+09;-1.526646689437673E+00;1.547958652759060E+02;
1.008000000000000E+09;-1.561511015774166E+00;1.543191914682978E+02;
1.009000000000000E+09;-1.592109153674557E+00;1.538243563221071E+02;
1.010000000000000E+09;-1.624277873729084E+00;1.532899008175187E+02;
1.011000000000000E+09;-1.665572956927989E+00;1.527351330536865E+02;
1.012000000000000E+09;-1.701199732297243E+00;1.522051855560287E+02;
1.013000000000000E+09;-1.736823417566831E+00;1.516549801077847E+02;
1.014000000000000E+09;-1.774102151766157E+00;1.510747062198364E+02;
1.015000000000000E+09;-1.821038430613731E+00;1.505102301212811E+02;
1.016000000000000E+09;-1.861546386538555E+00;1.499262071601605E+02;
1.017000000000000E+09;-1.904020979466925E+00;1.492909774876039E+02;
1.018000000000000E+09;-1.948961287254257E+00;1.486752412413808E+02;
1.019000000000000E+09;-2.000660482596163E+00;1.480543580876349E+02;
1.020000000000000E+09;-2.044175176811660E+00;1.474263663177818E+02;
1.021000000000000E+09;-2.097012183004638E+00;1.467820389954693E+02;
1.022000000000000E+09;-2.148224892305324E+00;1.461307602224776E+02;
1.023000000000000E+09;-2.204152805169126E+00;1.454749817971801E+02;
1.024000000000000E+09;-2.259453703551499E+00;1.448152383429724E+02;
1.025000000000000E+09;-2.316633699002778E+00;1.441270489845137E+02;
1.026000000000000E+09;-2.372738216669750E+00;1.434793090967584E+02;
1.027000000000000E+09;-2.429888402487462E+00;1.428176133901808E+02;
1.028000000000000E+09;-2.487147060541824E+00;1.420967139200296E+02;
1.029000000000000E+09;-2.545304563826722E+00;1.414477365238673E+02;
1.030000000000000E+09;-2.606936799486477E+00;1.407703245074708E+02;
1.031000000000000E+09;-2.667763002518960E+00;1.400932547521552E+02;
1.032000000000000E+09;-2.725537927928388E+00;1.393898935607282E+02;
1.033000000000000E+09;-2.782587786819959E+00;1.387105774489523E+02;
1.034000000000000E+09;-2.841898084719199E+00;1.380603474566302E+02;
1.035000000000000E+09;-2.901034022597337E+00;1.373889432751352E+02;
1.036000000000000E+09;-2.962649457272341E+00;1.366929581699170E+02;
1.037000000000000E+09;-3.026301414658806E+00;1.360004746813599E+02;
1.038000000000000E+09;-3.085243764297851E+00;1.353412347673825E+02;
1.039000000000000E+09;-3.143109840658127E+00;1.347252243072902E+02;
1.040000000000000E+09;-3.200852181246264E+00;1.340422389183181E+02;
1.041000000000000E+09;-3.260526178183982E+00;1.334038301226337E+02;
1.042000000000000E+09;-3.318343324566927E+00;1.327613880145330E+02;
1.043000000000000E+09;-3.378202570829532E+00;1.321207301009623E+02;
1.044000000000000E+09;-3.428727891758295E+00;1.314684394584722E+02;
1.045000000000000E+09;-3.481492210900555E+00;1.308541875076882E+02;
1.046000000000000E+09;-3.534725800813641E+00;1.302299024345225E+02;
1.047000000000000E+09;-3.587876636347372E+00;1.296013413444042E+02;
1.048000000000000E+09;-3.639258785277764E+00;1.289896356933798E+02;
1.049000000000000E+09;-3.689856917588346E+00;1.283933774730079E+02;
1.050000000000000E+09;-3.741226943899931E+00;1.277862601094623E+02;
1.051000000000000E+09;-3.790575780499987E+00;1.271825590363426E+02;
1.052000000000000E+09;-3.843069800847576E+00;1.266252070869527E+02;
1.053000000000000E+09;-3.890904024974116E+00;1.260243897792259E+02;
1.054000000000000E+09;-3.943554117783221E+00;1.253976662263997E+02;
1.055000000000000E+09;-3.984038580832989E+00;1.248236028986222E+02;
1.056000000000000E+09;-4.039327133667789E+00;1.242763345071754E+02;
1.057000000000000E+09;-4.086861333992496E+00;1.236966060871956E+02;
1.058000000000000E+09;-4.138784783168522E+00;1.231080176979881E+02;
1.059000000000000E+09;-4.190337760932526E+00;1.225695067449693E+02;
1.060000000000000E+09;-4.240830409182125E+00;1.219878215143131E+02;
1.061000000000000E+09;-4.293664214917998E+00;1.214231806372098E+02;
1.062000000000000E+09;-4.347531698274480E+00;1.208502693475785E+02;
1.063000000000000E+09;-4.405373944891745E+00;1.203160684503160E+02;
1.064000000000000E+09;-4.458418688713268E+00;1.197929951812995E+02;
1.065000000000000E+09;-4.518188315240727E+00;1.192193825418553E+02;
1.066000000000000E+09;-4.581280905782569E+00;1.186392408738407E+02;
1.067000000000000E+09;-4.644457358265052E+00;1.180938131018966E+02;
1.068000000000000E+09;-4.714887667580435E+00;1.175821516884085E+02;
1.069000000000000E+09;-4.782385444861415E+00;1.169952829259547E+02;
1.070000000000000E+09;-4.858744512849214E+00;1.164245685934568E+02;
1.071000000000000E+09;-4.936379159609833E+00;1.159293070170312E+02;
1.072000000000000E+09;-5.015903721687939E+00;1.153687697329778E+02;
1.073000000000000E+09;-5.096615896194941E+00;1.147884577323612E+02;
1.074000000000000E+09;-5.187098227421320E+00;1.142601494735739E+02;
1.075000000000000E+09;-5.286306773976833E+00;1.136772376187202E+02;
1.076000000000000E+09;-5.376836899943776E+00;1.131511480121284E+02;
1.077000000000000E+09;-5.490239982853523E+00;1.125350927721399E+02;
1.078000000000000E+09;-5.602193973333835E+00;1.120088297794870E+02;
1.079000000000000E+09;-5.720436806235547E+00;1.114674031026504E+02;
1.080000000000000E+09;-5.852052276445781E+00;1.108927230333130E+02;
1.081000000000000E+09;-5.986039780904388E+00;1.103490188253940E+02;
1.082000000000000E+09;-6.126052440339973E+00;1.098174552856823E+02;
1.083000000000000E+09;-6.272994112032048E+00;1.092698925000181E+02;
1.084000000000000E+09;-6.438905971044865E+00;1.087284783314866E+02;
1.085000000000000E+09;-6.608706485240832E+00;1.081960100928179E+02;
1.086000000000000E+09;-6.785570255986922E+00;1.077105381101993E+02;
1.087000000000000E+09;-6.983426978698377E+00;1.072276763014322E+02;
1.088000000000000E+09;-7.182826120348603E+00;1.067216954550890E+02;
1.089000000000000E+09;-7.392338537584756E+00;1.062886921050499E+02;
1.090000000000000E+09;-7.622831393790550E+00;1.058706595037892E+02;
1.091000000000000E+09;-7.865231472786726E+00;1.054803066033067E+02;
1.092000000000000E+09;-8.117739016846862E+00;1.051703990316855E+02;
1.093000000000000E+09;-8.379888363814876E+00;1.048931032607945E+02;
1.094000000000000E+09;-8.663023262735875E+00;1.046351721978926E+02;
1.095000000000000E+09;-8.951762683080059E+00;1.044063781256663E+02;
1.096000000000000E+09;-9.267375271384521E+00;1.043226615110255E+02;
1.097000000000000E+09;-9.593662359555408E+00;1.042954090333091E+02;
1.098000000000000E+09;-9.936125706233893E+00;1.043401291260438E+02;
1.099000000000000E+09;-1.029483252640757E+01;1.045339122811012E+02;
1.100000000000000E+09;-1.067151514522981E+01;1.048013350129444E+02;
1.101000000000000E+09;-1.107250738756429E+01;1.052278233532825E+02;
1.102000000000000E+09;-1.148054855354124E+01;1.057963779847220E+02;
1.103000000000000E+09;-1.191206743363379E+01;1.065493341373920E+02;
1.104000000000000E+09;-1.236939080412311E+01;1.075842851002114E+02;
1.105000000000000E+09;-1.283653932150776E+01;1.088945132910942E+02;
1.106000000000000E+09;-1.331862049334977E+01;1.105515633220150E+02;
1.107000000000000E+09;-1.380174923624475E+01;1.125885310584626E+02;
1.108000000000000E+09;-1.426831749348094E+01;1.150797568521788E+02;
1.109000000000000E+09;-1.473295977782955E+01;1.179637960810427E+02;
1.110000000000000E+09;-1.516882704287637E+01;1.212462063174600E+02;
1.111000000000000E+09;-1.554419476878706E+01;1.251761414196251E+02;
1.112000000000000E+09;-1.585837976392589E+01;1.294315577902245E+02;
1.113000000000000E+09;-1.610423674826288E+01;1.340194932329564E+02;
1.114000000000000E+09;-1.624799571416886E+01;1.389797978543456E+02;
1.115000000000000E+09;-1.625997091437679E+01;1.441027408239146E+02;
1.116000000000000E+09;-1.618964316868141E+01;1.490111573132046E+02;
1.117000000000000E+09;-1.599217328882808E+01;1.538271919484993E+02;
1.118000000000000E+09;-1.571024017581615E+01;1.582718388387399E+02;
1.119000000000000E+09;-1.535373976258259E+01;1.622345069017641E+02;
1.120000000000000E+09;-1.493838001506006E+01;1.655949342090579E+02;
1.121000000000000E+09;-1.450125186888366E+01;1.685342077330244E+02;
1.122000000000000E+09;-1.403249881188412E+01;1.710849803062216E+02;
1.123000000000000E+09;-1.355628244763312E+01;1.730530342841964E+02;
1.124000000000000E+09;-1.307217526762615E+01;1.746875327155490E+02;
1.125000000000000E+09;-1.260226345912400E+01;1.759247852468187E+02;
1.126000000000000E+09;-1.213665871721334E+01;1.768391575334601E+02;
1.127000000000000E+09;-1.169116277305718E+01;1.774661289233316E+02;
1.128000000000000E+09;-1.125497716119267E+01;1.778749284907709E+02;
1.129000000000000E+09;-1.084779315221393E+01;1.780190814686615E+02;
1.130000000000000E+09;-1.045448591446576E+01;1.780731139190958E+02;
1.131000000000000E+09;-1.008234446416941E+01;1.779008263912971E+02;
1.132000000000000E+09;-9.726492773998471E+00;1.776337876071661E+02;
1.133000000000000E+09;-9.385519633781348E+00;1.772550658510738E+02;
1.134000000000000E+09;-9.057234585853509E+00;1.767932613790951E+02;
1.135000000000000E+09;-8.748413656398847E+00;1.762604754638161E+02;
1.136000000000000E+09;-8.457604808672796E+00;1.756768445136541E+02;
1.137000000000000E+09;-8.164951284498747E+00;1.750491407711467E+02;
1.138000000000000E+09;-7.891523309290218E+00;1.743436475264284E+02;
1.139000000000000E+09;-7.638051847426288E+00;1.736068016964044E+02;
1.140000000000000E+09;-7.390015782233200E+00;1.728839752508029E+02;
1.141000000000000E+09;-7.145386133278827E+00;1.721030935915048E+02;
1.142000000000000E+09;-6.911468455461622E+00;1.712543123390136E+02;
1.143000000000000E+09;-6.692476558616988E+00;1.704388421844235E+02;
1.144000000000000E+09;-6.474293196954648E+00;1.695852697836164E+02;
1.145000000000000E+09;-6.260281983152857E+00;1.687390427530416E+02;
1.146000000000000E+09;-6.066917982374582E+00;1.678886797534885E+02;
1.147000000000000E+09;-5.877947801533427E+00;1.670402706642715E+02;
1.148000000000000E+09;-5.689271732301894E+00;1.661525202794363E+02;
1.149000000000000E+09;-5.510552393481333E+00;1.653151155527715E+02;
1.150000000000000E+09;-5.334412469368335E+00;1.644091567832925E+02;
1.151000000000000E+09;-5.169006724848963E+00;1.635672248551929E+02;
1.152000000000000E+09;-5.008981034053070E+00;1.626674017938986E+02;
1.153000000000000E+09;-4.854563116900873E+00;1.618044281166266E+02;
1.154000000000000E+09;-4.708797248892092E+00;1.609205441215025E+02;
1.155000000000000E+09;-4.564341712836590E+00;1.601065664397339E+02;
1.156000000000000E+09;-4.425102316927348E+00;1.592412153650731E+02;
1.157000000000000E+09;-4.294451032082740E+00;1.583727433951141E+02;
1.158000000000000E+09;-4.169624087758460E+00;1.576147854849008E+02;
1.159000000000000E+09;-4.048613332232569E+00;1.567947560052386E+02;
1.160000000000000E+09;-3.934534156316744E+00;1.560197773874283E+02;
1.161000000000000E+09;-3.823475408720466E+00;1.552398624873624E+02;
1.162000000000000E+09;-3.715766989777689E+00;1.545053391518601E+02;
1.163000000000000E+09;-3.615644413288748E+00;1.537694071879987E+02;
1.164000000000000E+09;-3.513026452058437E+00;1.530624794270731E+02;
1.165000000000000E+09;-3.414947147670764E+00;1.523557505597140E+02;
1.166000000000000E+09;-3.323733588686148E+00;1.516917196537334E+02;
1.167000000000000E+09;-3.233114495268973E+00;1.510042014798976E+02;
1.168000000000000E+09;-3.146097197630120E+00;1.503648278681589E+02;
1.169000000000000E+09;-3.062223029406439E+00;1.497152311810780E+02;
1.170000000000000E+09;-2.980336291605407E+00;1.490922247561487E+02;
1.171000000000000E+09;-2.903525674252878E+00;1.484311065540202E+02;
1.172000000000000E+09;-2.831640501738176E+00;1.478162664890053E+02;
1.173000000000000E+09;-2.758445943426479E+00;1.471857909101882E+02;
1.174000000000000E+09;-2.690067003027230E+00;1.465984622824832E+02;
1.175000000000000E+09;-2.626959486300118E+00;1.460097086743494E+02;
1.176000000000000E+09;-2.567219675431219E+00;1.453894409318787E+02;
1.177000000000000E+09;-2.510455058528546E+00;1.448193495812301E+02;
1.178000000000000E+09;-2.454222566698400E+00;1.442613922000338E+02;
1.179000000000000E+09;-2.402789714496201E+00;1.436616854418281E+02;
1.180000000000000E+09;-2.355843172254357E+00;1.431118195824411E+02;
1.181000000000000E+09;-2.308422446631821E+00;1.425754140247316E+02;
1.182000000000000E+09;-2.267670775862096E+00;1.420321978815880E+02;
1.183000000000000E+09;-2.226130732032126E+00;1.415073423941054E+02;
1.184000000000000E+09;-2.189850200846505E+00;1.409582130110356E+02;
1.185000000000000E+09;-2.156255830825050E+00;1.404407725246792E+02;
1.186000000000000E+09;-2.123317754420764E+00;1.399258675644972E+02;
1.187000000000000E+09;-2.091206659308750E+00;1.393912286183343E+02;
1.188000000000000E+09;-2.061554889223990E+00;1.388957636770801E+02;
1.189000000000000E+09;-2.034275466950303E+00;1.383644981104124E+02;
1.190000000000000E+09;-2.009271326294228E+00;1.378453105417692E+02;
1.191000000000000E+09;-1.986205864638495E+00;1.373116414004083E+02;
1.192000000000000E+09;-1.965847494126510E+00;1.367747945556695E+02;
1.193000000000000E+09;-1.952428010149210E+00;1.362761675704514E+02;
1.194000000000000E+09;-1.938638322916114E+00;1.357416898343961E+02;
1.195000000000000E+09;-1.925713190690924E+00;1.352432925003441E+02;
1.196000000000000E+09;-1.917037797828302E+00;1.347426075052887E+02;
1.197000000000000E+09;-1.906387505855147E+00;1.342063674627616E+02;
1.198000000000000E+09;-1.904528347777978E+00;1.336924283682397E+02;
1.199000000000000E+09;-1.898871293965395E+00;1.332176222635395E+02;
1.200000000000000E+09;-1.889136388734079E+00;1.326774958334644E+02;
1.201000000000000E+09;-1.888676759159232E+00;1.321727308449700E+02;
1.202000000000000E+09;-1.886931746887182E+00;1.316374284228197E+02;
1.203000000000000E+09;-1.884866232743503E+00;1.311297260142551E+02;
1.204000000000000E+09;-1.883493496771729E+00;1.306162111235832E+02;
1.205000000000000E+09;-1.886443914028650E+00;1.301082685602314E+02;
1.206000000000000E+09;-1.890359742523334E+00;1.295702029688995E+02;
1.207000000000000E+09;-1.889463919059805E+00;1.290512755420768E+02;
1.208000000000000E+09;-1.892161564341609E+00;1.285088160619081E+02;
1.209000000000000E+09;-1.893999823923020E+00;1.279667565989757E+02;
1.210000000000000E+09;-1.895651124886660E+00;1.274542793845347E+02;
1.211000000000000E+09;-1.897960981711441E+00;1.269083505269130E+02;
1.212000000000000E+09;-1.900014278260913E+00;1.263793729842325E+02;
1.213000000000000E+09;-1.902842641735899E+00;1.257956626018409E+02;
1.214000000000000E+09;-1.907241852579414E+00;1.252477806256307E+02;
1.215000000000000E+09;-1.904022617787406E+00;1.246768086050848E+02;
1.216000000000000E+09;-1.909938574438320E+00;1.240849939515721E+02;
1.217000000000000E+09;-1.912183494852708E+00;1.235141681706927E+02;
1.218000000000000E+09;-1.914522330932948E+00;1.229287112840889E+02;
1.219000000000000E+09;-1.921594026612514E+00;1.223433185714935E+02;
1.220000000000000E+09;-1.923600271578039E+00;1.217363916279535E+02;
1.221000000000000E+09;-1.925081167265503E+00;1.211513454021687E+02;
1.222000000000000E+09;-1.932056175972489E+00;1.205687411534180E+02;
1.223000000000000E+09;-1.931389775580487E+00;1.199785684539679E+02;
1.224000000000000E+09;-1.932287462795691E+00;1.193506160984845E+02;
1.225000000000000E+09;-1.936089343056290E+00;1.187767061949182E+02;
1.226000000000000E+09;-1.934049262557328E+00;1.181638640068458E+02;
1.227000000000000E+09;-1.937382821574425E+00;1.175699454375516E+02;
1.228000000000000E+09;-1.940727938462464E+00;1.169692630648655E+02;
1.229000000000000E+09;-1.939506866031795E+00;1.163775551557812E+02;
1.230000000000000E+09;-1.938554107047334E+00;1.158070387661174E+02;
1.231000000000000E+09;-1.937458294818799E+00;1.152006497014236E+02;
1.232000000000000E+09;-1.934649904104178E+00;1.146402265699987E+02;
1.233000000000000E+09;-1.934497785738511E+00;1.140636097269745E+02;
1.234000000000000E+09;-1.929849845008576E+00;1.135025977648642E+02;
1.235000000000000E+09;-1.927187216079624E+00;1.129442252599281E+02;
1.236000000000000E+09;-1.922530344475184E+00;1.124072747282805E+02;
1.237000000000000E+09;-1.912005055738161E+00;1.118448319238674E+02;
1.238000000000000E+09;-1.909734705377699E+00;1.113233732976869E+02;
1.239000000000000E+09;-1.895554884087498E+00;1.107791316830967E+02;
1.240000000000000E+09;-1.883458924923891E+00;1.102674577576176E+02;
1.241000000000000E+09;-1.875934620849186E+00;1.097549908431346E+02;
1.242000000000000E+09;-1.862767646245684E+00;1.092438638238445E+02;
1.243000000000000E+09;-1.849604273630747E+00;1.087405883416020E+02;
1.244000000000000E+09;-1.833649781510826E+00;1.082719149901628E+02;
1.245000000000000E+09;-1.818778513993819E+00;1.077697369957435E+02;
1.246000000000000E+09;-1.800836040589146E+00;1.073048239894177E+02;
1.247000000000000E+09;-1.783017727196915E+00;1.068094598519010E+02;
1.248000000000000E+09;-1.768451057113354E+00;1.063388737506795E+02;
1.249000000000000E+09;-1.749328531805287E+00;1.058996881312678E+02;
1.250000000000000E+09;-1.730532808841604E+00;1.054191200244362E+02;
1.251000000000000E+09;-1.713721226415364E+00;1.049520809957579E+02;
1.252000000000000E+09;-1.694782547680644E+00;1.045364788551655E+02;
1.253000000000000E+09;-1.679144387189545E+00;1.040982284928240E+02;
1.254000000000000E+09;-1.658819388818958E+00;1.036702729166636E+02;
1.255000000000000E+09;-1.641417418237019E+00;1.032140851947584E+02;
1.256000000000000E+09;-1.622361973585408E+00;1.027987448687093E+02;
1.257000000000000E+09;-1.604379765008618E+00;1.024112632736833E+02;
1.258000000000000E+09;-1.586713278865981E+00;1.019949479016957E+02;
1.259000000000000E+09;-1.569493876243006E+00;1.015687735433561E+02;
1.260000000000000E+09;-1.548879726799907E+00;1.011608172762022E+02;
1.261000000000000E+09;-1.536821573625136E+00;1.008017311428156E+02;
1.262000000000000E+09;-1.521997839970937E+00;1.004075692934697E+02;
1.263000000000000E+09;-1.501165467940635E+00;1.000363965769459E+02;
1.264000000000000E+09;-1.488088795795711E+00;9.960545964993990E+01;
1.265000000000000E+09;-1.473330393099116E+00;9.923193021062495E+01;
1.266000000000000E+09;-1.459821226789623E+00;9.888547000209886E+01;
1.267000000000000E+09;-1.446230064967147E+00;9.848689681037115E+01;
1.268000000000000E+09;-1.434232534793523E+00;9.811254327616540E+01;
1.269000000000000E+09;-1.421950390869497E+00;9.772736417873662E+01;
1.270000000000000E+09;-1.411503490664879E+00;9.737286202515665E+01;
1.271000000000000E+09;-1.400718103750622E+00;9.701073788011888E+01;
1.272000000000000E+09;-1.391310749838768E+00;9.661545746076123E+01;
1.273000000000000E+09;-1.383988496777213E+00;9.626341255957908E+01;
1.274000000000000E+09;-1.373277552560053E+00;9.588237890457759E+01;
1.275000000000000E+09;-1.367540457454155E+00;9.551795061335076E+01;
1.276000000000000E+09;-1.357378676703723E+00;9.515001647802359E+01;
1.277000000000000E+09;-1.352527229883896E+00;9.476751266740763E+01;
1.278000000000000E+09;-1.350452703815340E+00;9.440186386656499E+01;
1.279000000000000E+09;-1.342614517499062E+00;9.401413669787932E+01;
1.280000000000000E+09;-1.340851683338155E+00;9.365124144760915E+01;
1.281000000000000E+09;-1.337989735186278E+00;9.326480776334752E+01;
1.282000000000000E+09;-1.333449341971365E+00;9.286869057166777E+01;
1.283000000000000E+09;-1.338582473427766E+00;9.245294334301313E+01;
1.284000000000000E+09;-1.331705989561832E+00;9.209849366161725E+01;
1.285000000000000E+09;-1.334393938719080E+00;9.167819483239225E+01;
1.286000000000000E+09;-1.332049895402493E+00;9.128280128183687E+01;
1.287000000000000E+09;-1.334850024787022E+00;9.086509240015165E+01;
1.288000000000000E+09;-1.337538006128023E+00;9.044377593995388E+01;
1.289000000000000E+09;-1.339436646779042E+00;9.001805309397437E+01;
1.290000000000000E+09;-1.348032100968431E+00;8.962187337276538E+01;
1.291000000000000E+09;-1.344741277961987E+00;8.919114353140883E+01;
1.292000000000000E+09;-1.349794463930948E+00;8.875712105305981E+01;
