# Version 1.00
#
freq[Hz];db:Trc4_S11;ang:Trc4_S11;
1.000000000000000E+09;-1.252619533962560E+00;1.582930532785229E+02;
1.001000000000000E+09;-1.276086419323428E+00;1.578328233942906E+02;
1.002000000000000E+09;-1.301212412264059E+00;1.573759699390432E+02;
1.003000000000000E+09;-1.323380368906234E+00;1.569040858146961E+02;
1.004000000000000E+09;-1.349712274599173E+00;1.563905720234160E+02;
1.005000000000000E+09;-1.376367354093917E+00;1.559552833213385E+02;
1.006000000000000E+09;-1.402165413927030E+00;1.554320893190627E+02;
1.007000000000000E+09;-1.432262239549473E+00;1.549417590916844E+02;
1.008000000000000E+09;-1.463559854078385E+00;1.544371822562060E+02;
1.009000000000000E+09;-1.496022968133871E+00;1.539378924027162E+02;
1.010000000000000E+09;-1.527051231186309E+00;1.533993769925497E+02;
1.011000000000000E+09;-1.564122032225280E+00;1.528388235945989E+02;
1.012000000000000E+09;-1.597227442336171E+00;1.522984582573496E+02;
1.013000000000000E+09;-1.634331407093534E+00;1.517666155013850E+02;
1.014000000000000E+09;-1.670159808753097E+00;1.511906552604749E+02;
1.015000000000000E+09;-1.712332238941000E+00;1.506395688151445E+02;
1.016000000000000E+09;-1.749582400527799E+00;1.500570236716954E+02;
1.017000000000000E+09;-1.789256709162522E+00;1.494653320610606E+02;
1.018000000000000E+09;-1.833398344787352E+00;1.488468850818082E+02;
1.019000000000000E+09;-1.875893615592412E+00;1.482444030508462E+02;
1.020000000000000E+09;-1.919049789275993E+00;1.476535701562480E+02;
1.021000000000000E+09;-1.962652644355312E+00;1.470234780305498E+02;
1.022000000000000E+09;-2.007938853268184E+00;1.463980233895056E+02;
1.023000000000000E+09;-2.056618500648316E+00;1.457825658103473E+02;
1.024000000000000E+09;-2.103874560043672E+00;1.451479549564469E+02;
1.025000000000000E+09;-2.155499011670531E+00;1.444895843483161E+02;
1.026000000000000E+09;-2.202534059710482E+00;1.438448952205124E+02;
1.027000000000000E+09;-2.248242614776992E+00;1.431918296835371E+02;
1.028000000000000E+09;-2.298826623719289E+00;1.425264809409244E+02;
1.029000000000000E+09;-2.346849222570266E+00;1.419252509980051E+02;
1.030000000000000E+09;-2.401901041874814E+00;1.412424055083909E+02;
1.031000000000000E+09;-2.450638000378545E+00;1.405828872727524E+02;
1.032000000000000E+09;-2.501250305848633E+00;1.399009176100043E+02;
1.033000000000000E+09;-2.546238049401113E+00;1.392446501194661E+02;
1.034000000000000E+09;-2.597992734945856E+00;1.386049292518053E+02;
1.035000000000000E+09;-2.649270196295730E+00;1.379405127887706E+02;
1.036000000000000E+09;-2.697528901366333E+00;1.372749718391880E+02;
1.037000000000000E+09;-2.748507187690540E+00;1.365991067913906E+02;
1.038000000000000E+09;-2.798294630466765E+00;1.359698824346545E+02;
1.039000000000000E+09;-2.845935031234151E+00;1.353147630160192E+02;
1.040000000000000E+09;-2.890904923726886E+00;1.346877601880819E+02;
1.041000000000000E+09;-2.938564006715040E+00;1.340373413973382E+02;
1.042000000000000E+09;-2.988345150074248E+00;1.333818948590828E+02;
1.043000000000000E+09;-3.035202965380661E+00;1.327183755989834E+02;
1.044000000000000E+09;-3.079144985498863E+00;1.320424115443777E+02;
1.045000000000000E+09;-3.128441417703352E+00;1.314512039067425E+02;
1.046000000000000E+09;-3.173552869825312E+00;1.308182703749895E+02;
1.047000000000000E+09;-3.220062081848099E+00;1.301874137901681E+02;
1.048000000000000E+09;-3.269309561135056E+00;1.295483958743249E+02;
1.049000000000000E+09;-3.313627357184663E+00;1.289644538409921E+02;
1.050000000000000E+09;-3.364092885570097E+00;1.283383767693328E+02;
1.051000000000000E+09;-3.408519291935211E+00;1.277318021600252E+02;
1.052000000000000E+09;-3.452928192237707E+00;1.271348729330599E+02;
1.053000000000000E+09;-3.501098302930811E+00;1.265464040733993E+02;
1.054000000000000E+09;-3.547310015100046E+00;1.259323497914864E+02;
1.055000000000000E+09;-3.588526027112788E+00;1.253337602734477E+02;
1.056000000000000E+09;-3.638219846523388E+00;1.247767492284225E+02;
1.057000000000000E+09;-3.685854906871735E+00;1.241912250921956E+02;
1.058000000000000E+09;-3.738082829278926E+00;1.235925001393781E+02;
1.059000000000000E+09;-3.787721454509249E+00;1.230249384243456E+02;
1.060000000000000E+09;-3.841306010414862E+00;1.224418423251259E+02;
1.061000000000000E+09;-3.896040473072078E+00;1.218762282181248E+02;
1.062000000000000E+09;-3.951161577056113E+00;1.212768679505771E+02;
1.063000000000000E+09;-4.009821506433068E+00;1.207596948937230E+02;
1.064000000000000E+09;-4.066755099227515E+00;1.202163290285416E+02;
1.065000000000000E+09;-4.130505291840324E+00;1.196388944035803E+02;
1.066000000000000E+09;-4.196826350597110E+00;1.190752004407361E+02;
1.067000000000000E+09;-4.262577443920973E+00;1.185075607856232E+02;
1.068000000000000E+09;-4.337845042385343E+00;1.179714835979373E+02;
1.069000000000000E+09;-4.412033742902426E+00;1.174087634173279E+02;
1.070000000000000E+09;-4.492091975193132E+00;1.168435241610019E+02;
1.071000000000000E+09;-4.576386262277489E+00;1.163334710088294E+02;
1.072000000000000E+09;-4.661451048382209E+00;1.157897673778728E+02;
1.073000000000000E+09;-4.750886391424799E+00;1.152240776176593E+02;
1.074000000000000E+09;-4.849826371351257E+00;1.146868964049982E+02;
1.075000000000000E+09;-4.951180521515571E+00;1.141380722937563E+02;
1.076000000000000E+09;-5.058136871115014E+00;1.135611260420481E+02;
1.077000000000000E+09;-5.172578434946875E+00;1.130037477338613E+02;
1.078000000000000E+09;-5.294144180216819E+00;1.124513825189685E+02;
1.079000000000000E+09;-5.422897338146779E+00;1.119010254420618E+02;
1.080000000000000E+09;-5.562786455569807E+00;1.113284822926896E+02;
1.081000000000000E+09;-5.707733574888982E+00;1.107788220219956E+02;
1.082000000000000E+09;-5.864284388325068E+00;1.102939594082996E+02;
1.083000000000000E+09;-6.028892254368006E+00;1.097498407144918E+02;
1.084000000000000E+09;-6.201097115241580E+00;1.092031949201378E+02;
1.085000000000000E+09;-6.381603392103640E+00;1.087125604994405E+02;
1.086000000000000E+09;-6.578919159036078E+00;1.082884209897856E+02;
1.087000000000000E+09;-6.785578891092784E+00;1.078334865454014E+02;
1.088000000000000E+09;-7.006527350367118E+00;1.073355411802073E+02;
1.089000000000000E+09;-7.228124749457009E+00;1.069777002569037E+02;
1.090000000000000E+09;-7.469690844141347E+00;1.066043427018881E+02;
1.091000000000000E+09;-7.725838006897366E+00;1.062506685852824E+02;
1.092000000000000E+09;-7.991486452004776E+00;1.059629252961458E+02;
1.093000000000000E+09;-8.275506038515614E+00;1.057269846647385E+02;
1.094000000000000E+09;-8.579673179758208E+00;1.054993084063881E+02;
1.095000000000000E+09;-8.897282431429584E+00;1.053463757408222E+02;
1.096000000000000E+09;-9.232080792581229E+00;1.053019105808988E+02;
1.097000000000000E+09;-9.590753104356482E+00;1.053979115643150E+02;
1.098000000000000E+09;-9.960095066523913E+00;1.055470847905577E+02;
1.099000000000000E+09;-1.035433190861155E+01;1.058480014111781E+02;
1.100000000000000E+09;-1.076755762526569E+01;1.063298389963904E+02;
1.101000000000000E+09;-1.119472173655548E+01;1.069763843673080E+02;
1.102000000000000E+09;-1.165152577621107E+01;1.078033709359458E+02;
1.103000000000000E+09;-1.211363433034759E+01;1.089943236245805E+02;
1.104000000000000E+09;-1.259617349085431E+01;1.104289366161647E+02;
1.105000000000000E+09;-1.308548151558394E+01;1.122431171565636E+02;
1.106000000000000E+09;-1.357191595464565E+01;1.144249919714784E+02;
1.107000000000000E+09;-1.404459518365253E+01;1.170301087989128E+02;
1.108000000000000E+09;-1.448921855038629E+01;1.200625179792501E+02;
1.109000000000000E+09;-1.491888875323258E+01;1.234868658375013E+02;
1.110000000000000E+09;-1.530063334492840E+01;1.273947075074217E+02;
1.111000000000000E+09;-1.560299895761531E+01;1.317962313788337E+02;
1.112000000000000E+09;-1.582154975498500E+01;1.364839058106222E+02;
1.113000000000000E+09;-1.596076609383300E+01;1.414011664961058E+02;
1.114000000000000E+09;-1.597356235207609E+01;1.465060414809930E+02;
1.115000000000000E+09;-1.586719364977330E+01;1.514724377651954E+02;
1.116000000000000E+09;-1.568976168901894E+01;1.560571108621296E+02;
1.117000000000000E+09;-1.542022953734105E+01;1.604482703535234E+02;
1.118000000000000E+09;-1.507547132556193E+01;1.643735535277614E+02;
1.119000000000000E+09;-1.468272678772552E+01;1.679390758255852E+02;
1.120000000000000E+09;-1.425092167909911E+01;1.709168148903065E+02;
1.121000000000000E+09;-1.378730524499084E+01;1.734730042985967E+02;
1.122000000000000E+09;-1.330124733019963E+01;1.755895671267097E+02;
1.123000000000000E+09;-1.280982019447027E+01;1.772350357583951E+02;
1.124000000000000E+09;-1.233891869926237E+01;1.784392363845464E+02;
1.125000000000000E+09;-1.188330913926278E+01;1.793457770151568E+02;
1.126000000000000E+09;-1.143077513321407E+01;1.799829028811110E+02;
1.127000000000000E+09;-1.100548021501618E+01;-1.796517673596662E+02;
1.128000000000000E+09;-1.060299839581008E+01;-1.794652173670875E+02;
1.129000000000000E+09;-1.021880131262521E+01;-1.794542303215702E+02;
1.130000000000000E+09;-9.838877106922787E+00;-1.795768559159569E+02;
1.131000000000000E+09;-9.487878545069654E+00;-1.798638008563859E+02;
1.132000000000000E+09;-9.150168911846666E+00;1.797495050632459E+02;
1.133000000000000E+09;-8.821426284303735E+00;1.792769298203716E+02;
1.134000000000000E+09;-8.508549120007419E+00;1.787056922113974E+02;
1.135000000000000E+09;-8.213148601709747E+00;1.780625533653449E+02;
1.136000000000000E+09;-7.935229489153720E+00;1.773490998363357E+02;
1.137000000000000E+09;-7.660146046888334E+00;1.766244043139665E+02;
1.138000000000000E+09;-7.399303702651857E+00;1.758110812427502E+02;
1.139000000000000E+09;-7.157186812020663E+00;1.749975561339452E+02;
1.140000000000000E+09;-6.917586020610505E+00;1.741402174902986E+02;
1.141000000000000E+09;-6.692510895679185E+00;1.732269971928545E+02;
1.142000000000000E+09;-6.482599803267260E+00;1.722906441693976E+02;
1.143000000000000E+09;-6.278310783414835E+00;1.713614784460940E+02;
1.144000000000000E+09;-6.085841885582787E+00;1.704670544687805E+02;
1.145000000000000E+09;-5.896934388289247E+00;1.695205870038857E+02;
1.146000000000000E+09;-5.717502395978742E+00;1.686107195764503E+02;
1.147000000000000E+09;-5.544990616251498E+00;1.676580355262071E+02;
1.148000000000000E+09;-5.378528671506022E+00;1.667654996690743E+02;
1.149000000000000E+09;-5.221926772659860E+00;1.658961056483920E+02;
1.150000000000000E+09;-5.067757397795535E+00;1.649422757849256E+02;
1.151000000000000E+09;-4.914893652035087E+00;1.640673643838551E+02;
1.152000000000000E+09;-4.773120076658381E+00;1.631484328608475E+02;
1.153000000000000E+09;-4.630907246124294E+00;1.623007556672723E+02;
1.154000000000000E+09;-4.497660556738744E+00;1.614026820798147E+02;
1.155000000000000E+09;-4.369284558942814E+00;1.605736111797706E+02;
1.156000000000000E+09;-4.237251745456764E+00;1.597458958194246E+02;
1.157000000000000E+09;-4.118120658098562E+00;1.588916800865412E+02;
1.158000000000000E+09;-3.997342130868013E+00;1.580626878848029E+02;
1.159000000000000E+09;-3.882311284329009E+00;1.572493651702479E+02;
1.160000000000000E+09;-3.779029247151646E+00;1.564456781530151E+02;
1.161000000000000E+09;-3.674938159812391E+00;1.556589476242299E+02;
1.162000000000000E+09;-3.572190050272498E+00;1.548893117950065E+02;
1.163000000000000E+09;-3.477516192441905E+00;1.541312634284541E+02;
1.164000000000000E+09;-3.378784122912501E+00;1.533792987732522E+02;
1.165000000000000E+09;-3.291528493850370E+00;1.526224904092740E+02;
1.166000000000000E+09;-3.205963844113995E+00;1.519139572016731E+02;
1.167000000000000E+09;-3.123023180449199E+00;1.511991394888556E+02;
1.168000000000000E+09;-3.048637009429159E+00;1.505015553625986E+02;
1.169000000000000E+09;-2.972470939965921E+00;1.498218671595953E+02;
1.170000000000000E+09;-2.902649156083736E+00;1.491599640373333E+02;
1.171000000000000E+09;-2.833113050902417E+00;1.485073666555338E+02;
1.172000000000000E+09;-2.769508160970414E+00;1.478687646434253E+02;
1.173000000000000E+09;-2.706427627278480E+00;1.472350479561265E+02;
1.174000000000000E+09;-2.644938708887444E+00;1.466445611157896E+02;
1.175000000000000E+09;-2.587693185073026E+00;1.460474015037882E+02;
1.176000000000000E+09;-2.533657949921811E+00;1.454529564356137E+02;
1.177000000000000E+09;-2.479325005589121E+00;1.448963017322461E+02;
1.178000000000000E+09;-2.427819348720201E+00;1.443089751233281E+02;
1.179000000000000E+09;-2.378493579111400E+00;1.437190445628693E+02;
1.180000000000000E+09;-2.335230851129413E+00;1.431577472915160E+02;
1.181000000000000E+09;-2.292008327734517E+00;1.426161647456667E+02;
1.182000000000000E+09;-2.252067043519840E+00;1.420617373862377E+02;
1.183000000000000E+09;-2.215228571403832E+00;1.414962028798312E+02;
1.184000000000000E+09;-2.178067498091110E+00;1.409498122631721E+02;
1.185000000000000E+09;-2.148550165691064E+00;1.404010926492118E+02;
1.186000000000000E+09;-2.118923969662216E+00;1.398649922206459E+02;
1.187000000000000E+09;-2.090461667882356E+00;1.393137022478197E+02;
1.188000000000000E+09;-2.069488026604598E+00;1.388241794872419E+02;
1.189000000000000E+09;-2.042585211426215E+00;1.382884301958206E+02;
1.190000000000000E+09;-2.022834987372185E+00;1.377655487938140E+02;
1.191000000000000E+09;-2.003982404471006E+00;1.372391171451966E+02;
1.192000000000000E+09;-1.988739543245472E+00;1.367276743387180E+02;
1.193000000000000E+09;-1.970978027105077E+00;1.362263486154195E+02;
1.194000000000000E+09;-1.961372662748972E+00;1.356876585676316E+02;
1.195000000000000E+09;-1.947978223119160E+00;1.352028622978930E+02;
1.196000000000000E+09;-1.935552269425790E+00;1.346941904322821E+02;
1.197000000000000E+09;-1.929356328384088E+00;1.341586775467344E+02;
1.198000000000000E+09;-1.916172848302760E+00;1.336282918263060E+02;
1.199000000000000E+09;-1.911033783156566E+00;1.331081531164694E+02;
1.200000000000000E+09;-1.907844788346258E+00;1.325897990523396E+02;
1.201000000000000E+09;-1.907117641016729E+00;1.320642296419244E+02;
1.202000000000000E+09;-1.904847814262600E+00;1.315450106676580E+02;
1.203000000000000E+09;-1.904302127284835E+00;1.310304036149274E+02;
1.204000000000000E+09;-1.905847211094749E+00;1.304982454495440E+02;
1.205000000000000E+09;-1.908860047785524E+00;1.299847090054009E+02;
1.206000000000000E+09;-1.912635983989984E+00;1.294679862915160E+02;
1.207000000000000E+09;-1.915160138667223E+00;1.289588884251575E+02;
1.208000000000000E+09;-1.916537635481402E+00;1.284374034978827E+02;
1.209000000000000E+09;-1.919321064740998E+00;1.279069001144239E+02;
1.210000000000000E+09;-1.921044667122435E+00;1.274019327427053E+02;
1.211000000000000E+09;-1.923193064165366E+00;1.268683948948714E+02;
1.212000000000000E+09;-1.926656598492483E+00;1.263501710010791E+02;
1.213000000000000E+09;-1.930157684153547E+00;1.257821934234739E+02;
1.214000000000000E+09;-1.933169656951943E+00;1.252681168151909E+02;
1.215000000000000E+09;-1.934441747411794E+00;1.247297170532082E+02;
1.216000000000000E+09;-1.936626345940214E+00;1.241797807893957E+02;
1.217000000000000E+09;-1.939072794421884E+00;1.236399516543711E+02;
1.218000000000000E+09;-1.939349497978277E+00;1.231019599079050E+02;
1.219000000000000E+09;-1.941989079532070E+00;1.225674845882841E+02;
1.220000000000000E+09;-1.942051314956074E+00;1.220160887921831E+02;
1.221000000000000E+09;-1.941199865395017E+00;1.214847675531018E+02;
1.222000000000000E+09;-1.942667715933207E+00;1.209542142970160E+02;
1.223000000000000E+09;-1.937985596423493E+00;1.204281797657686E+02;
1.224000000000000E+09;-1.932327331495535E+00;1.198781681665660E+02;
1.225000000000000E+09;-1.928700076803536E+00;1.193781156226540E+02;
1.226000000000000E+09;-1.920821876543728E+00;1.188373395687213E+02;
1.227000000000000E+09;-1.913410670322348E+00;1.183130694321363E+02;
1.228000000000000E+09;-1.905756091760320E+00;1.177563428910775E+02;
1.229000000000000E+09;-1.893715829892467E+00;1.172173433755416E+02;
1.230000000000000E+09;-1.883255915247982E+00;1.167242731918535E+02;
1.231000000000000E+09;-1.866505533568057E+00;1.161637660005658E+02;
1.232000000000000E+09;-1.848531354838529E+00;1.156626961178160E+02;
1.233000000000000E+09;-1.835623441234903E+00;1.151253547453931E+02;
1.234000000000000E+09;-1.816016250189445E+00;1.146077700209578E+02;
1.235000000000000E+09;-1.801505903640860E+00;1.140805778227039E+02;
1.236000000000000E+09;-1.778489003303985E+00;1.135687365305949E+02;
1.237000000000000E+09;-1.754031698605703E+00;1.130393534274727E+02;
1.238000000000000E+09;-1.735920061426516E+00;1.125339095144924E+02;
1.239000000000000E+09;-1.708910797321421E+00;1.120073636749234E+02;
1.240000000000000E+09;-1.687016025255959E+00;1.115059584466981E+02;
1.241000000000000E+09;-1.659373226116718E+00;1.109744038439139E+02;
1.242000000000000E+09;-1.638147067291551E+00;1.104813167099248E+02;
1.243000000000000E+09;-1.612137130743120E+00;1.099586012321528E+02;
1.244000000000000E+09;-1.583288164792141E+00;1.094751927829422E+02;
1.245000000000000E+09;-1.560175855595119E+00;1.089644285219075E+02;
1.246000000000000E+09;-1.532423469028689E+00;1.084707047336309E+02;
1.247000000000000E+09;-1.504001225084169E+00;1.079864685848544E+02;
1.248000000000000E+09;-1.475751398126308E+00;1.074976881858543E+02;
1.249000000000000E+09;-1.453771443499139E+00;1.070280491660994E+02;
1.250000000000000E+09;-1.426982527783913E+00;1.065704595187952E+02;
1.251000000000000E+09;-1.401036852093789E+00;1.060852082618041E+02;
1.252000000000000E+09;-1.374593247650210E+00;1.056418240497359E+02;
1.253000000000000E+09;-1.347489940390511E+00;1.052090530144945E+02;
1.254000000000000E+09;-1.323331057327462E+00;1.047204193732875E+02;
1.255000000000000E+09;-1.296282811957104E+00;1.042789723157477E+02;
1.256000000000000E+09;-1.272947883685282E+00;1.038386360674089E+02;
1.257000000000000E+09;-1.249960970171828E+00;1.034240210300063E+02;
1.258000000000000E+09;-1.226887161448878E+00;1.030000735432000E+02;
1.259000000000000E+09;-1.206517315030710E+00;1.025582228330374E+02;
1.260000000000000E+09;-1.180281761321110E+00;1.021271697501832E+02;
1.261000000000000E+09;-1.163604216870903E+00;1.017408118988107E+02;
1.262000000000000E+09;-1.145832842367666E+00;1.013336953541243E+02;
1.263000000000000E+09;-1.121841997376221E+00;1.009422075173293E+02;
1.264000000000000E+09;-1.106553551134195E+00;1.005070838444858E+02;
1.265000000000000E+09;-1.089326772382774E+00;1.001136666645120E+02;
1.266000000000000E+09;-1.072712609017140E+00;9.975509126731900E+01;
1.267000000000000E+09;-1.055394376559795E+00;9.934171751021152E+01;
1.268000000000000E+09;-1.043031721553829E+00;9.893016515074446E+01;
1.269000000000000E+09;-1.027827693700125E+00;9.853781431359663E+01;
1.270000000000000E+09;-1.018312921671661E+00;9.815280305573600E+01;
1.271000000000000E+09;-1.008244410245045E+00;9.778427662897214E+01;
1.272000000000000E+09;-9.971545159398607E-01;9.735962448759071E+01;
1.273000000000000E+09;-9.929258091216422E-01;9.699921904125732E+01;
1.274000000000000E+09;-9.854640106034362E-01;9.661833867125355E+01;
1.275000000000000E+09;-9.785195946374334E-01;9.622421826738406E+01;
1.276000000000000E+09;-9.730547108807448E-01;9.583376328675519E+01;
1.277000000000000E+09;-9.707251030501556E-01;9.545848972963005E+01;
1.278000000000000E+09;-9.722207843409165E-01;9.507192482550707E+01;
1.279000000000000E+09;-9.676576470386424E-01;9.469820926133201E+01;
1.280000000000000E+09;-9.626798376096461E-01;9.431520605803880E+01;
1.281000000000000E+09;-9.667442559535979E-01;9.393535260524727E+01;
1.282000000000000E+09;-9.693239256291484E-01;9.351959779109254E+01;
1.283000000000000E+09;-9.712670462359858E-01;9.308884206671395E+01;
1.284000000000000E+09;-9.685331105322461E-01;9.276230962508863E+01;
1.285000000000000E+09;-9.762771438822901E-01;9.235084806148213E+01;
1.286000000000000E+09;-9.817237311214798E-01;9.196706113292545E+01;
1.287000000000000E+09;-9.842497959482135E-01;9.153727164832368E+01;
1.288000000000000E+09;-9.915175615842809E-01;9.112776800766045E+01;
1.289000000000000E+09;-9.948667954496714E-01;9.074110646773080E+01;
1.290000000000000E+09;-1.009709141243558E+00;9.030902415684031E+01;
1.291000000000000E+09;-1.014505341255641E+00;8.986316599647742E+01;
1.292000000000000E+09;-1.020903205882383E+00;8.945329808442129E+01;
