# Version 1.00
#
freq[Hz];db:Trc4_S11;ang:Trc4_S11;
1.000000000000000E+09;-1.293104141752028E+00;1.578349970578544E+02;
1.001000000000000E+09;-1.315392063461932E+00;1.573735108744935E+02;
1.002000000000000E+09;-1.340096721068751E+00;1.569261862360953E+02;
1.003000000000000E+09;-1.367091653473156E+00;1.564479928756230E+02;
1.004000000000000E+09;-1.395296761773097E+00;1.559390582877798E+02;
1.005000000000000E+09;-1.419511362937156E+00;1.555085707059383E+02;
1.006000000000000E+09;-1.450683043811125E+00;1.550064008903948E+02;
1.007000000000000E+09;-1.482531643414339E+00;1.544993438310088E+02;
1.008000000000000E+09;-1.514486768534301E+00;1.540250703335914E+02;
1.009000000000000E+09;-1.548764635807930E+00;1.535220595975725E+02;
1.010000000000000E+09;-1.579715652301536E+00;1.529836607468354E+02;
1.011000000000000E+09;-1.620180323305156E+00;1.524387660167735E+02;
1.012000000000000E+09;-1.653795459829396E+00;1.518752538123893E+02;
1.013000000000000E+09;-1.689326246042975E+00;1.513389501155509E+02;
1.014000000000000E+09;-1.730199831172663E+00;1.507643256118652E+02;
1.015000000000000E+09;-1.772054549158432E+00;1.501806435964345E+02;
1.016000000000000E+09;-1.813428085072066E+00;1.496172187065262E+02;
1.017000000000000E+09;-1.854802657272641E+00;1.489963673707046E+02;
1.018000000000000E+09;-1.901674459518211E+00;1.483887342304222E+02;
1.019000000000000E+09;-1.947215607876450E+00;1.477701387193666E+02;
1.020000000000000E+09;-1.992058424170410E+00;1.471726830327964E+02;
1.021000000000000E+09;-2.042669615155750E+00;1.465104599513204E+02;
1.022000000000000E+09;-2.089407921662752E+00;1.458631603713742E+02;
1.023000000000000E+09;-2.143056416411217E+00;1.452352246526539E+02;
1.024000000000000E+09;-2.190790269465443E+00;1.445931200987958E+02;
1.025000000000000E+09;-2.243934875721067E+00;1.439303782740619E+02;
1.026000000000000E+09;-2.297057006634247E+00;1.432738120264631E+02;
1.027000000000000E+09;-2.345352312214552E+00;1.426133518251907E+02;
1.028000000000000E+09;-2.398714265037326E+00;1.419314771094073E+02;
1.029000000000000E+09;-2.455305992331579E+00;1.412845415852275E+02;
1.030000000000000E+09;-2.511895050753095E+00;1.406120949740130E+02;
1.031000000000000E+09;-2.564106943693378E+00;1.399368326581857E+02;
1.032000000000000E+09;-2.617172843516211E+00;1.392532709461948E+02;
1.033000000000000E+09;-2.664681374258261E+00;1.385879048972202E+02;
1.034000000000000E+09;-2.720181070090305E+00;1.378976705656278E+02;
1.035000000000000E+09;-2.774867197095815E+00;1.372478007983885E+02;
1.036000000000000E+09;-2.820716271673378E+00;1.365733514310224E+02;
1.037000000000000E+09;-2.880146194247112E+00;1.358550998762375E+02;
1.038000000000000E+09;-2.930965015925149E+00;1.352157837478111E+02;
1.039000000000000E+09;-2.979439063228205E+00;1.345625848752358E+02;
1.040000000000000E+09;-3.025676356495759E+00;1.338803344232299E+02;
1.041000000000000E+09;-3.085010411608266E+00;1.332441820703350E+02;
1.042000000000000E+09;-3.132045024205428E+00;1.325785047583490E+02;
1.043000000000000E+09;-3.185613797536535E+00;1.318976194936463E+02;
1.044000000000000E+09;-3.234696223549628E+00;1.312357723842136E+02;
1.045000000000000E+09;-3.279404254905224E+00;1.306501951167818E+02;
1.046000000000000E+09;-3.327170684154574E+00;1.300074842402150E+02;
1.047000000000000E+09;-3.379182815278714E+00;1.293749968475262E+02;
1.048000000000000E+09;-3.421433099563492E+00;1.287363518701941E+02;
1.049000000000000E+09;-3.470480155705578E+00;1.281284824133950E+02;
1.050000000000000E+09;-3.514260049468119E+00;1.275132062631893E+02;
1.051000000000000E+09;-3.561838766381704E+00;1.269282772130024E+02;
1.052000000000000E+09;-3.604891065475346E+00;1.263274515008651E+02;
1.053000000000000E+09;-3.649198630258609E+00;1.257172556044115E+02;
1.054000000000000E+09;-3.698462495919781E+00;1.250863290721313E+02;
1.055000000000000E+09;-3.733394966214635E+00;1.245020363112620E+02;
1.056000000000000E+09;-3.782483064683611E+00;1.239309755124443E+02;
1.057000000000000E+09;-3.826076326128169E+00;1.233408191893199E+02;
1.058000000000000E+09;-3.874795564856312E+00;1.227209954230453E+02;
1.059000000000000E+09;-3.923134655611125E+00;1.221594955625679E+02;
1.060000000000000E+09;-3.972643402464640E+00;1.215522718917007E+02;
1.061000000000000E+09;-4.021304711144531E+00;1.209639351139451E+02;
1.062000000000000E+09;-4.071673500809384E+00;1.203454661764760E+02;
1.063000000000000E+09;-4.131172554549601E+00;1.197896023195156E+02;
1.064000000000000E+09;-4.183391313087829E+00;1.192219722033042E+02;
1.065000000000000E+09;-4.245838740867824E+00;1.186284887726355E+02;
1.066000000000000E+09;-4.309295172055100E+00;1.180365073375427E+02;
1.067000000000000E+09;-4.374618261478322E+00;1.174500309091752E+02;
1.068000000000000E+09;-4.444863030098112E+00;1.168854999151935E+02;
1.069000000000000E+09;-4.519901697128387E+00;1.162702761841125E+02;
1.070000000000000E+09;-4.597239175475091E+00;1.156660792863307E+02;
1.071000000000000E+09;-4.679545277515608E+00;1.151197087498295E+02;
1.072000000000000E+09;-4.767468628429328E+00;1.145365949254444E+02;
1.073000000000000E+09;-4.857504399283941E+00;1.139336065918125E+02;
1.074000000000000E+09;-4.957920974978105E+00;1.133929056021865E+02;
1.075000000000000E+09;-5.064173710427543E+00;1.128107852089507E+02;
1.076000000000000E+09;-5.170548684529650E+00;1.122083421088433E+02;
1.077000000000000E+09;-5.292337532868884E+00;1.116390380369147E+02;
1.078000000000000E+09;-5.412557487819301E+00;1.110979668992430E+02;
1.079000000000000E+09;-5.544570982670524E+00;1.105452745439952E+02;
1.080000000000000E+09;-5.683510719912547E+00;1.100145383665490E+02;
1.081000000000000E+09;-5.829884196905367E+00;1.094821242767782E+02;
1.082000000000000E+09;-5.984944765752642E+00;1.089705251082659E+02;
1.083000000000000E+09;-6.147684047707469E+00;1.084602472274280E+02;
1.084000000000000E+09;-6.319424128462952E+00;1.079489521576011E+02;
1.085000000000000E+09;-6.502472303071701E+00;1.074801516518128E+02;
1.086000000000000E+09;-6.688661558913562E+00;1.070160158181914E+02;
1.087000000000000E+09;-6.891060072775916E+00;1.065537691819692E+02;
1.088000000000000E+09;-7.108512394799913E+00;1.060917148396287E+02;
1.089000000000000E+09;-7.331027297890129E+00;1.056816061324712E+02;
1.090000000000000E+09;-7.570832202580329E+00;1.053347485668086E+02;
1.091000000000000E+09;-7.834692352518966E+00;1.049953113196834E+02;
1.092000000000000E+09;-8.096128332350759E+00;1.046835104557354E+02;
1.093000000000000E+09;-8.382860269675664E+00;1.044927737809040E+02;
1.094000000000000E+09;-8.686284759610029E+00;1.043123797974842E+02;
1.095000000000000E+09;-8.998447022099445E+00;1.042154621390059E+02;
1.096000000000000E+09;-9.328467971242372E+00;1.042729444939938E+02;
1.097000000000000E+09;-9.676015453473973E+00;1.044463560187467E+02;
1.098000000000000E+09;-1.003348232486932E+01;1.046821964094708E+02;
1.099000000000000E+09;-1.040849029480203E+01;1.050721803597377E+02;
1.100000000000000E+09;-1.079096811676769E+01;1.056100626175082E+02;
1.101000000000000E+09;-1.119323778967513E+01;1.062904184486760E+02;
1.102000000000000E+09;-1.161620062881456E+01;1.071961849789049E+02;
1.103000000000000E+09;-1.203906983286439E+01;1.082821118088221E+02;
1.104000000000000E+09;-1.247825084287530E+01;1.096665119285415E+02;
1.105000000000000E+09;-1.291634937305184E+01;1.113071386013822E+02;
1.106000000000000E+09;-1.336834888824457E+01;1.132738792569039E+02;
1.107000000000000E+09;-1.380577846550354E+01;1.156388422655752E+02;
1.108000000000000E+09;-1.421542764550152E+01;1.184303257446756E+02;
1.109000000000000E+09;-1.461106638906384E+01;1.215251596344631E+02;
1.110000000000000E+09;-1.496816919738373E+01;1.250580861250748E+02;
1.111000000000000E+09;-1.524526781045587E+01;1.290265598324848E+02;
1.112000000000000E+09;-1.545518175466115E+01;1.331898041447782E+02;
1.113000000000000E+09;-1.561047399252661E+01;1.375066709043985E+02;
1.114000000000000E+09;-1.566129056550849E+01;1.420145901704700E+02;
1.115000000000000E+09;-1.561433789051422E+01;1.465789271040708E+02;
1.116000000000000E+09;-1.549214602447989E+01;1.508886128556991E+02;
1.117000000000000E+09;-1.528423259121349E+01;1.549916160195657E+02;
1.118000000000000E+09;-1.500333768369363E+01;1.588125474288412E+02;
1.119000000000000E+09;-1.466492861584661E+01;1.622853360407819E+02;
1.120000000000000E+09;-1.427802865179063E+01;1.652053485291877E+02;
1.121000000000000E+09;-1.386215375086345E+01;1.677322977357507E+02;
1.122000000000000E+09;-1.342560229609597E+01;1.698654882258854E+02;
1.123000000000000E+09;-1.298511390784270E+01;1.715334927494878E+02;
1.124000000000000E+09;-1.254750711782450E+01;1.728580151175287E+02;
1.125000000000000E+09;-1.213037787987136E+01;1.738605017918166E+02;
1.126000000000000E+09;-1.170963998220453E+01;1.746212666953678E+02;
1.127000000000000E+09;-1.131154976889341E+01;1.751110391605499E+02;
1.128000000000000E+09;-1.092803101484543E+01;1.754263768782126E+02;
1.129000000000000E+09;-1.055778021707750E+01;1.755281408626043E+02;
1.130000000000000E+09;-1.020186120664788E+01;1.755553189280710E+02;
1.131000000000000E+09;-9.860148013788793E+00;1.753778193927369E+02;
1.132000000000000E+09;-9.534003952343440E+00;1.751323177017235E+02;
1.133000000000000E+09;-9.216879202501229E+00;1.747142861150818E+02;
1.134000000000000E+09;-8.917602687853254E+00;1.742830327004988E+02;
1.135000000000000E+09;-8.636996500455608E+00;1.737956002314168E+02;
1.136000000000000E+09;-8.363124663284704E+00;1.732014438096494E+02;
1.137000000000000E+09;-8.095695342786517E+00;1.725708765104894E+02;
1.138000000000000E+09;-7.842840726576554E+00;1.719160634774730E+02;
1.139000000000000E+09;-7.605290010583498E+00;1.711622786543522E+02;
1.140000000000000E+09;-7.371541222717928E+00;1.704512236248373E+02;
1.141000000000000E+09;-7.147518080320721E+00;1.696662269005085E+02;
1.142000000000000E+09;-6.939493220926435E+00;1.688785871099877E+02;
1.143000000000000E+09;-6.740060494731390E+00;1.680881393585664E+02;
1.144000000000000E+09;-6.537297862739722E+00;1.673198208583215E+02;
1.145000000000000E+09;-6.346602115014267E+00;1.665183458637491E+02;
1.146000000000000E+09;-6.167333252285362E+00;1.656942829312066E+02;
1.147000000000000E+09;-5.985402557705896E+00;1.648856909800276E+02;
1.148000000000000E+09;-5.809328044894091E+00;1.640691568898664E+02;
1.149000000000000E+09;-5.647240047332620E+00;1.632735419513963E+02;
1.150000000000000E+09;-5.482398522465630E+00;1.624305251666704E+02;
1.151000000000000E+09;-5.328892094121422E+00;1.616267462629103E+02;
1.152000000000000E+09;-5.177304832417900E+00;1.608174933589459E+02;
1.153000000000000E+09;-5.035495404342405E+00;1.600373506710514E+02;
1.154000000000000E+09;-4.890309951886145E+00;1.592011257836360E+02;
1.155000000000000E+09;-4.758540830427402E+00;1.584426504905586E+02;
1.156000000000000E+09;-4.621750354285913E+00;1.576790325404724E+02;
1.157000000000000E+09;-4.498151837988267E+00;1.568896427617981E+02;
1.158000000000000E+09;-4.375976119032142E+00;1.561562069587157E+02;
1.159000000000000E+09;-4.258756969973673E+00;1.553652998586687E+02;
1.160000000000000E+09;-4.149925127057662E+00;1.546579222697570E+02;
1.161000000000000E+09;-4.038459434306122E+00;1.539314801846187E+02;
1.162000000000000E+09;-3.934374576726216E+00;1.532332540008766E+02;
1.163000000000000E+09;-3.834761890546993E+00;1.525558273110374E+02;
1.164000000000000E+09;-3.738547246489553E+00;1.518651692307272E+02;
1.165000000000000E+09;-3.645630893624058E+00;1.512034429488749E+02;
1.166000000000000E+09;-3.558354967228906E+00;1.505815136662220E+02;
1.167000000000000E+09;-3.474398635291960E+00;1.499450362940228E+02;
1.168000000000000E+09;-3.391101073881155E+00;1.493426992360920E+02;
1.169000000000000E+09;-3.312577576313832E+00;1.487435363121811E+02;
1.170000000000000E+09;-3.239380046135170E+00;1.481808975306670E+02;
1.171000000000000E+09;-3.163716286990467E+00;1.475940310722266E+02;
1.172000000000000E+09;-3.094680908858009E+00;1.470468944512455E+02;
1.173000000000000E+09;-3.028207364008685E+00;1.464962251347143E+02;
1.174000000000000E+09;-2.962379997115342E+00;1.459800368133558E+02;
1.175000000000000E+09;-2.899618935953405E+00;1.454577933257654E+02;
1.176000000000000E+09;-2.841128713337548E+00;1.449147134134593E+02;
1.177000000000000E+09;-2.783991256403617E+00;1.444308330219672E+02;
1.178000000000000E+09;-2.728820465251883E+00;1.439324189485595E+02;
1.179000000000000E+09;-2.676490233801013E+00;1.434097803316269E+02;
1.180000000000000E+09;-2.629893958115667E+00;1.429512028365152E+02;
1.181000000000000E+09;-2.580666716487700E+00;1.424654408089656E+02;
1.182000000000000E+09;-2.539717877938216E+00;1.419821117939817E+02;
1.183000000000000E+09;-2.502442538593941E+00;1.415034727778740E+02;
1.184000000000000E+09;-2.459061248761568E+00;1.410544471682556E+02;
1.185000000000000E+09;-2.423622248309478E+00;1.405836219451955E+02;
1.186000000000000E+09;-2.388798485076069E+00;1.401402413232938E+02;
1.187000000000000E+09;-2.350821345990991E+00;1.396751121740523E+02;
1.188000000000000E+09;-2.322337771733803E+00;1.392557675665107E+02;
1.189000000000000E+09;-2.290129067871462E+00;1.388053326858517E+02;
1.190000000000000E+09;-2.258269229516843E+00;1.383478120695860E+02;
1.191000000000000E+09;-2.233137510761757E+00;1.378856090481002E+02;
1.192000000000000E+09;-2.212141726203487E+00;1.374327990595672E+02;
1.193000000000000E+09;-2.187833791062500E+00;1.370038443865237E+02;
1.194000000000000E+09;-2.167673109800652E+00;1.365090749768478E+02;
1.195000000000000E+09;-2.149628250770280E+00;1.360509290123753E+02;
1.196000000000000E+09;-2.129906840436738E+00;1.355925950601469E+02;
1.197000000000000E+09;-2.117933276203149E+00;1.351206151256663E+02;
1.198000000000000E+09;-2.098002192096523E+00;1.346600840874559E+02;
1.199000000000000E+09;-2.083874124264099E+00;1.342263530166916E+02;
1.200000000000000E+09;-2.069877735978169E+00;1.337640967801478E+02;
1.201000000000000E+09;-2.058109555520653E+00;1.332814445024667E+02;
1.202000000000000E+09;-2.047246868362238E+00;1.328030570069059E+02;
1.203000000000000E+09;-2.034036118552784E+00;1.323343539356239E+02;
1.204000000000000E+09;-2.024222269084281E+00;1.318388385839085E+02;
1.205000000000000E+09;-2.014084319437551E+00;1.313611402314623E+02;
1.206000000000000E+09;-2.002557705594730E+00;1.308725543724251E+02;
1.207000000000000E+09;-1.993038569834063E+00;1.303749936520042E+02;
1.208000000000000E+09;-1.983188912503894E+00;1.298632918863982E+02;
1.209000000000000E+09;-1.971527774823034E+00;1.293246804130544E+02;
1.210000000000000E+09;-1.962781122501515E+00;1.287983900076329E+02;
1.211000000000000E+09;-1.951633738491664E+00;1.282585551332753E+02;
1.212000000000000E+09;-1.943915509335118E+00;1.277250542607853E+02;
1.213000000000000E+09;-1.933050498029387E+00;1.271212812651125E+02;
1.214000000000000E+09;-1.924376431559895E+00;1.265822612428721E+02;
1.215000000000000E+09;-1.909595791800429E+00;1.260179060994335E+02;
1.216000000000000E+09;-1.901841021046799E+00;1.254000813846871E+02;
1.217000000000000E+09;-1.892550285419221E+00;1.248196640725667E+02;
1.218000000000000E+09;-1.880278227792672E+00;1.242334310430842E+02;
1.219000000000000E+09;-1.874608957296173E+00;1.236046498258815E+02;
1.220000000000000E+09;-1.863474316644885E+00;1.229700209476224E+02;
1.221000000000000E+09;-1.851222940149488E+00;1.223559279359705E+02;
1.222000000000000E+09;-1.842498151591092E+00;1.217372036928570E+02;
1.223000000000000E+09;-1.832437689059198E+00;1.211129795471188E+02;
1.224000000000000E+09;-1.822692927644629E+00;1.204468178208351E+02;
1.225000000000000E+09;-1.816687302532939E+00;1.198211810953936E+02;
1.226000000000000E+09;-1.803265987126874E+00;1.191742730310369E+02;
1.227000000000000E+09;-1.794925205157436E+00;1.185150540679897E+02;
1.228000000000000E+09;-1.786726945593871E+00;1.178689838142129E+02;
1.229000000000000E+09;-1.773393344347191E+00;1.172273015966836E+02;
1.230000000000000E+09;-1.767663992132538E+00;1.166256190518856E+02;
1.231000000000000E+09;-1.751702865494282E+00;1.159602660613512E+02;
1.232000000000000E+09;-1.742228570928588E+00;1.153230232007331E+02;
1.233000000000000E+09;-1.727613928925810E+00;1.147102872122584E+02;
1.234000000000000E+09;-1.718559499870442E+00;1.140596950053140E+02;
1.235000000000000E+09;-1.708109326180292E+00;1.134519974133965E+02;
1.236000000000000E+09;-1.691698898230762E+00;1.128277990031985E+02;
1.237000000000000E+09;-1.676249157169147E+00;1.122264125772329E+02;
1.238000000000000E+09;-1.669274300207899E+00;1.116398128392981E+02;
1.239000000000000E+09;-1.646859794284518E+00;1.110226266272767E+02;
1.240000000000000E+09;-1.632414072778672E+00;1.104261510459818E+02;
1.241000000000000E+09;-1.620606239651665E+00;1.098396102132443E+02;
1.242000000000000E+09;-1.601816899199391E+00;1.092896266196654E+02;
1.243000000000000E+09;-1.586381937222053E+00;1.087254342711787E+02;
1.244000000000000E+09;-1.566420171496728E+00;1.081927455901414E+02;
1.245000000000000E+09;-1.551170495841113E+00;1.076393388039607E+02;
1.246000000000000E+09;-1.534757858289089E+00;1.071085220725492E+02;
1.247000000000000E+09;-1.514763225322729E+00;1.065749698439203E+02;
1.248000000000000E+09;-1.495937034630072E+00;1.060529839271307E+02;
1.249000000000000E+09;-1.477633304937416E+00;1.055588620478472E+02;
1.250000000000000E+09;-1.458063724800993E+00;1.050429247263767E+02;
1.251000000000000E+09;-1.442079830270705E+00;1.045442910878852E+02;
1.252000000000000E+09;-1.423870789113253E+00;1.040779737065102E+02;
1.253000000000000E+09;-1.404206005738538E+00;1.036095067302113E+02;
1.254000000000000E+09;-1.386726883638539E+00;1.031227094244201E+02;
1.255000000000000E+09;-1.369373283483315E+00;1.026626871495356E+02;
1.256000000000000E+09;-1.353475587987159E+00;1.022016516851189E+02;
1.257000000000000E+09;-1.335828325243263E+00;1.017767870421583E+02;
1.258000000000000E+09;-1.318024419191905E+00;1.013589817682587E+02;
1.259000000000000E+09;-1.303476890888559E+00;1.009038108033627E+02;
1.260000000000000E+09;-1.284507293389394E+00;1.004677889654979E+02;
1.261000000000000E+09;-1.273610428197222E+00;1.000718314194837E+02;
1.262000000000000E+09;-1.259980295343356E+00;9.965853724362158E+01;
1.263000000000000E+09;-1.243570823487653E+00;9.926569503949983E+01;
1.264000000000000E+09;-1.232719790570155E+00;9.882080194005766E+01;
1.265000000000000E+09;-1.219058964837999E+00;9.843607240401374E+01;
1.266000000000000E+09;-1.209220258740949E+00;9.807939224173305E+01;
1.267000000000000E+09;-1.198643722905438E+00;9.766883964153976E+01;
1.268000000000000E+09;-1.187564060195557E+00;9.727063326499781E+01;
1.269000000000000E+09;-1.179475578693251E+00;9.689178690238343E+01;
1.270000000000000E+09;-1.171414614000822E+00;9.653142733536509E+01;
1.271000000000000E+09;-1.163043544389803E+00;9.616770396682509E+01;
1.272000000000000E+09;-1.157968947545240E+00;9.576207567908148E+01;
1.273000000000000E+09;-1.153234646172140E+00;9.539177062801033E+01;
1.274000000000000E+09;-1.146337169775475E+00;9.503076855732671E+01;
1.275000000000000E+09;-1.144033222467986E+00;9.465593467659318E+01;
1.276000000000000E+09;-1.135575504702611E+00;9.428552133461302E+01;
1.277000000000000E+09;-1.135578652657663E+00;9.391373616919539E+01;
1.278000000000000E+09;-1.134104363291476E+00;9.353496580646602E+01;
1.279000000000000E+09;-1.133723604973982E+00;9.315096123442970E+01;
1.280000000000000E+09;-1.129100610237364E+00;9.279863574663756E+01;
1.281000000000000E+09;-1.129859757777439E+00;9.242787818850985E+01;
1.282000000000000E+09;-1.130755548935737E+00;9.203059041383246E+01;
1.283000000000000E+09;-1.133441787032425E+00;9.159676114190253E+01;
1.284000000000000E+09;-1.133261832705594E+00;9.124668339950151E+01;
1.285000000000000E+09;-1.135999037942004E+00;9.083779835298044E+01;
1.286000000000000E+09;-1.139926515999374E+00;9.042042503598708E+01;
1.287000000000000E+09;-1.144855063002619E+00;9.000579509031064E+01;
1.288000000000000E+09;-1.150685169886938E+00;8.958740406312978E+01;
1.289000000000000E+09;-1.154192001968696E+00;8.918743047731505E+01;
1.290000000000000E+09;-1.163357445214010E+00;8.878989886166357E+01;
1.291000000000000E+09;-1.170512187762916E+00;8.832946655671144E+01;
1.292000000000000E+09;-1.176477382803030E+00;8.790267237397258E+01;
