# Version 1.00
#
freq[Hz];db:Trc4_S11;ang:Trc4_S11;
1.000000000000000E+09;-1.310638059515483E+00;1.578965020419878E+02;
1.001000000000000E+09;-1.336156529945672E+00;1.574511307091139E+02;
1.002000000000000E+09;-1.359892804326094E+00;1.569754175802858E+02;
1.003000000000000E+09;-1.387117951283520E+00;1.565027082059440E+02;
1.004000000000000E+09;-1.414879784386540E+00;1.560334635981684E+02;
1.005000000000000E+09;-1.441214610761382E+00;1.555765824398831E+02;
1.006000000000000E+09;-1.471516569762682E+00;1.550724872377970E+02;
1.007000000000000E+09;-1.503791333438252E+00;1.545756957774720E+02;
1.008000000000000E+09;-1.538962944502883E+00;1.541109559469869E+02;
1.009000000000000E+09;-1.571855214141778E+00;1.536027793832679E+02;
1.010000000000000E+09;-1.604325837308115E+00;1.530668254021114E+02;
1.011000000000000E+09;-1.643531103970741E+00;1.525386164888147E+02;
1.012000000000000E+09;-1.681141482712135E+00;1.519764512227924E+02;
1.013000000000000E+09;-1.713650112633967E+00;1.514459336605427E+02;
1.014000000000000E+09;-1.752669752878638E+00;1.508780785840056E+02;
1.015000000000000E+09;-1.795524071079336E+00;1.503184762649442E+02;
1.016000000000000E+09;-1.837064828544004E+00;1.497369824670983E+02;
1.017000000000000E+09;-1.880105999733428E+00;1.491302895075179E+02;
1.018000000000000E+09;-1.923393664141825E+00;1.485254501851655E+02;
1.019000000000000E+09;-1.971497512762346E+00;1.479084167378082E+02;
1.020000000000000E+09;-2.015527291449283E+00;1.473172111333874E+02;
1.021000000000000E+09;-2.065928940335465E+00;1.466724606369343E+02;
1.022000000000000E+09;-2.112001065901460E+00;1.460256265949958E+02;
1.023000000000000E+09;-2.165583078417340E+00;1.453909070127565E+02;
1.024000000000000E+09;-2.216282297608065E+00;1.447495480765608E+02;
1.025000000000000E+09;-2.272381404266826E+00;1.440813727588739E+02;
1.026000000000000E+09;-2.324599324724796E+00;1.434465321903181E+02;
1.027000000000000E+09;-2.374436738521617E+00;1.427912369701946E+02;
1.028000000000000E+09;-2.431221592128941E+00;1.421281170759582E+02;
1.029000000000000E+09;-2.485769756121522E+00;1.414831610720324E+02;
1.030000000000000E+09;-2.545426355956569E+00;1.408142855920539E+02;
1.031000000000000E+09;-2.597418500570591E+00;1.401439089912770E+02;
1.032000000000000E+09;-2.650777888816876E+00;1.394814023279690E+02;
1.033000000000000E+09;-2.707786631531261E+00;1.388075811153968E+02;
1.034000000000000E+09;-2.757361349756082E+00;1.381698347828375E+02;
1.035000000000000E+09;-2.813832509948839E+00;1.375402720860957E+02;
1.036000000000000E+09;-2.868740980273585E+00;1.368392187617945E+02;
1.037000000000000E+09;-2.923197858381753E+00;1.361633590439950E+02;
1.038000000000000E+09;-2.976463905860437E+00;1.355635820782946E+02;
1.039000000000000E+09;-3.031323354911579E+00;1.349351504111789E+02;
1.040000000000000E+09;-3.081799001044892E+00;1.342479341632850E+02;
1.041000000000000E+09;-3.136514347044703E+00;1.336033853843737E+02;
1.042000000000000E+09;-3.182458531528938E+00;1.329974437410236E+02;
1.043000000000000E+09;-3.238523245723866E+00;1.323425230883637E+02;
1.044000000000000E+09;-3.287362498217066E+00;1.316905430295693E+02;
1.045000000000000E+09;-3.340748968665423E+00;1.310966467895630E+02;
1.046000000000000E+09;-3.387252277873935E+00;1.305077712646800E+02;
1.047000000000000E+09;-3.435401367081779E+00;1.298889741264580E+02;
1.048000000000000E+09;-3.486054950265394E+00;1.292742042670574E+02;
1.049000000000000E+09;-3.532005606653804E+00;1.286982244647309E+02;
1.050000000000000E+09;-3.577591766473278E+00;1.281218754653927E+02;
1.051000000000000E+09;-3.626879260179272E+00;1.275488959925864E+02;
1.052000000000000E+09;-3.672866899186458E+00;1.269912710193639E+02;
1.053000000000000E+09;-3.721469802131773E+00;1.264118163015693E+02;
1.054000000000000E+09;-3.768092107917819E+00;1.258239138647016E+02;
1.055000000000000E+09;-3.806457431703105E+00;1.252575230708947E+02;
1.056000000000000E+09;-3.856442531621143E+00;1.247287912071953E+02;
1.057000000000000E+09;-3.904554880691211E+00;1.241584552832208E+02;
1.058000000000000E+09;-3.951878680601524E+00;1.235857912054467E+02;
1.059000000000000E+09;-3.999608046648377E+00;1.230598385922116E+02;
1.060000000000000E+09;-4.052207604918293E+00;1.224940857876879E+02;
1.061000000000000E+09;-4.102060619549396E+00;1.219683273896667E+02;
1.062000000000000E+09;-4.155996132367807E+00;1.214034704784687E+02;
1.063000000000000E+09;-4.211827913702784E+00;1.209168943251475E+02;
1.064000000000000E+09;-4.263967115572522E+00;1.204068121241589E+02;
1.065000000000000E+09;-4.323988870162569E+00;1.198749358025273E+02;
1.066000000000000E+09;-4.384368729732476E+00;1.193541939294259E+02;
1.067000000000000E+09;-4.442851891650540E+00;1.188423123737802E+02;
1.068000000000000E+09;-4.509006276947419E+00;1.183529970013549E+02;
1.069000000000000E+09;-4.575693122907579E+00;1.177932422755183E+02;
1.070000000000000E+09;-4.647873990830314E+00;1.172538929994198E+02;
1.071000000000000E+09;-4.719931026265986E+00;1.167641502634076E+02;
1.072000000000000E+09;-4.801480568392873E+00;1.162536098325485E+02;
1.073000000000000E+09;-4.878384734730283E+00;1.157274869852760E+02;
1.074000000000000E+09;-4.972234580424471E+00;1.151967605264683E+02;
1.075000000000000E+09;-5.061674540770290E+00;1.146808576146079E+02;
1.076000000000000E+09;-5.157349322961179E+00;1.141520204460879E+02;
1.077000000000000E+09;-5.261893482630722E+00;1.136053998573191E+02;
1.078000000000000E+09;-5.370718124105838E+00;1.131363602846896E+02;
1.079000000000000E+09;-5.487269779820537E+00;1.126102385828915E+02;
1.080000000000000E+09;-5.613547844651293E+00;1.120784692440671E+02;
1.081000000000000E+09;-5.744755339261656E+00;1.115874198916590E+02;
1.082000000000000E+09;-5.876420480183477E+00;1.111040567265057E+02;
1.083000000000000E+09;-6.024208884526201E+00;1.106105886547062E+02;
1.084000000000000E+09;-6.180413135273087E+00;1.101048428811699E+02;
1.085000000000000E+09;-6.341591938167515E+00;1.096457272647055E+02;
1.086000000000000E+09;-6.518790047810487E+00;1.092375229869551E+02;
1.087000000000000E+09;-6.698831039100927E+00;1.088157771087623E+02;
1.088000000000000E+09;-6.889715430105566E+00;1.083581354607709E+02;
1.089000000000000E+09;-7.083661905303185E+00;1.080014217597802E+02;
1.090000000000000E+09;-7.294860724495214E+00;1.076492460643884E+02;
1.091000000000000E+09;-7.516189678485613E+00;1.072439948939010E+02;
1.092000000000000E+09;-7.748511346858571E+00;1.069388786303979E+02;
1.093000000000000E+09;-7.995544324289633E+00;1.066600063196204E+02;
1.094000000000000E+09;-8.256210246428708E+00;1.063988886516863E+02;
1.095000000000000E+09;-8.528262621407636E+00;1.061829681020344E+02;
1.096000000000000E+09;-8.820027924942455E+00;1.060757658007437E+02;
1.097000000000000E+09;-9.124164359231266E+00;1.060025298973420E+02;
1.098000000000000E+09;-9.441765737217656E+00;1.060162126644398E+02;
1.099000000000000E+09;-9.781502106357554E+00;1.061243061119273E+02;
1.100000000000000E+09;-1.013385474352283E+01;1.063642756715917E+02;
1.101000000000000E+09;-1.050319142082855E+01;1.067187281274592E+02;
1.102000000000000E+09;-1.088645428251244E+01;1.072419748958009E+02;
1.103000000000000E+09;-1.128551698933757E+01;1.079635894769110E+02;
1.104000000000000E+09;-1.170377061093379E+01;1.088432405880880E+02;
1.105000000000000E+09;-1.212897758970438E+01;1.099970964443838E+02;
1.106000000000000E+09;-1.255618796224487E+01;1.113582541349602E+02;
1.107000000000000E+09;-1.299921280828503E+01;1.131539875455902E+02;
1.108000000000000E+09;-1.342268345416550E+01;1.151836969907941E+02;
1.109000000000000E+09;-1.384209325151198E+01;1.174952952737485E+02;
1.110000000000000E+09;-1.425016982772794E+01;1.202236496040123E+02;
1.111000000000000E+09;-1.462486750344097E+01;1.233769080621241E+02;
1.112000000000000E+09;-1.495203418432139E+01;1.269036089553666E+02;
1.113000000000000E+09;-1.524022212289102E+01;1.307654313225570E+02;
1.114000000000000E+09;-1.544363935000332E+01;1.349117324358950E+02;
1.115000000000000E+09;-1.555741306809234E+01;1.393817353314272E+02;
1.116000000000000E+09;-1.559265312726315E+01;1.438413638047006E+02;
1.117000000000000E+09;-1.553899175027414E+01;1.483351160685157E+02;
1.118000000000000E+09;-1.539078970474944E+01;1.525849591292250E+02;
1.119000000000000E+09;-1.515356613174059E+01;1.567015971087667E+02;
1.120000000000000E+09;-1.485279955205094E+01;1.603112842903982E+02;
1.121000000000000E+09;-1.450396358475093E+01;1.635602696040850E+02;
1.122000000000000E+09;-1.410614936878911E+01;1.664267838585408E+02;
1.123000000000000E+09;-1.369185101354308E+01;1.688079236113674E+02;
1.124000000000000E+09;-1.325284187929388E+01;1.708619322071867E+02;
1.125000000000000E+09;-1.282751758817636E+01;1.724926472999833E+02;
1.126000000000000E+09;-1.238264516529820E+01;1.737815704553489E+02;
1.127000000000000E+09;-1.195684721961639E+01;1.747590638344146E+02;
1.128000000000000E+09;-1.153328469637182E+01;1.754827459475873E+02;
1.129000000000000E+09;-1.112335284513009E+01;1.759663514922149E+02;
1.130000000000000E+09;-1.072362147341729E+01;1.762630464604638E+02;
1.131000000000000E+09;-1.035153387539413E+01;1.763449199077040E+02;
1.132000000000000E+09;-9.988803611803624E+00;1.762786840445687E+02;
1.133000000000000E+09;-9.638514221612638E+00;1.760511007809259E+02;
1.134000000000000E+09;-9.303611958809558E+00;1.757332999018685E+02;
1.135000000000000E+09;-8.992688867696765E+00;1.753403136278887E+02;
1.136000000000000E+09;-8.690881366513084E+00;1.748603469034662E+02;
1.137000000000000E+09;-8.391418460751655E+00;1.743558235628944E+02;
1.138000000000000E+09;-8.113887410932502E+00;1.737809863936991E+02;
1.139000000000000E+09;-7.848655790303919E+00;1.731002253502447E+02;
1.140000000000000E+09;-7.586419259540390E+00;1.724441290732575E+02;
1.141000000000000E+09;-7.338804948435806E+00;1.716867259393583E+02;
1.142000000000000E+09;-7.101734423197722E+00;1.709178379679943E+02;
1.143000000000000E+09;-6.876842926618698E+00;1.701187280811542E+02;
1.144000000000000E+09;-6.652542174840379E+00;1.693225360317688E+02;
1.145000000000000E+09;-6.446344727804022E+00;1.684930209299051E+02;
1.146000000000000E+09;-6.256586329292667E+00;1.676799426254283E+02;
1.147000000000000E+09;-6.058083212919562E+00;1.668247594541642E+02;
1.148000000000000E+09;-5.870604761411526E+00;1.660410355039968E+02;
1.149000000000000E+09;-5.692146337077460E+00;1.652394470186355E+02;
1.150000000000000E+09;-5.512112146975992E+00;1.643909313845873E+02;
1.151000000000000E+09;-5.345413843823924E+00;1.635878797804487E+02;
1.152000000000000E+09;-5.180238171007843E+00;1.627780340918239E+02;
1.153000000000000E+09;-5.018656607368499E+00;1.619285242601220E+02;
1.154000000000000E+09;-4.869400435302448E+00;1.611229018755080E+02;
1.155000000000000E+09;-4.718453364962951E+00;1.602947895858412E+02;
1.156000000000000E+09;-4.575223359746568E+00;1.594939573373822E+02;
1.157000000000000E+09;-4.440364087434091E+00;1.586531359449310E+02;
1.158000000000000E+09;-4.305401721070943E+00;1.578972019980332E+02;
1.159000000000000E+09;-4.182816758515528E+00;1.571009437417333E+02;
1.160000000000000E+09;-4.060833819810330E+00;1.563478877023992E+02;
1.161000000000000E+09;-3.944890020534280E+00;1.555953408775101E+02;
1.162000000000000E+09;-3.832483690276855E+00;1.548767582839023E+02;
1.163000000000000E+09;-3.725503580641901E+00;1.541560375372802E+02;
1.164000000000000E+09;-3.616367159123983E+00;1.534742739815129E+02;
1.165000000000000E+09;-3.512012894722705E+00;1.527283346492540E+02;
1.166000000000000E+09;-3.414582592514748E+00;1.520699411089425E+02;
1.167000000000000E+09;-3.317794536153290E+00;1.513722821132045E+02;
1.168000000000000E+09;-3.226280613870882E+00;1.507074833443028E+02;
1.169000000000000E+09;-3.138113201827065E+00;1.500386463860768E+02;
1.170000000000000E+09;-3.055865121374916E+00;1.493915847812593E+02;
1.171000000000000E+09;-2.974186799940494E+00;1.487319911636091E+02;
1.172000000000000E+09;-2.898732343480908E+00;1.481080475310756E+02;
1.173000000000000E+09;-2.826264243608994E+00;1.474765288507161E+02;
1.174000000000000E+09;-2.755415019312857E+00;1.468669372198781E+02;
1.175000000000000E+09;-2.688802003283665E+00;1.462623361905055E+02;
1.176000000000000E+09;-2.629051027710847E+00;1.456525871598930E+02;
1.177000000000000E+09;-2.566780880317979E+00;1.450849993517570E+02;
1.178000000000000E+09;-2.509770544350425E+00;1.445037415336287E+02;
1.179000000000000E+09;-2.456878910565078E+00;1.439120951978875E+02;
1.180000000000000E+09;-2.408106184455725E+00;1.433618965679682E+02;
1.181000000000000E+09;-2.356624220272598E+00;1.428153580742828E+02;
1.182000000000000E+09;-2.313144845139090E+00;1.422684938596377E+02;
1.183000000000000E+09;-2.269849170161162E+00;1.417152004735133E+02;
1.184000000000000E+09;-2.228036269190203E+00;1.411629632693912E+02;
1.185000000000000E+09;-2.194606523039532E+00;1.406258012986033E+02;
1.186000000000000E+09;-2.159319796114024E+00;1.400930583338903E+02;
1.187000000000000E+09;-2.126104169282755E+00;1.395603351391930E+02;
1.188000000000000E+09;-2.101105217771435E+00;1.390400061774598E+02;
1.189000000000000E+09;-2.070550147447145E+00;1.385119253195373E+02;
1.190000000000000E+09;-2.047216247275508E+00;1.379712829408658E+02;
1.191000000000000E+09;-2.022764182782551E+00;1.374732153061300E+02;
1.192000000000000E+09;-2.001721202647080E+00;1.369491911279015E+02;
1.193000000000000E+09;-1.981253148887478E+00;1.364217337880265E+02;
1.194000000000000E+09;-1.965656397742694E+00;1.358735575810197E+02;
1.195000000000000E+09;-1.949075576031124E+00;1.353916883143744E+02;
1.196000000000000E+09;-1.934623685255245E+00;1.348570528953471E+02;
1.197000000000000E+09;-1.924121061659627E+00;1.343508011787648E+02;
1.198000000000000E+09;-1.915376196554280E+00;1.337906248868947E+02;
1.199000000000000E+09;-1.903790911771970E+00;1.332835586625100E+02;
1.200000000000000E+09;-1.897250194796376E+00;1.327620309775501E+02;
1.201000000000000E+09;-1.891678044841713E+00;1.321981368700022E+02;
1.202000000000000E+09;-1.885606085977503E+00;1.316737134271316E+02;
1.203000000000000E+09;-1.883466400546335E+00;1.311376276810974E+02;
1.204000000000000E+09;-1.879649251351999E+00;1.305732535836316E+02;
1.205000000000000E+09;-1.874070450071355E+00;1.300529928771695E+02;
1.206000000000000E+09;-1.877753201003588E+00;1.295261390728806E+02;
1.207000000000000E+09;-1.876400751903514E+00;1.289887068624410E+02;
1.208000000000000E+09;-1.876885974089919E+00;1.284125485210569E+02;
1.209000000000000E+09;-1.873378463925531E+00;1.278725476076874E+02;
1.210000000000000E+09;-1.874641711694169E+00;1.273192718608341E+02;
1.211000000000000E+09;-1.875781773964761E+00;1.267557269129010E+02;
1.212000000000000E+09;-1.873236836786722E+00;1.261807797852756E+02;
1.213000000000000E+09;-1.875721801988128E+00;1.255714075060475E+02;
1.214000000000000E+09;-1.876915971488783E+00;1.250260739712570E+02;
1.215000000000000E+09;-1.876388867859633E+00;1.244238375611597E+02;
1.216000000000000E+09;-1.880246328721225E+00;1.238207356599399E+02;
1.217000000000000E+09;-1.881365406239630E+00;1.232355248103318E+02;
1.218000000000000E+09;-1.882652876132388E+00;1.226388453903287E+02;
1.219000000000000E+09;-1.886951541246258E+00;1.220530657861776E+02;
1.220000000000000E+09;-1.887947276702935E+00;1.214363992170600E+02;
1.221000000000000E+09;-1.887366954700664E+00;1.208410990138010E+02;
1.222000000000000E+09;-1.889648956025078E+00;1.202545786976709E+02;
1.223000000000000E+09;-1.887198355167050E+00;1.196494498033296E+02;
1.224000000000000E+09;-1.885583323680416E+00;1.190417708443518E+02;
1.225000000000000E+09;-1.883724570806654E+00;1.184585267564128E+02;
1.226000000000000E+09;-1.881303398079455E+00;1.178339559500185E+02;
1.227000000000000E+09;-1.881639542250115E+00;1.172294354425072E+02;
1.228000000000000E+09;-1.879349933483786E+00;1.166384056588522E+02;
1.229000000000000E+09;-1.876242962045676E+00;1.160379607357717E+02;
1.230000000000000E+09;-1.873223547279435E+00;1.154622036919960E+02;
1.231000000000000E+09;-1.864366316461011E+00;1.148403043399200E+02;
1.232000000000000E+09;-1.858848570998619E+00;1.142527878988027E+02;
1.233000000000000E+09;-1.854809062653637E+00;1.136999432383893E+02;
1.234000000000000E+09;-1.846235804315107E+00;1.131189055600581E+02;
1.235000000000000E+09;-1.842227799160137E+00;1.125554083072995E+02;
1.236000000000000E+09;-1.833314115916229E+00;1.120018137154429E+02;
1.237000000000000E+09;-1.819567219831218E+00;1.114277819815073E+02;
1.238000000000000E+09;-1.814140374166522E+00;1.108909668269890E+02;
1.239000000000000E+09;-1.801490391823450E+00;1.103556486609884E+02;
1.240000000000000E+09;-1.787111257954087E+00;1.098228677225618E+02;
1.241000000000000E+09;-1.775700220491663E+00;1.093112507947327E+02;
1.242000000000000E+09;-1.759465212056916E+00;1.087983066788488E+02;
1.243000000000000E+09;-1.742619072185416E+00;1.082910219481392E+02;
1.244000000000000E+09;-1.728022013466912E+00;1.078328387493456E+02;
1.245000000000000E+09;-1.713836298745504E+00;1.073184992334741E+02;
1.246000000000000E+09;-1.695303394807109E+00;1.068572841125849E+02;
1.247000000000000E+09;-1.677936856154480E+00;1.063934995773217E+02;
1.248000000000000E+09;-1.658697983259770E+00;1.059232465884469E+02;
1.249000000000000E+09;-1.638501475492294E+00;1.054698941884582E+02;
1.250000000000000E+09;-1.620604087635669E+00;1.050202117451274E+02;
1.251000000000000E+09;-1.599520919007966E+00;1.045596582781896E+02;
1.252000000000000E+09;-1.580198865432849E+00;1.041743978476907E+02;
1.253000000000000E+09;-1.557670761418405E+00;1.037375531023262E+02;
1.254000000000000E+09;-1.537649592339295E+00;1.033064871413725E+02;
1.255000000000000E+09;-1.518392849013940E+00;1.028806536916993E+02;
1.256000000000000E+09;-1.495443201297854E+00;1.024685972205711E+02;
1.257000000000000E+09;-1.475997906675286E+00;1.020786194688914E+02;
1.258000000000000E+09;-1.453969074235908E+00;1.016954876889555E+02;
1.259000000000000E+09;-1.434371779899087E+00;1.012575643603463E+02;
1.260000000000000E+09;-1.413257683053800E+00;1.008566731882783E+02;
1.261000000000000E+09;-1.397295475025506E+00;1.004952153900658E+02;
1.262000000000000E+09;-1.380728161349217E+00;1.001057846209885E+02;
1.263000000000000E+09;-1.359473024409076E+00;9.972902250683032E+01;
1.264000000000000E+09;-1.342471630761375E+00;9.931197380212703E+01;
1.265000000000000E+09;-1.328039915089814E+00;9.895173086593655E+01;
1.266000000000000E+09;-1.312762929904821E+00;9.861197428735541E+01;
1.267000000000000E+09;-1.298415109659907E+00;9.821967268592192E+01;
1.268000000000000E+09;-1.283317109818060E+00;9.785233735486148E+01;
1.269000000000000E+09;-1.271046010908800E+00;9.747665845953594E+01;
1.270000000000000E+09;-1.259327290917497E+00;9.713513543631477E+01;
1.271000000000000E+09;-1.246824185641658E+00;9.677660382810485E+01;
1.272000000000000E+09;-1.235733313554039E+00;9.637235729842686E+01;
1.273000000000000E+09;-1.226349577649257E+00;9.601479054740496E+01;
1.274000000000000E+09;-1.217216193946945E+00;9.562582939339546E+01;
1.275000000000000E+09;-1.214222018966520E+00;9.527381892467294E+01;
1.276000000000000E+09;-1.202349659922904E+00;9.489290342579615E+01;
1.277000000000000E+09;-1.200218810100370E+00;9.453892935373987E+01;
1.278000000000000E+09;-1.196349357926587E+00;9.416970207601484E+01;
1.279000000000000E+09;-1.190425352104084E+00;9.379898037101370E+01;
1.280000000000000E+09;-1.186587457871792E+00;9.344525223922619E+01;
1.281000000000000E+09;-1.181797180586563E+00;9.306114516557447E+01;
1.282000000000000E+09;-1.183602894180702E+00;9.266192343196967E+01;
1.283000000000000E+09;-1.182573019934330E+00;9.225456592673341E+01;
1.284000000000000E+09;-1.181255952384611E+00;9.190296847448059E+01;
1.285000000000000E+09;-1.181967543487824E+00;9.149782058967851E+01;
1.286000000000000E+09;-1.188629274083469E+00;9.108388999026620E+01;
1.287000000000000E+09;-1.186773466462974E+00;9.067620595794136E+01;
1.288000000000000E+09;-1.193261778557970E+00;9.029500811546966E+01;
1.289000000000000E+09;-1.192285406294088E+00;8.986340813929692E+01;
1.290000000000000E+09;-1.200458867652901E+00;8.944684545685119E+01;
1.291000000000000E+09;-1.203624709332254E+00;8.900843157271018E+01;
1.292000000000000E+09;-1.211344482624731E+00;8.858153333267653E+01;
