# Version 1.00
#
freq[Hz];db:Trc4_S11;ang:Trc4_S11;
1.000000000000000E+09;-1.283749383978493E+00;1.577192228259222E+02;
1.001000000000000E+09;-1.307311638684407E+00;1.572374832604045E+02;
1.002000000000000E+09;-1.334273398913433E+00;1.568085397615097E+02;
1.003000000000000E+09;-1.358871677228209E+00;1.563301372390536E+02;
1.004000000000000E+09;-1.384299822034279E+00;1.558189142633487E+02;
1.005000000000000E+09;-1.410382494314435E+00;1.553934021265601E+02;
1.006000000000000E+09;-1.439847728824757E+00;1.548635916647562E+02;
1.007000000000000E+09;-1.470171341312201E+00;1.543678155185377E+02;
1.008000000000000E+09;-1.504169005383288E+00;1.538778839187437E+02;
1.009000000000000E+09;-1.535747509015061E+00;1.533714247170805E+02;
1.010000000000000E+09;-1.567574552248143E+00;1.528552723829735E+02;
1.011000000000000E+09;-1.606240978649951E+00;1.523006325548687E+02;
1.012000000000000E+09;-1.640638173084986E+00;1.517604126834964E+02;
1.013000000000000E+09;-1.674546206666284E+00;1.512340039176531E+02;
1.014000000000000E+09;-1.714443546165669E+00;1.506568528270991E+02;
1.015000000000000E+09;-1.755735472279693E+00;1.501027956843201E+02;
1.016000000000000E+09;-1.794440945901303E+00;1.495272893261559E+02;
1.017000000000000E+09;-1.833252326951964E+00;1.489217612894599E+02;
1.018000000000000E+09;-1.876944514633978E+00;1.483300371053203E+02;
1.019000000000000E+09;-1.925304481427022E+00;1.477386544323251E+02;
1.020000000000000E+09;-1.967112467652834E+00;1.471343514719248E+02;
1.021000000000000E+09;-2.009821985052882E+00;1.465029294277232E+02;
1.022000000000000E+09;-2.056465920195987E+00;1.458721221142149E+02;
1.023000000000000E+09;-2.107217362332597E+00;1.452476723539360E+02;
1.024000000000000E+09;-2.154606316123039E+00;1.446195056037626E+02;
1.025000000000000E+09;-2.207039237398297E+00;1.439625334112054E+02;
1.026000000000000E+09;-2.255846992523168E+00;1.433078872551193E+02;
1.027000000000000E+09;-2.304138111567391E+00;1.426848797028385E+02;
1.028000000000000E+09;-2.357321792653999E+00;1.420012365807931E+02;
1.029000000000000E+09;-2.405956232858908E+00;1.413596940018087E+02;
1.030000000000000E+09;-2.456078932788810E+00;1.407163399686978E+02;
1.031000000000000E+09;-2.512705503704395E+00;1.400612864422503E+02;
1.032000000000000E+09;-2.561174216827073E+00;1.394056856776933E+02;
1.033000000000000E+09;-2.613507702193723E+00;1.387241653371646E+02;
1.034000000000000E+09;-2.664822749879231E+00;1.380907720019408E+02;
1.035000000000000E+09;-2.716606338152241E+00;1.374611283680782E+02;
1.036000000000000E+09;-2.768165201670553E+00;1.368006557489360E+02;
1.037000000000000E+09;-2.822278335885767E+00;1.361324084823709E+02;
1.038000000000000E+09;-2.873846306510826E+00;1.355113429827823E+02;
1.039000000000000E+09;-2.921283030388920E+00;1.348622113999768E+02;
1.040000000000000E+09;-2.970304060213355E+00;1.342204889345753E+02;
1.041000000000000E+09;-3.020387878691345E+00;1.336140336206180E+02;
1.042000000000000E+09;-3.067374089807324E+00;1.329888874984024E+02;
1.043000000000000E+09;-3.120846193415534E+00;1.323541924457857E+02;
1.044000000000000E+09;-3.166257626071004E+00;1.317055244892630E+02;
1.045000000000000E+09;-3.212563164523220E+00;1.311361720663904E+02;
1.046000000000000E+09;-3.254702200700299E+00;1.305448657118951E+02;
1.047000000000000E+09;-3.301687643149881E+00;1.299003596370916E+02;
1.048000000000000E+09;-3.347012488396208E+00;1.293037384414471E+02;
1.049000000000000E+09;-3.389132930618825E+00;1.287422177315962E+02;
1.050000000000000E+09;-3.435910687596383E+00;1.281403980609497E+02;
1.051000000000000E+09;-3.480573109392398E+00;1.275487846728830E+02;
1.052000000000000E+09;-3.524950259069871E+00;1.269665227891955E+02;
1.053000000000000E+09;-3.569723962179520E+00;1.263873119519742E+02;
1.054000000000000E+09;-3.614543107537207E+00;1.257806255644643E+02;
1.055000000000000E+09;-3.651678879180239E+00;1.252099272335168E+02;
1.056000000000000E+09;-3.702003430191019E+00;1.246417262449725E+02;
1.057000000000000E+09;-3.746116900458754E+00;1.240924707839954E+02;
1.058000000000000E+09;-3.792392145754235E+00;1.235016604950348E+02;
1.059000000000000E+09;-3.843576916344806E+00;1.229488145042301E+02;
1.060000000000000E+09;-3.892447635884231E+00;1.223777794540419E+02;
1.061000000000000E+09;-3.944263152570875E+00;1.218115228579791E+02;
1.062000000000000E+09;-3.997411982456974E+00;1.212206072162988E+02;
1.063000000000000E+09;-4.051699811942717E+00;1.206979459374175E+02;
1.064000000000000E+09;-4.107095548009253E+00;1.201685026757304E+02;
1.065000000000000E+09;-4.168070078821787E+00;1.196109176223552E+02;
1.066000000000000E+09;-4.232956459091078E+00;1.190624760955935E+02;
1.067000000000000E+09;-4.292320785130146E+00;1.185087117973738E+02;
1.068000000000000E+09;-4.363259483630991E+00;1.179982058130413E+02;
1.069000000000000E+09;-4.434346304293138E+00;1.174266243131497E+02;
1.070000000000000E+09;-4.508377741868207E+00;1.168757015913891E+02;
1.071000000000000E+09;-4.583866046584704E+00;1.163572746465332E+02;
1.072000000000000E+09;-4.663385180384545E+00;1.157968192767920E+02;
1.073000000000000E+09;-4.751805939839070E+00;1.152436544230529E+02;
1.074000000000000E+09;-4.843654043898301E+00;1.146963372147983E+02;
1.075000000000000E+09;-4.936363977121262E+00;1.141386286288769E+02;
1.076000000000000E+09;-5.036717983872475E+00;1.136225663709332E+02;
1.077000000000000E+09;-5.151908855129107E+00;1.130019043464575E+02;
1.078000000000000E+09;-5.261523677312513E+00;1.125033630436761E+02;
1.079000000000000E+09;-5.383944329105748E+00;1.119289926067012E+02;
1.080000000000000E+09;-5.519363264310765E+00;1.113640533354714E+02;
1.081000000000000E+09;-5.659696585060187E+00;1.108319967158199E+02;
1.082000000000000E+09;-5.801996457494837E+00;1.103302682373615E+02;
1.083000000000000E+09;-5.952833184702250E+00;1.098577987822656E+02;
1.084000000000000E+09;-6.120349201159025E+00;1.093592620166164E+02;
1.085000000000000E+09;-6.287150170710295E+00;1.088718918141013E+02;
1.086000000000000E+09;-6.465048205957436E+00;1.083946184291305E+02;
1.087000000000000E+09;-6.648948778296323E+00;1.079340504381786E+02;
1.088000000000000E+09;-6.845184760291977E+00;1.074571386624847E+02;
1.089000000000000E+09;-7.060789930575750E+00;1.070496005108505E+02;
1.090000000000000E+09;-7.281864178982508E+00;1.066210585890334E+02;
1.091000000000000E+09;-7.518144713802339E+00;1.062522579415608E+02;
1.092000000000000E+09;-7.767187388638686E+00;1.058964988287991E+02;
1.093000000000000E+09;-8.027499474458820E+00;1.056441647768986E+02;
1.094000000000000E+09;-8.301531604649266E+00;1.053823301289425E+02;
1.095000000000000E+09;-8.592847596405473E+00;1.051610163662903E+02;
1.096000000000000E+09;-8.895799252404302E+00;1.050750966861623E+02;
1.097000000000000E+09;-9.208676747288782E+00;1.050267356685495E+02;
1.098000000000000E+09;-9.549092053372860E+00;1.050659833476433E+02;
1.099000000000000E+09;-9.897593670482955E+00;1.052127955560747E+02;
1.100000000000000E+09;-1.026367608065345E+01;1.054680749698549E+02;
1.101000000000000E+09;-1.064808938479304E+01;1.058248653005253E+02;
1.102000000000000E+09;-1.104814900137508E+01;1.063133813977248E+02;
1.103000000000000E+09;-1.146723334608798E+01;1.070026464594766E+02;
1.104000000000000E+09;-1.190458718536970E+01;1.079762576840502E+02;
1.105000000000000E+09;-1.234885622268944E+01;1.090860126279044E+02;
1.106000000000000E+09;-1.281808407043934E+01;1.104894642545968E+02;
1.107000000000000E+09;-1.328788552589522E+01;1.123167983835409E+02;
1.108000000000000E+09;-1.375800739881835E+01;1.144232413501586E+02;
1.109000000000000E+09;-1.423361390585646E+01;1.169336002636921E+02;
1.110000000000000E+09;-1.468742613319795E+01;1.199409236884871E+02;
1.111000000000000E+09;-1.510802915511115E+01;1.234812993356580E+02;
1.112000000000000E+09;-1.546794560702752E+01;1.275037547140282E+02;
1.113000000000000E+09;-1.577047808727119E+01;1.319175864627954E+02;
1.114000000000000E+09;-1.596589137019705E+01;1.367570962471472E+02;
1.115000000000000E+09;-1.603820770708052E+01;1.417269091768183E+02;
1.116000000000000E+09;-1.602084461419605E+01;1.467266342639665E+02;
1.117000000000000E+09;-1.590149035860011E+01;1.515828020551161E+02;
1.118000000000000E+09;-1.566421218457274E+01;1.561064640294711E+02;
1.119000000000000E+09;-1.535823699508036E+01;1.603094149232725E+02;
1.120000000000000E+09;-1.499105241410513E+01;1.639573741997808E+02;
1.121000000000000E+09;-1.457408880489681E+01;1.671716093795096E+02;
1.122000000000000E+09;-1.411905413809605E+01;1.699274257464189E+02;
1.123000000000000E+09;-1.365329217870629E+01;1.721002207913400E+02;
1.124000000000000E+09;-1.318320953221884E+01;1.738970616798263E+02;
1.125000000000000E+09;-1.272708561320786E+01;1.752906734826992E+02;
1.126000000000000E+09;-1.226975993211948E+01;1.763772222884888E+02;
1.127000000000000E+09;-1.183419187484410E+01;1.771791596308504E+02;
1.128000000000000E+09;-1.140450860037258E+01;1.777466786172896E+02;
1.129000000000000E+09;-1.099953958648327E+01;1.780429484611244E+02;
1.130000000000000E+09;-1.060301910420932E+01;1.782100459133895E+02;
1.131000000000000E+09;-1.022846412513736E+01;1.782126024153646E+02;
1.132000000000000E+09;-9.864508892370482E+00;1.780647297283987E+02;
1.133000000000000E+09;-9.519262951155254E+00;1.777659434217686E+02;
1.134000000000000E+09;-9.185109759138516E+00;1.774146213784822E+02;
1.135000000000000E+09;-8.871890507125093E+00;1.769550067374639E+02;
1.136000000000000E+09;-8.575659774509171E+00;1.764160707085512E+02;
1.137000000000000E+09;-8.284952959581155E+00;1.758482528542770E+02;
1.138000000000000E+09;-8.005864023828925E+00;1.752254331384433E+02;
1.139000000000000E+09;-7.746812574101743E+00;1.745310499927873E+02;
1.140000000000000E+09;-7.494541086984681E+00;1.738657609475579E+02;
1.141000000000000E+09;-7.241167512167022E+00;1.731484660351934E+02;
1.142000000000000E+09;-7.004927130325274E+00;1.723715386878935E+02;
1.143000000000000E+09;-6.769492546537562E+00;1.715725949936435E+02;
1.144000000000000E+09;-6.542951476317863E+00;1.707840536880364E+02;
1.145000000000000E+09;-6.324346301204946E+00;1.699350921456896E+02;
1.146000000000000E+09;-6.120456598385998E+00;1.690481135661551E+02;
1.147000000000000E+09;-5.917898954251353E+00;1.681526890215624E+02;
1.148000000000000E+09;-5.724619975224263E+00;1.672587496615192E+02;
1.149000000000000E+09;-5.543125879625464E+00;1.663745349711418E+02;
1.150000000000000E+09;-5.363156589527441E+00;1.654181431040664E+02;
1.151000000000000E+09;-5.198156540143860E+00;1.645594689368088E+02;
1.152000000000000E+09;-5.034150169887649E+00;1.636321928681138E+02;
1.153000000000000E+09;-4.882033808101415E+00;1.627620593713163E+02;
1.154000000000000E+09;-4.735007743372504E+00;1.618601258006575E+02;
1.155000000000000E+09;-4.586010264408734E+00;1.609998988109924E+02;
1.156000000000000E+09;-4.448223888356236E+00;1.601716540748611E+02;
1.157000000000000E+09;-4.319549846863210E+00;1.592858589855251E+02;
1.158000000000000E+09;-4.186889294342557E+00;1.584832548160256E+02;
1.159000000000000E+09;-4.063621554698838E+00;1.576318473220651E+02;
1.160000000000000E+09;-3.948325501660354E+00;1.568416214362991E+02;
1.161000000000000E+09;-3.832676825579467E+00;1.560295696130863E+02;
1.162000000000000E+09;-3.724383490127525E+00;1.552560101648335E+02;
1.163000000000000E+09;-3.617688467121296E+00;1.544762488992368E+02;
1.164000000000000E+09;-3.516444831202956E+00;1.537336912297637E+02;
1.165000000000000E+09;-3.420600778638882E+00;1.529921811304752E+02;
1.166000000000000E+09;-3.323992915659433E+00;1.522797721557459E+02;
1.167000000000000E+09;-3.233709663422876E+00;1.515605865116571E+02;
1.168000000000000E+09;-3.149878245735418E+00;1.508586713078014E+02;
1.169000000000000E+09;-3.065032386732118E+00;1.501851825865981E+02;
1.170000000000000E+09;-2.989706298204239E+00;1.495131219572636E+02;
1.171000000000000E+09;-2.913834439139793E+00;1.488362484030024E+02;
1.172000000000000E+09;-2.843366467939616E+00;1.481964679390488E+02;
1.173000000000000E+09;-2.774872315631367E+00;1.475564060555476E+02;
1.174000000000000E+09;-2.706598642401705E+00;1.469565785864758E+02;
1.175000000000000E+09;-2.642879771542513E+00;1.463427370847205E+02;
1.176000000000000E+09;-2.583598772024025E+00;1.457222284519848E+02;
1.177000000000000E+09;-2.524751355176445E+00;1.451348543050272E+02;
1.178000000000000E+09;-2.469873798893924E+00;1.445472629673762E+02;
1.179000000000000E+09;-2.417858444369272E+00;1.439253116022327E+02;
1.180000000000000E+09;-2.371038061271162E+00;1.433716661391163E+02;
1.181000000000000E+09;-2.323768311638300E+00;1.428211364465552E+02;
1.182000000000000E+09;-2.283384871341732E+00;1.422473607338010E+02;
1.183000000000000E+09;-2.239070979248480E+00;1.417025920802743E+02;
1.184000000000000E+09;-2.200609088149110E+00;1.411466055776801E+02;
1.185000000000000E+09;-2.167877490914491E+00;1.406042184668133E+02;
1.186000000000000E+09;-2.132215250877945E+00;1.400720811871794E+02;
1.187000000000000E+09;-2.101043064711607E+00;1.395255292728527E+02;
1.188000000000000E+09;-2.073151970439433E+00;1.390225437460985E+02;
1.189000000000000E+09;-2.047370011787839E+00;1.384763614059720E+02;
1.190000000000000E+09;-2.023779284816482E+00;1.379352906350703E+02;
1.191000000000000E+09;-1.996138930334097E+00;1.374116508107472E+02;
1.192000000000000E+09;-1.973708128071394E+00;1.368951395364236E+02;
1.193000000000000E+09;-1.956491598700936E+00;1.363926832804325E+02;
1.194000000000000E+09;-1.939003011144209E+00;1.358466253786704E+02;
1.195000000000000E+09;-1.923326851698409E+00;1.353266858400963E+02;
1.196000000000000E+09;-1.907811994312711E+00;1.347979463748182E+02;
1.197000000000000E+09;-1.895703446960790E+00;1.342663172066335E+02;
1.198000000000000E+09;-1.886237214188239E+00;1.337277569541182E+02;
1.199000000000000E+09;-1.872934677066627E+00;1.332283811647069E+02;
1.200000000000000E+09;-1.861739019604217E+00;1.326901260252910E+02;
1.201000000000000E+09;-1.858041069590765E+00;1.321482253123197E+02;
1.202000000000000E+09;-1.847714957278068E+00;1.315782211436957E+02;
1.203000000000000E+09;-1.845433569107086E+00;1.310585130080134E+02;
1.204000000000000E+09;-1.837519682988394E+00;1.304862522725099E+02;
1.205000000000000E+09;-1.833137892332702E+00;1.299468605869975E+02;
1.206000000000000E+09;-1.836260651889392E+00;1.294063950350825E+02;
1.207000000000000E+09;-1.834614477734573E+00;1.288550313518590E+02;
1.208000000000000E+09;-1.834846702027346E+00;1.283110156804366E+02;
1.209000000000000E+09;-1.830665410046612E+00;1.277261398945194E+02;
1.210000000000000E+09;-1.830877386939523E+00;1.271768995434854E+02;
1.211000000000000E+09;-1.831355785074391E+00;1.266164726733472E+02;
1.212000000000000E+09;-1.835331651651475E+00;1.260595562344532E+02;
1.213000000000000E+09;-1.833642095771977E+00;1.254721267754764E+02;
1.214000000000000E+09;-1.835495923492972E+00;1.249188333329098E+02;
1.215000000000000E+09;-1.831266364801406E+00;1.243432418184601E+02;
1.216000000000000E+09;-1.834746331532365E+00;1.237567729342011E+02;
1.217000000000000E+09;-1.833223398672626E+00;1.231777242869152E+02;
1.218000000000000E+09;-1.830903064093139E+00;1.225797106874687E+02;
1.219000000000000E+09;-1.831978557113134E+00;1.219929479951457E+02;
1.220000000000000E+09;-1.829367896226047E+00;1.214043255652685E+02;
1.221000000000000E+09;-1.829395329469366E+00;1.208172932021297E+02;
1.222000000000000E+09;-1.830043048601287E+00;1.202139789114719E+02;
1.223000000000000E+09;-1.825446647655729E+00;1.196301409716059E+02;
1.224000000000000E+09;-1.822319960392009E+00;1.190128883264883E+02;
1.225000000000000E+09;-1.821565626073193E+00;1.184529455750443E+02;
1.226000000000000E+09;-1.815611408189620E+00;1.178404040042162E+02;
1.227000000000000E+09;-1.810644674032232E+00;1.172545360152451E+02;
1.228000000000000E+09;-1.811477297502048E+00;1.166504590100064E+02;
1.229000000000000E+09;-1.805020789117216E+00;1.160865291306322E+02;
1.230000000000000E+09;-1.799723208290650E+00;1.155145738305336E+02;
1.231000000000000E+09;-1.790140099230650E+00;1.149033568467756E+02;
1.232000000000000E+09;-1.784514091268183E+00;1.143422422074907E+02;
1.233000000000000E+09;-1.777333308728340E+00;1.137767294869373E+02;
1.234000000000000E+09;-1.767201598666210E+00;1.132113577703473E+02;
1.235000000000000E+09;-1.759972083537157E+00;1.126905514579480E+02;
1.236000000000000E+09;-1.747759109122308E+00;1.121263890847250E+02;
1.237000000000000E+09;-1.729877378946252E+00;1.115656332893833E+02;
1.238000000000000E+09;-1.721884826184661E+00;1.110480482637658E+02;
1.239000000000000E+09;-1.705985541508650E+00;1.105254120571718E+02;
1.240000000000000E+09;-1.689017463157755E+00;1.100156714753877E+02;
1.241000000000000E+09;-1.674218122198433E+00;1.094878705016696E+02;
1.242000000000000E+09;-1.658201037527141E+00;1.089912160169573E+02;
1.243000000000000E+09;-1.639765372687966E+00;1.084772220543093E+02;
1.244000000000000E+09;-1.615878478039777E+00;1.080184656577975E+02;
1.245000000000000E+09;-1.601905020747743E+00;1.075142820232066E+02;
1.246000000000000E+09;-1.581608049966796E+00;1.070217696334297E+02;
1.247000000000000E+09;-1.556742625070091E+00;1.065356474362775E+02;
1.248000000000000E+09;-1.537562759237839E+00;1.060782084098338E+02;
1.249000000000000E+09;-1.514347451874604E+00;1.056156717513783E+02;
1.250000000000000E+09;-1.496302268133427E+00;1.051316995500386E+02;
1.251000000000000E+09;-1.477640818107195E+00;1.046676967656957E+02;
1.252000000000000E+09;-1.452628708015735E+00;1.042617133396942E+02;
1.253000000000000E+09;-1.432911287602087E+00;1.038352687007576E+02;
1.254000000000000E+09;-1.412840777794984E+00;1.034010095387834E+02;
1.255000000000000E+09;-1.390675555165827E+00;1.029610244947211E+02;
1.256000000000000E+09;-1.369724622708932E+00;1.025428758251874E+02;
1.257000000000000E+09;-1.349649403778446E+00;1.021630785500213E+02;
1.258000000000000E+09;-1.328922294210220E+00;1.017333250141693E+02;
1.259000000000000E+09;-1.308733457149273E+00;1.013148265956420E+02;
1.260000000000000E+09;-1.289380578548685E+00;1.009021139561745E+02;
1.261000000000000E+09;-1.274878509900066E+00;1.005280026563786E+02;
1.262000000000000E+09;-1.257253912795694E+00;1.001436785053716E+02;
1.263000000000000E+09;-1.236984820477934E+00;9.976865704076236E+01;
1.264000000000000E+09;-1.222089220593698E+00;9.934336168851200E+01;
1.265000000000000E+09;-1.208553001202677E+00;9.898125695230702E+01;
1.266000000000000E+09;-1.191947053455621E+00;9.863696823631957E+01;
1.267000000000000E+09;-1.175931472437070E+00;9.823545901541917E+01;
1.268000000000000E+09;-1.162941430782947E+00;9.785829555806123E+01;
1.269000000000000E+09;-1.151913387605696E+00;9.747951018057940E+01;
1.270000000000000E+09;-1.136254665806771E+00;9.712658688225720E+01;
1.271000000000000E+09;-1.126280322206311E+00;9.675293760077199E+01;
1.272000000000000E+09;-1.120129321321244E+00;9.637019484206171E+01;
1.273000000000000E+09;-1.110639539719927E+00;9.600627271224108E+01;
1.274000000000000E+09;-1.101524212513677E+00;9.563694710421201E+01;
1.275000000000000E+09;-1.093886265908460E+00;9.525095333736232E+01;
1.276000000000000E+09;-1.088564313593927E+00;9.488804380213682E+01;
1.277000000000000E+09;-1.083709201489010E+00;9.450512432544797E+01;
1.278000000000000E+09;-1.081224053070901E+00;9.412742584677881E+01;
1.279000000000000E+09;-1.075573337978313E+00;9.375820836607103E+01;
1.280000000000000E+09;-1.070127681763124E+00;9.339849694757797E+01;
1.281000000000000E+09;-1.070230469654339E+00;9.300555540261932E+01;
1.282000000000000E+09;-1.072323552733139E+00;9.260066196951009E+01;
1.283000000000000E+09;-1.072360431679878E+00;9.217395291911954E+01;
1.284000000000000E+09;-1.069636573104739E+00;9.183398655493680E+01;
1.285000000000000E+09;-1.079390074947367E+00;9.141701861932164E+01;
1.286000000000000E+09;-1.077108940154962E+00;9.099926065827603E+01;
1.287000000000000E+09;-1.082093291846437E+00;9.057129274275793E+01;
1.288000000000000E+09;-1.084492809124346E+00;9.018333436778514E+01;
1.289000000000000E+09;-1.090802404182482E+00;8.977368165962679E+01;
1.290000000000000E+09;-1.099502981074033E+00;8.934794519675873E+01;
1.291000000000000E+09;-1.103949082550535E+00;8.891174827706165E+01;
1.292000000000000E+09;-1.109866095721905E+00;8.849228131171911E+01;
