# Version 1.00
#
freq[Hz];db:Trc4_S11;ang:Trc4_S11;
1.000000000000000E+09;-1.324135869260804E+00;1.577392165538908E+02;
1.001000000000000E+09;-1.353233765803852E+00;1.572574974193778E+02;
1.002000000000000E+09;-1.372060334734545E+00;1.567902430990372E+02;
1.003000000000000E+09;-1.403831580088006E+00;1.563003280317429E+02;
1.004000000000000E+09;-1.428227496450341E+00;1.558316146049816E+02;
1.005000000000000E+09;-1.458615363423214E+00;1.553300732853754E+02;
1.006000000000000E+09;-1.485775408797834E+00;1.548184280461236E+02;
1.007000000000000E+09;-1.518861394703817E+00;1.543013795361498E+02;
1.008000000000000E+09;-1.553751136997390E+00;1.537987430564802E+02;
1.009000000000000E+09;-1.589183288698841E+00;1.532834242787206E+02;
1.010000000000000E+09;-1.622063304107753E+00;1.527333485255194E+02;
1.011000000000000E+09;-1.663260087706081E+00;1.521803153722968E+02;
1.012000000000000E+09;-1.700087419961741E+00;1.516246876136414E+02;
1.013000000000000E+09;-1.738269921264182E+00;1.510828952762172E+02;
1.014000000000000E+09;-1.781536534034257E+00;1.505115217916349E+02;
1.015000000000000E+09;-1.825143520012124E+00;1.499454872023396E+02;
1.016000000000000E+09;-1.870441590307741E+00;1.493741752946314E+02;
1.017000000000000E+09;-1.913335382843024E+00;1.487818949001653E+02;
1.018000000000000E+09;-1.961551935189013E+00;1.481813281633318E+02;
1.019000000000000E+09;-2.010509037732215E+00;1.475955440704158E+02;
1.020000000000000E+09;-2.056602390673353E+00;1.470006421634817E+02;
1.021000000000000E+09;-2.105752848919017E+00;1.463765826668384E+02;
1.022000000000000E+09;-2.156216836615736E+00;1.457577214849205E+02;
1.023000000000000E+09;-2.208493114686164E+00;1.451519513836737E+02;
1.024000000000000E+09;-2.260641428844520E+00;1.445436076028455E+02;
1.025000000000000E+09;-2.316197033353741E+00;1.438977342590512E+02;
1.026000000000000E+09;-2.371197686800072E+00;1.432770750166846E+02;
1.027000000000000E+09;-2.421561527426948E+00;1.426743418970361E+02;
1.028000000000000E+09;-2.480078210080510E+00;1.420358108384662E+02;
1.029000000000000E+09;-2.530827959774164E+00;1.414196223471425E+02;
1.030000000000000E+09;-2.589076069764342E+00;1.407923922742434E+02;
1.031000000000000E+09;-2.649282627366811E+00;1.401448816785198E+02;
1.032000000000000E+09;-2.703062707868572E+00;1.395237415216424E+02;
1.033000000000000E+09;-2.757129791239834E+00;1.388746771904588E+02;
1.034000000000000E+09;-2.811318896427435E+00;1.382749494363569E+02;
1.035000000000000E+09;-2.866563989049925E+00;1.376618461589599E+02;
1.036000000000000E+09;-2.918322536871730E+00;1.370309624477484E+02;
1.037000000000000E+09;-2.977207646425024E+00;1.363712125594498E+02;
1.038000000000000E+09;-3.031040189474102E+00;1.358085870097092E+02;
1.039000000000000E+09;-3.086477456224600E+00;1.352031251671732E+02;
1.040000000000000E+09;-3.139818455496419E+00;1.345948744758747E+02;
1.041000000000000E+09;-3.192978975899647E+00;1.340118401857929E+02;
1.042000000000000E+09;-3.246866302790674E+00;1.334321454320485E+02;
1.043000000000000E+09;-3.305999435116705E+00;1.327865409327948E+02;
1.044000000000000E+09;-3.356126744619907E+00;1.322323923688558E+02;
1.045000000000000E+09;-3.406981531368742E+00;1.317123145645424E+02;
1.046000000000000E+09;-3.455627391375716E+00;1.311572851573078E+02;
1.047000000000000E+09;-3.504354003224375E+00;1.305670038108710E+02;
1.048000000000000E+09;-3.555837637294088E+00;1.300219493128244E+02;
1.049000000000000E+09;-3.602392895847510E+00;1.294840874865324E+02;
1.050000000000000E+09;-3.650861443755043E+00;1.289314240643139E+02;
1.051000000000000E+09;-3.697010442577604E+00;1.284133507929277E+02;
1.052000000000000E+09;-3.748873219888083E+00;1.278464639001859E+02;
1.053000000000000E+09;-3.798237071948885E+00;1.273100082087239E+02;
1.054000000000000E+09;-3.850272201980245E+00;1.267789813050871E+02;
1.055000000000000E+09;-3.893028057634014E+00;1.262542549577689E+02;
1.056000000000000E+09;-3.949451058605850E+00;1.257724895152928E+02;
1.057000000000000E+09;-3.997715068197733E+00;1.252871358887830E+02;
1.058000000000000E+09;-4.049853072094837E+00;1.247687447130284E+02;
1.059000000000000E+09;-4.101259053156131E+00;1.242957800584604E+02;
1.060000000000000E+09;-4.154088450843848E+00;1.237811281074427E+02;
1.061000000000000E+09;-4.207000337276250E+00;1.232955946305674E+02;
1.062000000000000E+09;-4.261023221771055E+00;1.227791515841840E+02;
1.063000000000000E+09;-4.321350559884991E+00;1.223403619539364E+02;
1.064000000000000E+09;-4.376772812183241E+00;1.218704594817143E+02;
1.065000000000000E+09;-4.441596010179162E+00;1.213872267047293E+02;
1.066000000000000E+09;-4.508101339035687E+00;1.209048765544463E+02;
1.067000000000000E+09;-4.576562701271502E+00;1.204458840485577E+02;
1.068000000000000E+09;-4.650861731218207E+00;1.200088008525820E+02;
1.069000000000000E+09;-4.720037311679263E+00;1.195385288192845E+02;
1.070000000000000E+09;-4.800669682811184E+00;1.190810316981488E+02;
1.071000000000000E+09;-4.876000347364060E+00;1.186697018611951E+02;
1.072000000000000E+09;-4.960763578092036E+00;1.182669942410572E+02;
1.073000000000000E+09;-5.045050900710900E+00;1.177691461826226E+02;
1.074000000000000E+09;-5.134441553522024E+00;1.173697177528201E+02;
1.075000000000000E+09;-5.233747766438595E+00;1.168989486164674E+02;
1.076000000000000E+09;-5.336103575807568E+00;1.164772968775579E+02;
1.077000000000000E+09;-5.446771514220027E+00;1.160001838949060E+02;
1.078000000000000E+09;-5.564203310081922E+00;1.156228972444639E+02;
1.079000000000000E+09;-5.684406491011567E+00;1.152307873065560E+02;
1.080000000000000E+09;-5.812546176240198E+00;1.148428711602186E+02;
1.081000000000000E+09;-5.948533349777222E+00;1.144459769365205E+02;
1.082000000000000E+09;-6.093319129949809E+00;1.141461049882726E+02;
1.083000000000000E+09;-6.238991504847572E+00;1.138174255635413E+02;
1.084000000000000E+09;-6.398274241662101E+00;1.134839550135579E+02;
1.085000000000000E+09;-6.558475889680285E+00;1.132154861878170E+02;
1.086000000000000E+09;-6.729769613879420E+00;1.129973459550692E+02;
1.087000000000000E+09;-6.905506319081036E+00;1.127703188741554E+02;
1.088000000000000E+09;-7.087172228037078E+00;1.125969662922568E+02;
1.089000000000000E+09;-7.274820308498088E+00;1.124257223154279E+02;
1.090000000000000E+09;-7.471664114239114E+00;1.122650775815114E+02;
1.091000000000000E+09;-7.670413384127276E+00;1.121144972615396E+02;
1.092000000000000E+09;-7.888607708593836E+00;1.119951891226320E+02;
1.093000000000000E+09;-8.108628200629301E+00;1.118863198055747E+02;
1.094000000000000E+09;-8.348687487148844E+00;1.118546712719244E+02;
1.095000000000000E+09;-8.604327301791470E+00;1.117813640611420E+02;
1.096000000000000E+09;-8.873918963727197E+00;1.118472441192527E+02;
1.097000000000000E+09;-9.154260130648685E+00;1.120121858419266E+02;
1.098000000000000E+09;-9.450828592705889E+00;1.122467512269154E+02;
1.099000000000000E+09;-9.764098818581859E+00;1.126380990766794E+02;
1.100000000000000E+09;-1.008413373285028E+01;1.131373897646711E+02;
1.101000000000000E+09;-1.042234708777902E+01;1.137822797945399E+02;
1.102000000000000E+09;-1.076380991408687E+01;1.146025369031637E+02;
1.103000000000000E+09;-1.110913340993297E+01;1.156320412165092E+02;
1.104000000000000E+09;-1.146668185062498E+01;1.168500747653431E+02;
1.105000000000000E+09;-1.182439280391764E+01;1.182637820054778E+02;
1.106000000000000E+09;-1.216792750179486E+01;1.199702918066223E+02;
1.107000000000000E+09;-1.250975753474402E+01;1.218982207013241E+02;
1.108000000000000E+09;-1.282993521950086E+01;1.241057580283040E+02;
1.109000000000000E+09;-1.313702833729057E+01;1.265466209414807E+02;
1.110000000000000E+09;-1.341602444486492E+01;1.292827758668183E+02;
1.111000000000000E+09;-1.364814951707853E+01;1.322779345681096E+02;
1.112000000000000E+09;-1.382920957627235E+01;1.354310315609343E+02;
1.113000000000000E+09;-1.398156221066665E+01;1.387246939297272E+02;
1.114000000000000E+09;-1.407770729372734E+01;1.422002840844558E+02;
1.115000000000000E+09;-1.408768437146137E+01;1.457519995748044E+02;
1.116000000000000E+09;-1.406465961997346E+01;1.492126101770323E+02;
1.117000000000000E+09;-1.396449905373430E+01;1.525913040776860E+02;
1.118000000000000E+09;-1.380881757757610E+01;1.559412880125397E+02;
1.119000000000000E+09;-1.359578668399856E+01;1.590387861530825E+02;
1.120000000000000E+09;-1.334293348308625E+01;1.618251126830349E+02;
1.121000000000000E+09;-1.305026756097969E+01;1.643421570607434E+02;
1.122000000000000E+09;-1.272585321145716E+01;1.666093065105720E+02;
1.123000000000000E+09;-1.238547830652982E+01;1.684316924107692E+02;
1.124000000000000E+09;-1.203225577870072E+01;1.700452623668562E+02;
1.125000000000000E+09;-1.169369929688523E+01;1.713647517933787E+02;
1.126000000000000E+09;-1.133661901764484E+01;1.724314481345644E+02;
1.127000000000000E+09;-1.098971993149852E+01;1.733096119873179E+02;
1.128000000000000E+09;-1.064779007662683E+01;1.739643645532624E+02;
1.129000000000000E+09;-1.030742599855475E+01;1.744732884420091E+02;
1.130000000000000E+09;-9.973608259155606E+00;1.748095341253282E+02;
1.131000000000000E+09;-9.652307307374723E+00;1.749843438847505E+02;
1.132000000000000E+09;-9.337569864103871E+00;1.750050783842458E+02;
1.133000000000000E+09;-9.032191353463446E+00;1.749361580061379E+02;
1.134000000000000E+09;-8.730891025352424E+00;1.747612418760349E+02;
1.135000000000000E+09;-8.445433619566993E+00;1.745066249666940E+02;
1.136000000000000E+09;-8.168080723969730E+00;1.741104522867109E+02;
1.137000000000000E+09;-7.893436317022592E+00;1.736963093104097E+02;
1.138000000000000E+09;-7.631340562331190E+00;1.731841509700670E+02;
1.139000000000000E+09;-7.382437187764151E+00;1.726083806120554E+02;
1.140000000000000E+09;-7.144488153843884E+00;1.720520193535810E+02;
1.141000000000000E+09;-6.906146142191336E+00;1.713509748418823E+02;
1.142000000000000E+09;-6.680959527015469E+00;1.706308656211376E+02;
1.143000000000000E+09;-6.463634758174629E+00;1.698962912141946E+02;
1.144000000000000E+09;-6.252249197436837E+00;1.691386346907281E+02;
1.145000000000000E+09;-6.048393252692935E+00;1.683394247351012E+02;
1.146000000000000E+09;-5.857403400085516E+00;1.674888447579013E+02;
1.147000000000000E+09;-5.679495808483738E+00;1.666275669094711E+02;
1.148000000000000E+09;-5.503960639978733E+00;1.657739532987000E+02;
1.149000000000000E+09;-5.342930162767211E+00;1.649652306652694E+02;
1.150000000000000E+09;-5.177181212375509E+00;1.641102981554718E+02;
1.151000000000000E+09;-5.023685737402346E+00;1.633077738830740E+02;
1.152000000000000E+09;-4.869034863846033E+00;1.624554727221460E+02;
1.153000000000000E+09;-4.731677740390914E+00;1.616232654388994E+02;
1.154000000000000E+09;-4.588791358064749E+00;1.607937763095943E+02;
1.155000000000000E+09;-4.452423749208505E+00;1.600068665066682E+02;
1.156000000000000E+09;-4.316854446056527E+00;1.591798263033359E+02;
1.157000000000000E+09;-4.191802007762925E+00;1.583519459666934E+02;
1.158000000000000E+09;-4.071118756327199E+00;1.575732196220506E+02;
1.159000000000000E+09;-3.952349736151195E+00;1.567590957070568E+02;
1.160000000000000E+09;-3.842771974320277E+00;1.559876869289730E+02;
1.161000000000000E+09;-3.738050114474675E+00;1.552113208519080E+02;
1.162000000000000E+09;-3.635217334084351E+00;1.544591017840595E+02;
1.163000000000000E+09;-3.537232232773539E+00;1.536948879309350E+02;
1.164000000000000E+09;-3.439006576030875E+00;1.529775911374059E+02;
1.165000000000000E+09;-3.348096424312006E+00;1.522361242498311E+02;
1.166000000000000E+09;-3.261636694810002E+00;1.515504083543269E+02;
1.167000000000000E+09;-3.179044385641796E+00;1.508565195218446E+02;
1.168000000000000E+09;-3.101400219623404E+00;1.501701505177189E+02;
1.169000000000000E+09;-3.023865500355409E+00;1.495134793219415E+02;
1.170000000000000E+09;-2.952711374236201E+00;1.488745153323738E+02;
1.171000000000000E+09;-2.881205582148901E+00;1.482329264954665E+02;
1.172000000000000E+09;-2.812772202731975E+00;1.476089756729402E+02;
1.173000000000000E+09;-2.747252128089628E+00;1.469823266079953E+02;
1.174000000000000E+09;-2.680441730541036E+00;1.463963582707964E+02;
1.175000000000000E+09;-2.620563547719643E+00;1.457928966032719E+02;
1.176000000000000E+09;-2.564626276431838E+00;1.451786456268404E+02;
1.177000000000000E+09;-2.506820230825635E+00;1.446140634860187E+02;
1.178000000000000E+09;-2.452985245460736E+00;1.440298062246178E+02;
1.179000000000000E+09;-2.403967766508033E+00;1.434307290423310E+02;
1.180000000000000E+09;-2.355123122742679E+00;1.428670583432831E+02;
1.181000000000000E+09;-2.309431571135227E+00;1.423089350969422E+02;
1.182000000000000E+09;-2.272223638080671E+00;1.417462655335697E+02;
1.183000000000000E+09;-2.230784732933696E+00;1.411890733242323E+02;
1.184000000000000E+09;-2.193069974477351E+00;1.406302712917083E+02;
1.185000000000000E+09;-2.162545762067296E+00;1.400986620194375E+02;
1.186000000000000E+09;-2.128013803062093E+00;1.395760019571204E+02;
1.187000000000000E+09;-2.096875834497909E+00;1.390035947494833E+02;
1.188000000000000E+09;-2.073101730559179E+00;1.384868633964192E+02;
1.189000000000000E+09;-2.046599228416313E+00;1.379721445948780E+02;
1.190000000000000E+09;-2.021187119332296E+00;1.374406584128153E+02;
1.191000000000000E+09;-2.003936870770111E+00;1.369131957375699E+02;
1.192000000000000E+09;-1.980480520075452E+00;1.363817806661524E+02;
1.193000000000000E+09;-1.959767702532271E+00;1.358848925444428E+02;
1.194000000000000E+09;-1.946682746723757E+00;1.353378335652682E+02;
1.195000000000000E+09;-1.930965811692879E+00;1.348346660286062E+02;
1.196000000000000E+09;-1.919633735486705E+00;1.343370362832917E+02;
1.197000000000000E+09;-1.913857439415374E+00;1.337904409139787E+02;
1.198000000000000E+09;-1.899933818524881E+00;1.332841854125090E+02;
1.199000000000000E+09;-1.885565603872961E+00;1.327981450383919E+02;
1.200000000000000E+09;-1.879955659188067E+00;1.322709394740534E+02;
1.201000000000000E+09;-1.877168391366991E+00;1.317243902372872E+02;
1.202000000000000E+09;-1.867901187263169E+00;1.312074881971279E+02;
1.203000000000000E+09;-1.861849940110354E+00;1.307066267657877E+02;
1.204000000000000E+09;-1.857832186643155E+00;1.301826203328618E+02;
1.205000000000000E+09;-1.851539843929735E+00;1.296746472609464E+02;
1.206000000000000E+09;-1.849731526678634E+00;1.291398493894386E+02;
1.207000000000000E+09;-1.849080189303914E+00;1.286216104884869E+02;
1.208000000000000E+09;-1.847834072162812E+00;1.281016628462695E+02;
1.209000000000000E+09;-1.839008390232928E+00;1.275512128791924E+02;
1.210000000000000E+09;-1.840470499662331E+00;1.270386950913820E+02;
1.211000000000000E+09;-1.839126122469458E+00;1.264980880703798E+02;
1.212000000000000E+09;-1.840157619024818E+00;1.259807574624835E+02;
1.213000000000000E+09;-1.838892301137866E+00;1.253988592593729E+02;
1.214000000000000E+09;-1.839275845312718E+00;1.248844352186751E+02;
1.215000000000000E+09;-1.837689125973477E+00;1.243312385795586E+02;
1.216000000000000E+09;-1.838066078298555E+00;1.237987632486035E+02;
1.217000000000000E+09;-1.836552692832877E+00;1.232826742035254E+02;
1.218000000000000E+09;-1.834737992930838E+00;1.227667887227197E+02;
1.219000000000000E+09;-1.831596913164066E+00;1.222367969736891E+02;
1.220000000000000E+09;-1.823079205049826E+00;1.217028579557841E+02;
1.221000000000000E+09;-1.815124454808981E+00;1.211797189546828E+02;
1.222000000000000E+09;-1.811478272765507E+00;1.206543110645033E+02;
1.223000000000000E+09;-1.798418706029659E+00;1.201192445429039E+02;
1.224000000000000E+09;-1.786401250721322E+00;1.195545345973302E+02;
1.225000000000000E+09;-1.775270091996080E+00;1.190167123037550E+02;
1.226000000000000E+09;-1.762968005693193E+00;1.184556187147756E+02;
1.227000000000000E+09;-1.752515227021215E+00;1.179016670940292E+02;
1.228000000000000E+09;-1.741290335355556E+00;1.173508442581540E+02;
1.229000000000000E+09;-1.723108121785075E+00;1.167940004255605E+02;
1.230000000000000E+09;-1.710727981488753E+00;1.162554881646300E+02;
1.231000000000000E+09;-1.690573027113475E+00;1.156864965394812E+02;
1.232000000000000E+09;-1.674209067858313E+00;1.151464929080613E+02;
1.233000000000000E+09;-1.655415359793166E+00;1.146036848208345E+02;
1.234000000000000E+09;-1.637827573539024E+00;1.140225423111359E+02;
1.235000000000000E+09;-1.617307972392848E+00;1.134694393464586E+02;
1.236000000000000E+09;-1.595632267529271E+00;1.129194584694600E+02;
1.237000000000000E+09;-1.573396527061579E+00;1.123457118757496E+02;
1.238000000000000E+09;-1.553443447744959E+00;1.118011449557629E+02;
1.239000000000000E+09;-1.530810505419470E+00;1.112242283500277E+02;
1.240000000000000E+09;-1.508451058110495E+00;1.106750910608718E+02;
1.241000000000000E+09;-1.491522234387485E+00;1.101430423893183E+02;
1.242000000000000E+09;-1.469790697570934E+00;1.096191766783770E+02;
1.243000000000000E+09;-1.451521185145404E+00;1.090556876048602E+02;
1.244000000000000E+09;-1.425867631571969E+00;1.085577231056404E+02;
1.245000000000000E+09;-1.405652547259182E+00;1.080364276806996E+02;
1.246000000000000E+09;-1.387086273845481E+00;1.075280783551808E+02;
1.247000000000000E+09;-1.361005870702970E+00;1.070495402449406E+02;
1.248000000000000E+09;-1.336471188800788E+00;1.065236347005755E+02;
1.249000000000000E+09;-1.309832276592068E+00;1.060389157807409E+02;
1.250000000000000E+09;-1.290862964023006E+00;1.055365878922217E+02;
1.251000000000000E+09;-1.271324818391218E+00;1.050496568663567E+02;
1.252000000000000E+09;-1.247086380548644E+00;1.045946894356455E+02;
1.253000000000000E+09;-1.226841935673242E+00;1.041314082580202E+02;
1.254000000000000E+09;-1.207366059083479E+00;1.036561576075725E+02;
1.255000000000000E+09;-1.186323752272195E+00;1.031783757851590E+02;
1.256000000000000E+09;-1.169069503955250E+00;1.027252208619950E+02;
1.257000000000000E+09;-1.151583449451105E+00;1.023089867678440E+02;
1.258000000000000E+09;-1.129281994820041E+00;1.018622474574221E+02;
1.259000000000000E+09;-1.114602771093039E+00;1.013935901967788E+02;
1.260000000000000E+09;-1.097856013813443E+00;1.009749710536196E+02;
1.261000000000000E+09;-1.085058853190865E+00;1.005687637307697E+02;
1.262000000000000E+09;-1.072585522088792E+00;1.001488000554355E+02;
1.263000000000000E+09;-1.054158459820774E+00;9.974172890371206E+01;
1.264000000000000E+09;-1.042090929731727E+00;9.931163864091249E+01;
1.265000000000000E+09;-1.028852372313567E+00;9.891967350907360E+01;
1.266000000000000E+09;-1.018064449116964E+00;9.856041968849972E+01;
1.267000000000000E+09;-1.005738833301796E+00;9.812709688257044E+01;
1.268000000000000E+09;-9.944263147440289E-01;9.772668992325018E+01;
1.269000000000000E+09;-9.850257919301564E-01;9.732930096528101E+01;
1.270000000000000E+09;-9.778854367580064E-01;9.695840313720970E+01;
1.271000000000000E+09;-9.674745476908588E-01;9.659115276396257E+01;
1.272000000000000E+09;-9.623191461947049E-01;9.616102210822515E+01;
1.273000000000000E+09;-9.595400206826253E-01;9.579318467904426E+01;
1.274000000000000E+09;-9.519180499583879E-01;9.538578581401221E+01;
1.275000000000000E+09;-9.475356104372832E-01;9.499727449940815E+01;
1.276000000000000E+09;-9.452727240869867E-01;9.461345896636691E+01;
1.277000000000000E+09;-9.387539065004438E-01;9.421280217468204E+01;
1.278000000000000E+09;-9.428868081551222E-01;9.382644251860921E+01;
1.279000000000000E+09;-9.463545401791038E-01;9.343709252889963E+01;
1.280000000000000E+09;-9.417019869750489E-01;9.304853004762357E+01;
1.281000000000000E+09;-9.466084810642861E-01;9.268532336265494E+01;
1.282000000000000E+09;-9.506504402531529E-01;9.225013584292834E+01;
1.283000000000000E+09;-9.548482243627286E-01;9.186098240121817E+01;
1.284000000000000E+09;-9.590416719683401E-01;9.149131528874358E+01;
1.285000000000000E+09;-9.653519738345241E-01;9.110098371799407E+01;
1.286000000000000E+09;-9.662594522001544E-01;9.067527576513052E+01;
1.287000000000000E+09;-9.735990163979065E-01;9.023808001271118E+01;
1.288000000000000E+09;-9.831685530564066E-01;8.982403689222149E+01;
1.289000000000000E+09;-9.865956833537093E-01;8.941694643508008E+01;
1.290000000000000E+09;-9.983380504769025E-01;8.899054660892726E+01;
1.291000000000000E+09;-1.006514480126272E+00;8.856957020970430E+01;
1.292000000000000E+09;-1.011449585477986E+00;8.814905422292883E+01;
