# Version 1.00
#
freq[Hz];db:Trc4_S11;ang:Trc4_S11;
1.000000000000000E+09;-1.339177438727758E+00;1.580056813700751E+02;
1.001000000000000E+09;-1.360120915238221E+00;1.575775333876738E+02;
1.002000000000000E+09;-1.386291978600991E+00;1.571206224411222E+02;
1.003000000000000E+09;-1.413771845486575E+00;1.566532152277424E+02;
1.004000000000000E+09;-1.439500766942397E+00;1.561902462525586E+02;
1.005000000000000E+09;-1.468146868703461E+00;1.557542152092037E+02;
1.006000000000000E+09;-1.494989696676941E+00;1.552347378208476E+02;
1.007000000000000E+09;-1.528447972781692E+00;1.547526971558753E+02;
1.008000000000000E+09;-1.562735902826710E+00;1.542764128678873E+02;
1.009000000000000E+09;-1.593018006676501E+00;1.537766344614776E+02;
1.010000000000000E+09;-1.626700853521750E+00;1.532394555851391E+02;
1.011000000000000E+09;-1.665401530471143E+00;1.527009560233953E+02;
1.012000000000000E+09;-1.701615375725442E+00;1.521624131570838E+02;
1.013000000000000E+09;-1.741833948537014E+00;1.516149336918461E+02;
1.014000000000000E+09;-1.779879062294674E+00;1.510390374241280E+02;
1.015000000000000E+09;-1.822900765203974E+00;1.504689705820304E+02;
1.016000000000000E+09;-1.864516339821698E+00;1.498929388495154E+02;
1.017000000000000E+09;-1.907299207814232E+00;1.492743276136958E+02;
1.018000000000000E+09;-1.953952073437227E+00;1.486704816053408E+02;
1.019000000000000E+09;-2.002118584110009E+00;1.480451638413706E+02;
1.020000000000000E+09;-2.051356110153006E+00;1.474312758649199E+02;
1.021000000000000E+09;-2.099778541933777E+00;1.467766494367616E+02;
1.022000000000000E+09;-2.150798207545943E+00;1.461259985901583E+02;
1.023000000000000E+09;-2.204481088446536E+00;1.454813371728937E+02;
1.024000000000000E+09;-2.261665300940653E+00;1.448193595269102E+02;
1.025000000000000E+09;-2.318805625669093E+00;1.441463604660656E+02;
1.026000000000000E+09;-2.374478421731339E+00;1.434752853450698E+02;
1.027000000000000E+09;-2.431985180987555E+00;1.428342532401197E+02;
1.028000000000000E+09;-2.491855343834053E+00;1.421230741238516E+02;
1.029000000000000E+09;-2.545672334094975E+00;1.414823834651372E+02;
1.030000000000000E+09;-2.608771641994017E+00;1.407836440875417E+02;
1.031000000000000E+09;-2.670114384658682E+00;1.401130584353743E+02;
1.032000000000000E+09;-2.729279916923808E+00;1.394311592054189E+02;
1.033000000000000E+09;-2.789779709976404E+00;1.387168379617191E+02;
1.034000000000000E+09;-2.847800566901620E+00;1.380653740876477E+02;
1.035000000000000E+09;-2.910611280542609E+00;1.374189574790338E+02;
1.036000000000000E+09;-2.967965538248211E+00;1.367431134812965E+02;
1.037000000000000E+09;-3.028392252344585E+00;1.360516121568324E+02;
1.038000000000000E+09;-3.089195595035413E+00;1.354091980080285E+02;
1.039000000000000E+09;-3.145942254022062E+00;1.347651314269783E+02;
1.040000000000000E+09;-3.206329656287870E+00;1.340761617524294E+02;
1.041000000000000E+09;-3.264353726686224E+00;1.334709289410170E+02;
1.042000000000000E+09;-3.320895097249807E+00;1.328210080380622E+02;
1.043000000000000E+09;-3.379610808244324E+00;1.321467594021241E+02;
1.044000000000000E+09;-3.431198329867636E+00;1.315129410793618E+02;
1.045000000000000E+09;-3.482383278768872E+00;1.309229774572140E+02;
1.046000000000000E+09;-3.536616426900493E+00;1.302860682986733E+02;
1.047000000000000E+09;-3.590014549442056E+00;1.296348580239254E+02;
1.048000000000000E+09;-3.641898100683553E+00;1.290296149429317E+02;
1.049000000000000E+09;-3.697884406035270E+00;1.284471691377181E+02;
1.050000000000000E+09;-3.748478941090235E+00;1.278215215413590E+02;
1.051000000000000E+09;-3.796616642203699E+00;1.272469983837324E+02;
1.052000000000000E+09;-3.846304408423584E+00;1.266602507001788E+02;
1.053000000000000E+09;-3.896935956120193E+00;1.260803528416816E+02;
1.054000000000000E+09;-3.950368311380339E+00;1.254615287939196E+02;
1.055000000000000E+09;-3.990356915024868E+00;1.248867015057534E+02;
1.056000000000000E+09;-4.041574284206848E+00;1.243453608914080E+02;
1.057000000000000E+09;-4.091501142226938E+00;1.237621432177628E+02;
1.058000000000000E+09;-4.141841109874693E+00;1.231792898828237E+02;
1.059000000000000E+09;-4.192792712237096E+00;1.226243457044845E+02;
1.060000000000000E+09;-4.245145212454662E+00;1.220727174245264E+02;
1.061000000000000E+09;-4.297366884722758E+00;1.215221405682480E+02;
1.062000000000000E+09;-4.350698552324886E+00;1.209342098582380E+02;
1.063000000000000E+09;-4.404337054333248E+00;1.204227920696542E+02;
1.064000000000000E+09;-4.457276749441851E+00;1.198964088485014E+02;
1.065000000000000E+09;-4.516142814161837E+00;1.193470801778267E+02;
1.066000000000000E+09;-4.578319285282773E+00;1.187992085724137E+02;
1.067000000000000E+09;-4.635056565405625E+00;1.182442714508110E+02;
1.068000000000000E+09;-4.705070299369653E+00;1.177130463155523E+02;
1.069000000000000E+09;-4.770313366641846E+00;1.171355888565152E+02;
1.070000000000000E+09;-4.840263985966978E+00;1.165709315479529E+02;
1.071000000000000E+09;-4.916500470543792E+00;1.160464084108401E+02;
1.072000000000000E+09;-4.994735288205589E+00;1.154911393204320E+02;
1.073000000000000E+09;-5.076798737929891E+00;1.149272066382975E+02;
1.074000000000000E+09;-5.167696263600804E+00;1.143769412721003E+02;
1.075000000000000E+09;-5.260897026481036E+00;1.138397086220212E+02;
1.076000000000000E+09;-5.354700408755697E+00;1.132819966649042E+02;
1.077000000000000E+09;-5.463868166794450E+00;1.127019335813378E+02;
1.078000000000000E+09;-5.573297966499609E+00;1.121701834821526E+02;
1.079000000000000E+09;-5.690764483247738E+00;1.116185790301876E+02;
1.080000000000000E+09;-5.814430511709591E+00;1.110900167871276E+02;
1.081000000000000E+09;-5.944659216915342E+00;1.105311804336385E+02;
1.082000000000000E+09;-6.083248857397246E+00;1.100179770752727E+02;
1.083000000000000E+09;-6.228585325933368E+00;1.094945192168006E+02;
1.084000000000000E+09;-6.385911210102800E+00;1.089434566417865E+02;
1.085000000000000E+09;-6.548307420787395E+00;1.084107186672298E+02;
1.086000000000000E+09;-6.723953259321696E+00;1.079223955434306E+02;
1.087000000000000E+09;-6.907169714647070E+00;1.074321271573205E+02;
1.088000000000000E+09;-7.106228781503679E+00;1.069328509382483E+02;
1.089000000000000E+09;-7.313226475849825E+00;1.065053589467441E+02;
1.090000000000000E+09;-7.530936202276839E+00;1.060679256428491E+02;
1.091000000000000E+09;-7.763779938228536E+00;1.056848038654370E+02;
1.092000000000000E+09;-8.002815272515692E+00;1.053270588914439E+02;
1.093000000000000E+09;-8.259400179746880E+00;1.050267118666513E+02;
1.094000000000000E+09;-8.534369707908935E+00;1.047513790104294E+02;
1.095000000000000E+09;-8.817215909091026E+00;1.045156287282242E+02;
1.096000000000000E+09;-9.119174269902793E+00;1.043403407196254E+02;
1.097000000000000E+09;-9.436090579879837E+00;1.042525311365577E+02;
1.098000000000000E+09;-9.769031296465183E+00;1.042584805450706E+02;
1.099000000000000E+09;-1.012669151035823E+01;1.043736492090285E+02;
1.100000000000000E+09;-1.049047845607977E+01;1.045849633392034E+02;
1.101000000000000E+09;-1.087934305242742E+01;1.049374978228082E+02;
1.102000000000000E+09;-1.128945589410591E+01;1.053847042710017E+02;
1.103000000000000E+09;-1.171052910644900E+01;1.061063152292237E+02;
1.104000000000000E+09;-1.215373402647413E+01;1.069652474196762E+02;
1.105000000000000E+09;-1.261825102049064E+01;1.081503147858761E+02;
1.106000000000000E+09;-1.309580577967644E+01;1.096157244330964E+02;
1.107000000000000E+09;-1.358247672962838E+01;1.114912276220963E+02;
1.108000000000000E+09;-1.404663545909842E+01;1.137530051888645E+02;
1.109000000000000E+09;-1.452698730036426E+01;1.163661916539113E+02;
1.110000000000000E+09;-1.497211681310193E+01;1.194676027308661E+02;
1.111000000000000E+09;-1.538429295471661E+01;1.231075753075468E+02;
1.112000000000000E+09;-1.573456799849336E+01;1.271568959198976E+02;
1.113000000000000E+09;-1.603826924730724E+01;1.315915140815416E+02;
1.114000000000000E+09;-1.623830180217667E+01;1.365128113381853E+02;
1.115000000000000E+09;-1.631862035477657E+01;1.416881123143388E+02;
1.116000000000000E+09;-1.628772816911980E+01;1.468281758144467E+02;
1.117000000000000E+09;-1.614561046278872E+01;1.518197644163222E+02;
1.118000000000000E+09;-1.588375112992473E+01;1.564553324317965E+02;
1.119000000000000E+09;-1.553960916951304E+01;1.607113479601974E+02;
1.120000000000000E+09;-1.513745983532681E+01;1.643281145025940E+02;
1.121000000000000E+09;-1.469890967877343E+01;1.674292023108179E+02;
1.122000000000000E+09;-1.422918839154772E+01;1.701511795610715E+02;
1.123000000000000E+09;-1.375816809541632E+01;1.722891382441496E+02;
1.124000000000000E+09;-1.326640823676814E+01;1.740371843528482E+02;
1.125000000000000E+09;-1.280602413785547E+01;1.754286690460649E+02;
1.126000000000000E+09;-1.233565234889966E+01;1.764396396924880E+02;
1.127000000000000E+09;-1.188788654408851E+01;1.772140455774116E+02;
1.128000000000000E+09;-1.145279450153932E+01;1.776915021644198E+02;
1.129000000000000E+09;-1.104706497839569E+01;1.779981526889720E+02;
1.130000000000000E+09;-1.064575799814031E+01;1.781339329502651E+02;
1.131000000000000E+09;-1.026981686624629E+01;1.780650754498266E+02;
1.132000000000000E+09;-9.909084472268862E+00;1.779144732850607E+02;
1.133000000000000E+09;-9.554288327437128E+00;1.776468388262226E+02;
1.134000000000000E+09;-9.216348024337863E+00;1.772712263673502E+02;
1.135000000000000E+09;-8.897096532931361E+00;1.768584755123724E+02;
1.136000000000000E+09;-8.593105942956141E+00;1.763089629269709E+02;
1.137000000000000E+09;-8.288798370542773E+00;1.756746241584397E+02;
1.138000000000000E+09;-8.003231143622187E+00;1.750059102007384E+02;
1.139000000000000E+09;-7.737479381804471E+00;1.743035572607648E+02;
1.140000000000000E+09;-7.476847154517562E+00;1.735532700620319E+02;
1.141000000000000E+09;-7.225022841081151E+00;1.727716007338483E+02;
1.142000000000000E+09;-6.991032376674415E+00;1.719649552184588E+02;
1.143000000000000E+09;-6.760187207881716E+00;1.711270449344696E+02;
1.144000000000000E+09;-6.536215565402694E+00;1.702751441709897E+02;
1.145000000000000E+09;-6.325917718169784E+00;1.694175808158226E+02;
1.146000000000000E+09;-6.127491796253933E+00;1.685384495571941E+02;
1.147000000000000E+09;-5.925108407000961E+00;1.676347832385636E+02;
1.148000000000000E+09;-5.739826110228168E+00;1.667698399952798E+02;
1.149000000000000E+09;-5.561824330313582E+00;1.658973400080153E+02;
1.150000000000000E+09;-5.386059933698878E+00;1.650026758082983E+02;
1.151000000000000E+09;-5.219187913869019E+00;1.641695594835938E+02;
1.152000000000000E+09;-5.058290100750822E+00;1.632723080622438E+02;
1.153000000000000E+09;-4.904973524362367E+00;1.624103853087970E+02;
1.154000000000000E+09;-4.756015284124354E+00;1.615454778586376E+02;
1.155000000000000E+09;-4.612411965955080E+00;1.606734260134062E+02;
1.156000000000000E+09;-4.467844032455613E+00;1.598726325072175E+02;
1.157000000000000E+09;-4.333241484612253E+00;1.590094405814741E+02;
1.158000000000000E+09;-4.206370168488998E+00;1.582354875959614E+02;
1.159000000000000E+09;-4.080915993427472E+00;1.574280526576540E+02;
1.160000000000000E+09;-3.962967201070929E+00;1.566377929520571E+02;
1.161000000000000E+09;-3.848587387965638E+00;1.558510502139758E+02;
1.162000000000000E+09;-3.739439566128868E+00;1.550896951630082E+02;
1.163000000000000E+09;-3.634493473513997E+00;1.543388408564855E+02;
1.164000000000000E+09;-3.529215462860948E+00;1.536435277253397E+02;
1.165000000000000E+09;-3.435297234280621E+00;1.529030757201726E+02;
1.166000000000000E+09;-3.341004373177774E+00;1.522384676597635E+02;
1.167000000000000E+09;-3.246378108731060E+00;1.515233603902361E+02;
1.168000000000000E+09;-3.160026799447082E+00;1.508598730261657E+02;
1.169000000000000E+09;-3.076497433410712E+00;1.502131242740217E+02;
1.170000000000000E+09;-2.994182830013501E+00;1.495653875365367E+02;
1.171000000000000E+09;-2.916032314552532E+00;1.489076148755900E+02;
1.172000000000000E+09;-2.842311629179195E+00;1.482887226108716E+02;
1.173000000000000E+09;-2.769332358896306E+00;1.476589372394729E+02;
1.174000000000000E+09;-2.697945059876070E+00;1.470619071200019E+02;
1.175000000000000E+09;-2.631469678481236E+00;1.464560434951850E+02;
1.176000000000000E+09;-2.571465691341969E+00;1.458349621763603E+02;
1.177000000000000E+09;-2.511939776111578E+00;1.452512130266686E+02;
1.178000000000000E+09;-2.454100555779401E+00;1.446679426845524E+02;
1.179000000000000E+09;-2.401193454326723E+00;1.440805629734758E+02;
1.180000000000000E+09;-2.354459917300118E+00;1.435117829369632E+02;
1.181000000000000E+09;-2.306788191270187E+00;1.429550451442114E+02;
1.182000000000000E+09;-2.264541944051254E+00;1.424076846168209E+02;
1.183000000000000E+09;-2.223196273468045E+00;1.418761225896055E+02;
1.184000000000000E+09;-2.183987741533049E+00;1.413206236482468E+02;
1.185000000000000E+09;-2.149537227334403E+00;1.407937040742889E+02;
1.186000000000000E+09;-2.114680815604541E+00;1.402639998690319E+02;
1.187000000000000E+09;-2.075045102860259E+00;1.397264964178408E+02;
1.188000000000000E+09;-2.051295106638870E+00;1.391962853491275E+02;
1.189000000000000E+09;-2.020984883523279E+00;1.386673009139054E+02;
1.190000000000000E+09;-1.996067377344930E+00;1.381227287251194E+02;
1.191000000000000E+09;-1.975147555488026E+00;1.375892306950197E+02;
1.192000000000000E+09;-1.956462853710072E+00;1.370448630369372E+02;
1.193000000000000E+09;-1.938813031375182E+00;1.365495743533087E+02;
1.194000000000000E+09;-1.924419725851330E+00;1.359924201747301E+02;
1.195000000000000E+09;-1.909388603796936E+00;1.354886679182122E+02;
1.196000000000000E+09;-1.899604099918913E+00;1.349717933522730E+02;
1.197000000000000E+09;-1.889078075881608E+00;1.344477016774541E+02;
1.198000000000000E+09;-1.881121708469955E+00;1.339125474678119E+02;
1.199000000000000E+09;-1.872238813535352E+00;1.334262611456500E+02;
1.200000000000000E+09;-1.865209238025874E+00;1.329069757480827E+02;
1.201000000000000E+09;-1.862483959501332E+00;1.323812328604739E+02;
1.202000000000000E+09;-1.856675256798829E+00;1.318320221610585E+02;
1.203000000000000E+09;-1.855505050146692E+00;1.313333727913533E+02;
1.204000000000000E+09;-1.852003847879446E+00;1.307806105265582E+02;
1.205000000000000E+09;-1.852222877762926E+00;1.302275478264951E+02;
1.206000000000000E+09;-1.852807695722126E+00;1.297036308537503E+02;
1.207000000000000E+09;-1.853610580981930E+00;1.291580716957738E+02;
1.208000000000000E+09;-1.853698915565271E+00;1.286005789466123E+02;
1.209000000000000E+09;-1.856569063712344E+00;1.280562036947215E+02;
1.210000000000000E+09;-1.857588768009047E+00;1.275224328196481E+02;
1.211000000000000E+09;-1.863180769255479E+00;1.269695740620788E+02;
1.212000000000000E+09;-1.866540266969318E+00;1.264101796903071E+02;
1.213000000000000E+09;-1.870570096801197E+00;1.258202410412049E+02;
1.214000000000000E+09;-1.870966441564617E+00;1.252738208404926E+02;
1.215000000000000E+09;-1.871857481412291E+00;1.246863883822515E+02;
1.216000000000000E+09;-1.874691458535184E+00;1.240969312141010E+02;
1.217000000000000E+09;-1.876059440667170E+00;1.235106984311731E+02;
1.218000000000000E+09;-1.879095422011076E+00;1.229213810184678E+02;
1.219000000000000E+09;-1.884408304568933E+00;1.223299468241902E+02;
1.220000000000000E+09;-1.885215779338839E+00;1.217022930715298E+02;
1.221000000000000E+09;-1.888414088851203E+00;1.211087695174598E+02;
1.222000000000000E+09;-1.894985929670880E+00;1.205167244035472E+02;
1.223000000000000E+09;-1.891785944066828E+00;1.198992117791239E+02;
1.224000000000000E+09;-1.896192281007280E+00;1.192752496227007E+02;
1.225000000000000E+09;-1.896957122210127E+00;1.186943701921466E+02;
1.226000000000000E+09;-1.900425328508842E+00;1.180734797888209E+02;
1.227000000000000E+09;-1.904036562379231E+00;1.174405177634602E+02;
1.228000000000000E+09;-1.905645527852120E+00;1.168581082802494E+02;
1.229000000000000E+09;-1.904544888196797E+00;1.162382050168307E+02;
1.230000000000000E+09;-1.906960971346181E+00;1.156552999764093E+02;
1.231000000000000E+09;-1.909902698869896E+00;1.150304644383246E+02;
1.232000000000000E+09;-1.904985059228730E+00;1.144657368313987E+02;
1.233000000000000E+09;-1.906463558904308E+00;1.138902649118132E+02;
1.234000000000000E+09;-1.906504396537924E+00;1.133124449039173E+02;
1.235000000000000E+09;-1.904741858612262E+00;1.127436256418057E+02;
1.236000000000000E+09;-1.899531392015224E+00;1.121943769265813E+02;
1.237000000000000E+09;-1.895297618534728E+00;1.116348955980885E+02;
1.238000000000000E+09;-1.889753004017819E+00;1.111129461288135E+02;
1.239000000000000E+09;-1.882981234370066E+00;1.105579153700474E+02;
1.240000000000000E+09;-1.869999542645310E+00;1.100499775293895E+02;
1.241000000000000E+09;-1.860908749792175E+00;1.095200957476369E+02;
1.242000000000000E+09;-1.851028139185462E+00;1.090178624425989E+02;
1.243000000000000E+09;-1.841387613765694E+00;1.084953592279062E+02;
1.244000000000000E+09;-1.829580850365407E+00;1.080179822266976E+02;
1.245000000000000E+09;-1.815993095431022E+00;1.075078297882626E+02;
1.246000000000000E+09;-1.799156308878044E+00;1.070215808961103E+02;
1.247000000000000E+09;-1.783397085853842E+00;1.065511605618162E+02;
1.248000000000000E+09;-1.772937599417156E+00;1.060726187325358E+02;
1.249000000000000E+09;-1.751694828658588E+00;1.056200697495130E+02;
1.250000000000000E+09;-1.740711827969302E+00;1.051536052714294E+02;
1.251000000000000E+09;-1.727677629991735E+00;1.046892539833131E+02;
1.252000000000000E+09;-1.708980926711738E+00;1.042920632219318E+02;
1.253000000000000E+09;-1.689711859346646E+00;1.038646667972887E+02;
1.254000000000000E+09;-1.672674091961895E+00;1.034349009256631E+02;
1.255000000000000E+09;-1.654721270217236E+00;1.030007816345355E+02;
1.256000000000000E+09;-1.641103679516156E+00;1.025729599150253E+02;
1.257000000000000E+09;-1.622995023247331E+00;1.021943562668850E+02;
1.258000000000000E+09;-1.606131783817978E+00;1.017728361950267E+02;
1.259000000000000E+09;-1.589836407109224E+00;1.013468535195882E+02;
1.260000000000000E+09;-1.571257643323443E+00;1.009611988948083E+02;
1.261000000000000E+09;-1.560382246674689E+00;1.005894335121657E+02;
1.262000000000000E+09;-1.542920260988093E+00;1.002101215811673E+02;
1.263000000000000E+09;-1.524723542935468E+00;9.983491359197053E+01;
1.264000000000000E+09;-1.509673721403441E+00;9.942172727045096E+01;
1.265000000000000E+09;-1.495566395129399E+00;9.906896481710494E+01;
1.266000000000000E+09;-1.483578950697737E+00;9.872809749336385E+01;
1.267000000000000E+09;-1.467829787070447E+00;9.833025290733272E+01;
1.268000000000000E+09;-1.457607985184721E+00;9.796406914566336E+01;
1.269000000000000E+09;-1.445199644124474E+00;9.758578175427151E+01;
1.270000000000000E+09;-1.433400318103224E+00;9.724767043262703E+01;
1.271000000000000E+09;-1.424618481705672E+00;9.688096003413793E+01;
1.272000000000000E+09;-1.412374960543955E+00;9.649970054162178E+01;
1.273000000000000E+09;-1.406128149575983E+00;9.614024727432233E+01;
1.274000000000000E+09;-1.395729993938804E+00;9.579098822566661E+01;
1.275000000000000E+09;-1.388816963372123E+00;9.542748200214825E+01;
1.276000000000000E+09;-1.379221251509121E+00;9.505078901357599E+01;
1.277000000000000E+09;-1.374477488250314E+00;9.468760083767287E+01;
1.278000000000000E+09;-1.371466520408978E+00;9.430592631968655E+01;
1.279000000000000E+09;-1.363608236641803E+00;9.393249486947568E+01;
1.280000000000000E+09;-1.354133558234648E+00;9.356415413970861E+01;
1.281000000000000E+09;-1.352616062746381E+00;9.318576180052450E+01;
1.282000000000000E+09;-1.352960983815077E+00;9.282692939027265E+01;
1.283000000000000E+09;-1.351724327168724E+00;9.238291208496675E+01;
1.284000000000000E+09;-1.346450645230660E+00;9.205327367824110E+01;
1.285000000000000E+09;-1.347944006696329E+00;9.163238305205554E+01;
1.286000000000000E+09;-1.345214080533094E+00;9.123055199946026E+01;
1.287000000000000E+09;-1.352841511559107E+00;9.080508192527576E+01;
1.288000000000000E+09;-1.351247777285315E+00;9.037870765925547E+01;
1.289000000000000E+09;-1.348514232377745E+00;8.998055465090526E+01;
1.290000000000000E+09;-1.356240620289002E+00;8.958273794053390E+01;
1.291000000000000E+09;-1.353202291892947E+00;8.914522372755839E+01;
1.292000000000000E+09;-1.358995641977694E+00;8.871005904442850E+01;
