# Version 1.00
#
freq[Hz];db:Trc4_S11;ang:Trc4_S11;
1.000000000000000E+09;-1.343297274695039E+00;1.580564839768745E+02;
1.001000000000000E+09;-1.368287183693646E+00;1.576246950319504E+02;
1.002000000000000E+09;-1.394493474954495E+00;1.572055505315269E+02;
1.003000000000000E+09;-1.419437145137827E+00;1.567361029601892E+02;
1.004000000000000E+09;-1.450222642333310E+00;1.562753094110912E+02;
1.005000000000000E+09;-1.476949038420186E+00;1.558304409895631E+02;
1.006000000000000E+09;-1.506162404768372E+00;1.553375020544694E+02;
1.007000000000000E+09;-1.540323761266865E+00;1.548441918413172E+02;
1.008000000000000E+09;-1.570328284959538E+00;1.543557587341788E+02;
1.009000000000000E+09;-1.604877903716320E+00;1.538509474134443E+02;
1.010000000000000E+09;-1.638787085352206E+00;1.533316350066600E+02;
1.011000000000000E+09;-1.679030584028002E+00;1.527817858328583E+02;
1.012000000000000E+09;-1.716259808443315E+00;1.522362961107438E+02;
1.013000000000000E+09;-1.754243479837164E+00;1.517006692546725E+02;
1.014000000000000E+09;-1.794782366659482E+00;1.511052186110613E+02;
1.015000000000000E+09;-1.839001458581216E+00;1.505365585438343E+02;
1.016000000000000E+09;-1.881141031194989E+00;1.499516829933540E+02;
1.017000000000000E+09;-1.922715928015625E+00;1.493281740990023E+02;
1.018000000000000E+09;-1.973258239489603E+00;1.487090990154929E+02;
1.019000000000000E+09;-2.023227337019690E+00;1.480677343908886E+02;
1.020000000000000E+09;-2.071576878577263E+00;1.474497860554788E+02;
1.021000000000000E+09;-2.121994887870000E+00;1.467943338363018E+02;
1.022000000000000E+09;-2.174448080694070E+00;1.461179178914974E+02;
1.023000000000000E+09;-2.231500435843879E+00;1.454632467437478E+02;
1.024000000000000E+09;-2.285563748201023E+00;1.448011573129621E+02;
1.025000000000000E+09;-2.342823752107801E+00;1.440924248919987E+02;
1.026000000000000E+09;-2.400016788231301E+00;1.434160498801963E+02;
1.027000000000000E+09;-2.459433034870877E+00;1.427426935671596E+02;
1.028000000000000E+09;-2.520221636064998E+00;1.420076810164796E+02;
1.029000000000000E+09;-2.580916498211534E+00;1.413358783014474E+02;
1.030000000000000E+09;-2.646783267325013E+00;1.406534721385981E+02;
1.031000000000000E+09;-2.708114805541696E+00;1.399365334129168E+02;
1.032000000000000E+09;-2.769142763060993E+00;1.392379856710729E+02;
1.033000000000000E+09;-2.833003830527913E+00;1.385381106357988E+02;
1.034000000000000E+09;-2.895495137555016E+00;1.378636715641397E+02;
1.035000000000000E+09;-2.962469580765422E+00;1.372035361596238E+02;
1.036000000000000E+09;-3.020563669774291E+00;1.365125650809096E+02;
1.037000000000000E+09;-3.085730433272907E+00;1.358049165345421E+02;
1.038000000000000E+09;-3.147727563711380E+00;1.351672809111103E+02;
1.039000000000000E+09;-3.209421086012951E+00;1.345213914056529E+02;
1.040000000000000E+09;-3.264951436644739E+00;1.338339902957265E+02;
1.041000000000000E+09;-3.329238282277008E+00;1.331873907983591E+02;
1.042000000000000E+09;-3.383103204044593E+00;1.325206745840724E+02;
1.043000000000000E+09;-3.445443004471402E+00;1.318520313655951E+02;
1.044000000000000E+09;-3.500192681754017E+00;1.312083384500407E+02;
1.045000000000000E+09;-3.558356903961950E+00;1.305876945512514E+02;
1.046000000000000E+09;-3.611381785991961E+00;1.299581332055677E+02;
1.047000000000000E+09;-3.669290845754237E+00;1.293068824103198E+02;
1.048000000000000E+09;-3.726522705367960E+00;1.286549496228088E+02;
1.049000000000000E+09;-3.778540766818899E+00;1.280649977022541E+02;
1.050000000000000E+09;-3.830555165900834E+00;1.274395939907214E+02;
1.051000000000000E+09;-3.882596012667366E+00;1.268431088620677E+02;
1.052000000000000E+09;-3.935380038608349E+00;1.262480807133900E+02;
1.053000000000000E+09;-3.985827242126867E+00;1.256473258037285E+02;
1.054000000000000E+09;-4.035963394295925E+00;1.250213847640853E+02;
1.055000000000000E+09;-4.085179272664694E+00;1.244282668999719E+02;
1.056000000000000E+09;-4.141649695581332E+00;1.238871573099820E+02;
1.057000000000000E+09;-4.192412181150212E+00;1.232966278366552E+02;
1.058000000000000E+09;-4.248493415049598E+00;1.227253197476787E+02;
1.059000000000000E+09;-4.301682684152601E+00;1.221670154683449E+02;
1.060000000000000E+09;-4.352244585432040E+00;1.215826864544139E+02;
1.061000000000000E+09;-4.408556231373050E+00;1.210218183237093E+02;
1.062000000000000E+09;-4.465094346170310E+00;1.204317152389058E+02;
1.063000000000000E+09;-4.526867771763470E+00;1.198904924773838E+02;
1.064000000000000E+09;-4.583549818890220E+00;1.193583035296993E+02;
1.065000000000000E+09;-4.648239303545622E+00;1.188172716491823E+02;
1.066000000000000E+09;-4.715556925960617E+00;1.182481284372490E+02;
1.067000000000000E+09;-4.780323448557431E+00;1.177226471137994E+02;
1.068000000000000E+09;-4.853551197305037E+00;1.172140562493724E+02;
1.069000000000000E+09;-4.926795616101001E+00;1.166494880989066E+02;
1.070000000000000E+09;-5.002843711506582E+00;1.160979698490758E+02;
1.071000000000000E+09;-5.085582679170838E+00;1.156110635517659E+02;
1.072000000000000E+09;-5.168535447931175E+00;1.150806663139687E+02;
1.073000000000000E+09;-5.253507930059103E+00;1.145530390575664E+02;
1.074000000000000E+09;-5.345336059515754E+00;1.140626783945804E+02;
1.075000000000000E+09;-5.440382607309350E+00;1.135301105797499E+02;
1.076000000000000E+09;-5.536002370424625E+00;1.130155038372831E+02;
1.077000000000000E+09;-5.644490723638343E+00;1.124746848999289E+02;
1.078000000000000E+09;-5.754427039439812E+00;1.120006303852996E+02;
1.079000000000000E+09;-5.871082385407387E+00;1.114729594039394E+02;
1.080000000000000E+09;-5.999680976505660E+00;1.109342596599414E+02;
1.081000000000000E+09;-6.129447957686311E+00;1.104028637349977E+02;
1.082000000000000E+09;-6.266232674609609E+00;1.099220711481461E+02;
1.083000000000000E+09;-6.413023685790247E+00;1.094176041328126E+02;
1.084000000000000E+09;-6.571321585421787E+00;1.088976998169304E+02;
1.085000000000000E+09;-6.730199974505839E+00;1.084350556011509E+02;
1.086000000000000E+09;-6.906695022216415E+00;1.079716189739554E+02;
1.087000000000000E+09;-7.095684745025526E+00;1.075011932799706E+02;
1.088000000000000E+09;-7.288754974152885E+00;1.069904103925422E+02;
1.089000000000000E+09;-7.496305030501864E+00;1.065689849212193E+02;
1.090000000000000E+09;-7.715085855251219E+00;1.061854687822283E+02;
1.091000000000000E+09;-7.952761340011529E+00;1.057627776591955E+02;
1.092000000000000E+09;-8.200994343043956E+00;1.054825970856498E+02;
1.093000000000000E+09;-8.459171818738284E+00;1.052269702000376E+02;
1.094000000000000E+09;-8.742145028522978E+00;1.050332400764171E+02;
1.095000000000000E+09;-9.029845572412494E+00;1.048581608559455E+02;
1.096000000000000E+09;-9.332558237687206E+00;1.048705268947887E+02;
1.097000000000000E+09;-9.649180567501038E+00;1.049068172893680E+02;
1.098000000000000E+09;-9.973024316534730E+00;1.050500005477795E+02;
1.099000000000000E+09;-1.031676423802173E+01;1.052764833025146E+02;
1.100000000000000E+09;-1.066937227325612E+01;1.056292161405536E+02;
1.101000000000000E+09;-1.103316458243214E+01;1.061131394384897E+02;
1.102000000000000E+09;-1.141909004792948E+01;1.066841348139509E+02;
1.103000000000000E+09;-1.181523714292464E+01;1.074999435005925E+02;
1.104000000000000E+09;-1.222031071016046E+01;1.084981900695320E+02;
1.105000000000000E+09;-1.263922125968021E+01;1.097117832391392E+02;
1.106000000000000E+09;-1.306282661993276E+01;1.111274768753439E+02;
1.107000000000000E+09;-1.349865497045071E+01;1.128976025270033E+02;
1.108000000000000E+09;-1.392800983121688E+01;1.150468308820520E+02;
1.109000000000000E+09;-1.435585217568970E+01;1.174715427556503E+02;
1.110000000000000E+09;-1.476433104393448E+01;1.202783185101616E+02;
1.111000000000000E+09;-1.514887970594763E+01;1.236342391373718E+02;
1.112000000000000E+09;-1.547337074450701E+01;1.273025262156165E+02;
1.113000000000000E+09;-1.575189447555428E+01;1.313243167553811E+02;
1.114000000000000E+09;-1.593759254178331E+01;1.357416023469125E+02;
1.115000000000000E+09;-1.603500434699239E+01;1.403438500061626E+02;
1.116000000000000E+09;-1.605153044158776E+01;1.449870764434343E+02;
1.117000000000000E+09;-1.597312041469547E+01;1.496448756276392E+02;
1.118000000000000E+09;-1.578210789351942E+01;1.541083181990915E+02;
1.119000000000000E+09;-1.550582985473415E+01;1.583199990226957E+02;
1.120000000000000E+09;-1.516470738684766E+01;1.620645930371493E+02;
1.121000000000000E+09;-1.475697615111919E+01;1.653716228558904E+02;
1.122000000000000E+09;-1.431694418974426E+01;1.681661386392375E+02;
1.123000000000000E+09;-1.385046004491665E+01;1.705519963431067E+02;
1.124000000000000E+09;-1.337958416145025E+01;1.723711155737377E+02;
1.125000000000000E+09;-1.291575720189160E+01;1.738120319390721E+02;
1.126000000000000E+09;-1.244860239425550E+01;1.749082041217489E+02;
1.127000000000000E+09;-1.200576079139419E+01;1.756622621228609E+02;
1.128000000000000E+09;-1.156830344190616E+01;1.762628327152153E+02;
1.129000000000000E+09;-1.115229336277359E+01;1.765322247006372E+02;
1.130000000000000E+09;-1.075607088287182E+01;1.767006106213248E+02;
1.131000000000000E+09;-1.037716314153753E+01;1.766322666320927E+02;
1.132000000000000E+09;-1.001219713413107E+01;1.764642390014176E+02;
1.133000000000000E+09;-9.666052272283636E+00;1.761705221963724E+02;
1.134000000000000E+09;-9.334422108136442E+00;1.757812817120134E+02;
1.135000000000000E+09;-9.019716600924943E+00;1.753656150896190E+02;
1.136000000000000E+09;-8.719804959011121E+00;1.748307630164661E+02;
1.137000000000000E+09;-8.427516458647194E+00;1.742613029102405E+02;
1.138000000000000E+09;-8.144125750796459E+00;1.736622665355918E+02;
1.139000000000000E+09;-7.887238711951738E+00;1.729965874300527E+02;
1.140000000000000E+09;-7.627335549605847E+00;1.723285175832963E+02;
1.141000000000000E+09;-7.378107028570764E+00;1.716088753829392E+02;
1.142000000000000E+09;-7.134902402830249E+00;1.708422647192286E+02;
1.143000000000000E+09;-6.903775050132495E+00;1.700341797946680E+02;
1.144000000000000E+09;-6.675602771531935E+00;1.692856582056906E+02;
1.145000000000000E+09;-6.454582558256670E+00;1.684927505741384E+02;
1.146000000000000E+09;-6.238160214153057E+00;1.676175901221392E+02;
1.147000000000000E+09;-6.039778570620847E+00;1.667442456581940E+02;
1.148000000000000E+09;-5.841981628280147E+00;1.658888742923720E+02;
1.149000000000000E+09;-5.658229831589223E+00;1.650260132202720E+02;
1.150000000000000E+09;-5.483069577811586E+00;1.641337490368813E+02;
1.151000000000000E+09;-5.303751405863995E+00;1.632693474826204E+02;
1.152000000000000E+09;-5.149002790988021E+00;1.623613006667352E+02;
1.153000000000000E+09;-4.990399063025753E+00;1.615369336048642E+02;
1.154000000000000E+09;-4.836372247449845E+00;1.606639978424178E+02;
1.155000000000000E+09;-4.689922125161788E+00;1.598641041351241E+02;
1.156000000000000E+09;-4.547562525509833E+00;1.590558924587039E+02;
1.157000000000000E+09;-4.409621983895985E+00;1.582108723724207E+02;
1.158000000000000E+09;-4.283152317710780E+00;1.574294891114074E+02;
1.159000000000000E+09;-4.154456414248073E+00;1.566378603090375E+02;
1.160000000000000E+09;-4.032427457924628E+00;1.558984036425430E+02;
1.161000000000000E+09;-3.921932250833253E+00;1.551423495884306E+02;
1.162000000000000E+09;-3.810984235090649E+00;1.544212322147782E+02;
1.163000000000000E+09;-3.702982236768633E+00;1.536787969160879E+02;
1.164000000000000E+09;-3.596951978851792E+00;1.529980906235085E+02;
1.165000000000000E+09;-3.494984092447646E+00;1.523117830503184E+02;
1.166000000000000E+09;-3.400319838747492E+00;1.516540239302746E+02;
1.167000000000000E+09;-3.303184257216388E+00;1.509937333714172E+02;
1.168000000000000E+09;-3.211526558648209E+00;1.503461819407126E+02;
1.169000000000000E+09;-3.120862096283187E+00;1.496986263124764E+02;
1.170000000000000E+09;-3.036343718672855E+00;1.490735646564721E+02;
1.171000000000000E+09;-2.955710512931214E+00;1.484270821923381E+02;
1.172000000000000E+09;-2.880432780902620E+00;1.478031969014201E+02;
1.173000000000000E+09;-2.807844649229387E+00;1.471719112308224E+02;
1.174000000000000E+09;-2.737544686939279E+00;1.465880579092717E+02;
1.175000000000000E+09;-2.673276216975369E+00;1.459934311899658E+02;
1.176000000000000E+09;-2.612098618534002E+00;1.453936818503072E+02;
1.177000000000000E+09;-2.550900613911419E+00;1.448386452544316E+02;
1.178000000000000E+09;-2.495433210234048E+00;1.442700200682507E+02;
1.179000000000000E+09;-2.442265945002072E+00;1.436758621734715E+02;
1.180000000000000E+09;-2.396434097481004E+00;1.431528622508667E+02;
1.181000000000000E+09;-2.348325469676583E+00;1.426247939772945E+02;
1.182000000000000E+09;-2.305949015753838E+00;1.420878144871324E+02;
1.183000000000000E+09;-2.263587382709391E+00;1.415761397657780E+02;
1.184000000000000E+09;-2.223839607529055E+00;1.410335828459841E+02;
1.185000000000000E+09;-2.189407743110884E+00;1.405402629435604E+02;
1.186000000000000E+09;-2.157168163484869E+00;1.400167573024433E+02;
1.187000000000000E+09;-2.122087472298159E+00;1.395049001745026E+02;
1.188000000000000E+09;-2.095196732271153E+00;1.390066668579855E+02;
1.189000000000000E+09;-2.064622836029547E+00;1.384941175838244E+02;
1.190000000000000E+09;-2.041953535676228E+00;1.379924872440056E+02;
1.191000000000000E+09;-2.017607257842146E+00;1.374732542119837E+02;
1.192000000000000E+09;-1.997073630171627E+00;1.369596083151700E+02;
1.193000000000000E+09;-1.980550644735076E+00;1.364752434576765E+02;
1.194000000000000E+09;-1.963685894048463E+00;1.359605050070454E+02;
1.195000000000000E+09;-1.951164422999003E+00;1.354765555388742E+02;
1.196000000000000E+09;-1.935917988104303E+00;1.349865271602301E+02;
1.197000000000000E+09;-1.925361049340649E+00;1.344505523459158E+02;
1.198000000000000E+09;-1.915669811855237E+00;1.339331275258108E+02;
1.199000000000000E+09;-1.903902596212874E+00;1.334354968917010E+02;
1.200000000000000E+09;-1.897855007882577E+00;1.329271465358662E+02;
1.201000000000000E+09;-1.893850760010044E+00;1.323994723506238E+02;
1.202000000000000E+09;-1.889673748175807E+00;1.318712824832064E+02;
1.203000000000000E+09;-1.887375477404195E+00;1.313413233470711E+02;
1.204000000000000E+09;-1.889829912222603E+00;1.307925208258980E+02;
1.205000000000000E+09;-1.887929874903954E+00;1.302720680298289E+02;
1.206000000000000E+09;-1.889689882925269E+00;1.297563026479581E+02;
1.207000000000000E+09;-1.888950801282698E+00;1.292158624532587E+02;
1.208000000000000E+09;-1.891506031266376E+00;1.286613238587785E+02;
1.209000000000000E+09;-1.892756244890912E+00;1.281023902240447E+02;
1.210000000000000E+09;-1.899416349005831E+00;1.275563438100486E+02;
1.211000000000000E+09;-1.900636357924186E+00;1.270007221044703E+02;
1.212000000000000E+09;-1.907046417187772E+00;1.264626788849228E+02;
1.213000000000000E+09;-1.912208448422876E+00;1.258534252111304E+02;
1.214000000000000E+09;-1.917263987307782E+00;1.253161599455936E+02;
1.215000000000000E+09;-1.917374512077268E+00;1.247439275577635E+02;
1.216000000000000E+09;-1.924698479145989E+00;1.241570434736755E+02;
1.217000000000000E+09;-1.924961578634504E+00;1.235721246369601E+02;
1.218000000000000E+09;-1.929539155505493E+00;1.229995678575160E+02;
1.219000000000000E+09;-1.936162070651278E+00;1.223863833044454E+02;
1.220000000000000E+09;-1.936549397070177E+00;1.217805685590885E+02;
1.221000000000000E+09;-1.938195411562890E+00;1.211785403758293E+02;
1.222000000000000E+09;-1.946126307287674E+00;1.205746710471095E+02;
1.223000000000000E+09;-1.944741151805195E+00;1.199671533135248E+02;
1.224000000000000E+09;-1.946505021922030E+00;1.193333697158964E+02;
1.225000000000000E+09;-1.948845347568784E+00;1.187445744971581E+02;
1.226000000000000E+09;-1.951456029917453E+00;1.181202790874475E+02;
1.227000000000000E+09;-1.955732327923827E+00;1.174757289781098E+02;
1.228000000000000E+09;-1.961562303992767E+00;1.168658914291677E+02;
1.229000000000000E+09;-1.961524899810190E+00;1.162717513021360E+02;
1.230000000000000E+09;-1.968169193288060E+00;1.156836128311809E+02;
1.231000000000000E+09;-1.969056467388479E+00;1.150746795701563E+02;
1.232000000000000E+09;-1.964735382176771E+00;1.144963842768897E+02;
1.233000000000000E+09;-1.967434151562782E+00;1.139100008438927E+02;
1.234000000000000E+09;-1.968544328330579E+00;1.133204245562950E+02;
1.235000000000000E+09;-1.968130070597841E+00;1.127620347146851E+02;
1.236000000000000E+09;-1.965138701554864E+00;1.122246286478368E+02;
1.237000000000000E+09;-1.955821662406685E+00;1.116425114373135E+02;
1.238000000000000E+09;-1.954740958179988E+00;1.111245614416595E+02;
1.239000000000000E+09;-1.947586624063411E+00;1.105781138844071E+02;
1.240000000000000E+09;-1.938955322594786E+00;1.100640688346792E+02;
1.241000000000000E+09;-1.930262596004675E+00;1.095290584324370E+02;
1.242000000000000E+09;-1.924141090498299E+00;1.090197314863225E+02;
1.243000000000000E+09;-1.915130022336535E+00;1.085134894330746E+02;
1.244000000000000E+09;-1.899529340487866E+00;1.080445737102534E+02;
1.245000000000000E+09;-1.888504103157227E+00;1.075508038199960E+02;
1.246000000000000E+09;-1.877187690299872E+00;1.070683777867985E+02;
1.247000000000000E+09;-1.857985812345953E+00;1.066053691339975E+02;
1.248000000000000E+09;-1.844656826799345E+00;1.061239914869182E+02;
1.249000000000000E+09;-1.829634512912265E+00;1.056967003603699E+02;
1.250000000000000E+09;-1.813590093733526E+00;1.052274134528172E+02;
1.251000000000000E+09;-1.799428589972203E+00;1.047789895582793E+02;
1.252000000000000E+09;-1.780653169024848E+00;1.043724958328664E+02;
1.253000000000000E+09;-1.759543504079920E+00;1.039498105947375E+02;
1.254000000000000E+09;-1.745223929026048E+00;1.035325061794626E+02;
1.255000000000000E+09;-1.722531676146503E+00;1.030938743585405E+02;
1.256000000000000E+09;-1.707808709692541E+00;1.026897802094731E+02;
1.257000000000000E+09;-1.687620778341726E+00;1.022917792609542E+02;
1.258000000000000E+09;-1.669190354652437E+00;1.019020083571962E+02;
1.259000000000000E+09;-1.652566040932310E+00;1.014871866977849E+02;
1.260000000000000E+09;-1.633691089528399E+00;1.010849879869755E+02;
1.261000000000000E+09;-1.620112724558131E+00;1.007238932270255E+02;
1.262000000000000E+09;-1.603818470612072E+00;1.003234670429338E+02;
1.263000000000000E+09;-1.584910765961794E+00;9.996192215393239E+01;
1.264000000000000E+09;-1.569410680046685E+00;9.955122928986674E+01;
1.265000000000000E+09;-1.553563678671668E+00;9.918808040090676E+01;
1.266000000000000E+09;-1.538454214320968E+00;9.884994465399430E+01;
1.267000000000000E+09;-1.524726549578105E+00;9.846819604195382E+01;
1.268000000000000E+09;-1.510836159321173E+00;9.807429153665160E+01;
1.269000000000000E+09;-1.498282601548495E+00;9.769826989497800E+01;
1.270000000000000E+09;-1.485549890777250E+00;9.734861243807190E+01;
1.271000000000000E+09;-1.474550220479933E+00;9.698085369613320E+01;
1.272000000000000E+09;-1.464802825080735E+00;9.658234560688953E+01;
1.273000000000000E+09;-1.455508458194332E+00;9.622667069551687E+01;
1.274000000000000E+09;-1.443705148647858E+00;9.585684365254541E+01;
1.275000000000000E+09;-1.436486250402230E+00;9.547398536647934E+01;
1.276000000000000E+09;-1.428066452588618E+00;9.510866272434981E+01;
1.277000000000000E+09;-1.422047841610095E+00;9.473269615151690E+01;
1.278000000000000E+09;-1.420835260208313E+00;9.434827901997177E+01;
1.279000000000000E+09;-1.412087562957347E+00;9.396596211084550E+01;
1.280000000000000E+09;-1.409117714838760E+00;9.361163680318083E+01;
1.281000000000000E+09;-1.403162715954570E+00;9.322932804911866E+01;
1.282000000000000E+09;-1.405323678452879E+00;9.283792940756413E+01;
1.283000000000000E+09;-1.402470141505029E+00;9.239758269798492E+01;
1.284000000000000E+09;-1.395303955430077E+00;9.207499432120315E+01;
1.285000000000000E+09;-1.395279345347041E+00;9.163362290951785E+01;
1.286000000000000E+09;-1.401550093539956E+00;9.123565450454512E+01;
1.287000000000000E+09;-1.402976154603106E+00;9.079251067456721E+01;
1.288000000000000E+09;-1.403081835208250E+00;9.040227417036066E+01;
1.289000000000000E+09;-1.398759084740048E+00;8.999262784656894E+01;
1.290000000000000E+09;-1.411846962897704E+00;8.957023219347066E+01;
1.291000000000000E+09;-1.402442280445968E+00;8.911834643046603E+01;
1.292000000000000E+09;-1.413005334074815E+00;8.868379730663591E+01;
