# Version 1.00
#
freq[Hz];db:Trc4_S11;ang:Trc4_S11;
1.000000000000000E+09;-1.302694394760603E+00;1.576958435056198E+02;
1.001000000000000E+09;-1.324871129542663E+00;1.572306198822383E+02;
1.002000000000000E+09;-1.349587681467264E+00;1.567805546900998E+02;
1.003000000000000E+09;-1.375741364031703E+00;1.563272394956306E+02;
1.004000000000000E+09;-1.404897582189423E+00;1.558347700815821E+02;
1.005000000000000E+09;-1.430955699049375E+00;1.553978686324320E+02;
1.006000000000000E+09;-1.459552961530762E+00;1.548758344693256E+02;
1.007000000000000E+09;-1.493449622599437E+00;1.543784785942252E+02;
1.008000000000000E+09;-1.525113471009468E+00;1.538880696747061E+02;
1.009000000000000E+09;-1.557278605231215E+00;1.533844372220268E+02;
1.010000000000000E+09;-1.591169478368925E+00;1.528573495556161E+02;
1.011000000000000E+09;-1.628499886480312E+00;1.523158787852295E+02;
1.012000000000000E+09;-1.663530586668055E+00;1.517718104519257E+02;
1.013000000000000E+09;-1.698623656461495E+00;1.512383473559678E+02;
1.014000000000000E+09;-1.737635783664746E+00;1.506645165218467E+02;
1.015000000000000E+09;-1.780316889303635E+00;1.501069128346239E+02;
1.016000000000000E+09;-1.818909534764277E+00;1.495365291185634E+02;
1.017000000000000E+09;-1.859640503775192E+00;1.489240848784022E+02;
1.018000000000000E+09;-1.904061912015202E+00;1.483223365683025E+02;
1.019000000000000E+09;-1.950285539715543E+00;1.477253651380543E+02;
1.020000000000000E+09;-1.992887954070383E+00;1.471129773029049E+02;
1.021000000000000E+09;-2.040346266223440E+00;1.464796191285895E+02;
1.022000000000000E+09;-2.086927333909006E+00;1.458432812394389E+02;
1.023000000000000E+09;-2.138698137786391E+00;1.452099922646681E+02;
1.024000000000000E+09;-2.189894142598561E+00;1.445785982510908E+02;
1.025000000000000E+09;-2.242000054715289E+00;1.439172245875303E+02;
1.026000000000000E+09;-2.293357588153621E+00;1.432757452020585E+02;
1.027000000000000E+09;-2.340495772026551E+00;1.426519730800416E+02;
1.028000000000000E+09;-2.397933901160199E+00;1.419701933044531E+02;
1.029000000000000E+09;-2.449925833427156E+00;1.413399661496420E+02;
1.030000000000000E+09;-2.502146754290346E+00;1.406670902668968E+02;
1.031000000000000E+09;-2.555863133741766E+00;1.400369790501717E+02;
1.032000000000000E+09;-2.612770824223203E+00;1.393520210267911E+02;
1.033000000000000E+09;-2.663167485596146E+00;1.387057272926166E+02;
1.034000000000000E+09;-2.716195700539618E+00;1.380584675341150E+02;
1.035000000000000E+09;-2.767627512960448E+00;1.374249492873557E+02;
1.036000000000000E+09;-2.822343343013988E+00;1.367525770086422E+02;
1.037000000000000E+09;-2.874534113731919E+00;1.361010162739391E+02;
1.038000000000000E+09;-2.924910341847251E+00;1.354866714083510E+02;
1.039000000000000E+09;-2.977242201673090E+00;1.348565688601392E+02;
1.040000000000000E+09;-3.023578234708872E+00;1.342065058509208E+02;
1.041000000000000E+09;-3.078411758938741E+00;1.335872198758814E+02;
1.042000000000000E+09;-3.128599552218429E+00;1.329465748139422E+02;
1.043000000000000E+09;-3.180943435636175E+00;1.323091722998216E+02;
1.044000000000000E+09;-3.226511068501611E+00;1.316774090615230E+02;
1.045000000000000E+09;-3.274083138866515E+00;1.311035581050781E+02;
1.046000000000000E+09;-3.318713819736087E+00;1.304587954552241E+02;
1.047000000000000E+09;-3.367931466176906E+00;1.298692147352180E+02;
1.048000000000000E+09;-3.412957444891416E+00;1.292575104609654E+02;
1.049000000000000E+09;-3.462521999679444E+00;1.286558512458757E+02;
1.050000000000000E+09;-3.507436632172041E+00;1.280597293962492E+02;
1.051000000000000E+09;-3.553442036499456E+00;1.274807468778494E+02;
1.052000000000000E+09;-3.597931516891840E+00;1.269038180429045E+02;
1.053000000000000E+09;-3.642370344381981E+00;1.263154155961715E+02;
1.054000000000000E+09;-3.693321001849647E+00;1.257127569730899E+02;
1.055000000000000E+09;-3.729624098437689E+00;1.251433897049247E+02;
1.056000000000000E+09;-3.779691338675249E+00;1.245888270199729E+02;
1.057000000000000E+09;-3.828484295715683E+00;1.240293652398403E+02;
1.058000000000000E+09;-3.876437705829982E+00;1.234416105834408E+02;
1.059000000000000E+09;-3.923078208887679E+00;1.228996898603418E+02;
1.060000000000000E+09;-3.975973284566676E+00;1.223328911120800E+02;
1.061000000000000E+09;-4.026369675210995E+00;1.217719671499984E+02;
1.062000000000000E+09;-4.079827395789764E+00;1.211867508645950E+02;
1.063000000000000E+09;-4.137733282228256E+00;1.206624099533812E+02;
1.064000000000000E+09;-4.190457612642459E+00;1.201371067997221E+02;
1.065000000000000E+09;-4.252839815247620E+00;1.195782319089882E+02;
1.066000000000000E+09;-4.318260877699384E+00;1.190496598711654E+02;
1.067000000000000E+09;-4.380248668804475E+00;1.184912673145953E+02;
1.068000000000000E+09;-4.451749398136581E+00;1.179784139633258E+02;
1.069000000000000E+09;-4.521087376695853E+00;1.174081788557957E+02;
1.070000000000000E+09;-4.592467124242417E+00;1.168666579647476E+02;
1.071000000000000E+09;-4.669836192449229E+00;1.163397292638556E+02;
1.072000000000000E+09;-4.751602125981478E+00;1.158042750556178E+02;
1.073000000000000E+09;-4.835963249868336E+00;1.152496367412332E+02;
1.074000000000000E+09;-4.927990746523659E+00;1.147107685591939E+02;
1.075000000000000E+09;-5.023109273512086E+00;1.141569475492458E+02;
1.076000000000000E+09;-5.123463995145709E+00;1.136176103840077E+02;
1.077000000000000E+09;-5.234770929350461E+00;1.130171454435565E+02;
1.078000000000000E+09;-5.349847997675726E+00;1.125166422031540E+02;
1.079000000000000E+09;-5.469529521078698E+00;1.119515834363723E+02;
1.080000000000000E+09;-5.605239686717491E+00;1.114185665196572E+02;
1.081000000000000E+09;-5.734993086589435E+00;1.109019042344404E+02;
1.082000000000000E+09;-5.880647799672584E+00;1.104215789155367E+02;
1.083000000000000E+09;-6.031314834837220E+00;1.099319045134399E+02;
1.084000000000000E+09;-6.194463101157500E+00;1.094074429119679E+02;
1.085000000000000E+09;-6.356551587875884E+00;1.089074667869363E+02;
1.086000000000000E+09;-6.534437524806762E+00;1.084488130028019E+02;
1.087000000000000E+09;-6.720358418160791E+00;1.079313512564974E+02;
1.088000000000000E+09;-6.921774940128085E+00;1.074532327216029E+02;
1.089000000000000E+09;-7.133893064176618E+00;1.070382191867614E+02;
1.090000000000000E+09;-7.357640333426686E+00;1.066209601107676E+02;
1.091000000000000E+09;-7.597262118843741E+00;1.062485150037596E+02;
1.092000000000000E+09;-7.844091617587409E+00;1.058821885338730E+02;
1.093000000000000E+09;-8.106869516208288E+00;1.056442185210633E+02;
1.094000000000000E+09;-8.391699398532399E+00;1.053841148632729E+02;
1.095000000000000E+09;-8.673280758937077E+00;1.051705250467569E+02;
1.096000000000000E+09;-8.980209392988449E+00;1.051080916421935E+02;
1.097000000000000E+09;-9.303591035342935E+00;1.050970782272073E+02;
1.098000000000000E+09;-9.635226494409768E+00;1.051043895326973E+02;
1.099000000000000E+09;-9.990856851823583E+00;1.052462477733173E+02;
1.100000000000000E+09;-1.035922341516181E+01;1.054891287709646E+02;
1.101000000000000E+09;-1.074948011420501E+01;1.058700813166277E+02;
1.102000000000000E+09;-1.116307790030829E+01;1.064352419622253E+02;
1.103000000000000E+09;-1.158871557722686E+01;1.072215645096466E+02;
1.104000000000000E+09;-1.203078622967587E+01;1.082335716489301E+02;
1.105000000000000E+09;-1.249118533210607E+01;1.094945687166437E+02;
1.106000000000000E+09;-1.295636199929528E+01;1.110199623652103E+02;
1.107000000000000E+09;-1.342172293472693E+01;1.129650799008270E+02;
1.108000000000000E+09;-1.388317798021419E+01;1.153173560333675E+02;
1.109000000000000E+09;-1.433831647404419E+01;1.180720483601791E+02;
1.110000000000000E+09;-1.476068268265598E+01;1.212007843110433E+02;
1.111000000000000E+09;-1.514385481298166E+01;1.249411748113253E+02;
1.112000000000000E+09;-1.544335734140109E+01;1.289885725288885E+02;
1.113000000000000E+09;-1.569731906880119E+01;1.334351862927798E+02;
1.114000000000000E+09;-1.583838898304615E+01;1.380868430461088E+02;
1.115000000000000E+09;-1.587976410313781E+01;1.429140771899396E+02;
1.116000000000000E+09;-1.583618569476378E+01;1.476059823137421E+02;
1.117000000000000E+09;-1.568601607497908E+01;1.521706307419430E+02;
1.118000000000000E+09;-1.544123337771554E+01;1.564301453860040E+02;
1.119000000000000E+09;-1.513516614927914E+01;1.603535932998878E+02;
1.120000000000000E+09;-1.476223663501801E+01;1.637309433263246E+02;
1.121000000000000E+09;-1.436640827650322E+01;1.666596340504421E+02;
1.122000000000000E+09;-1.393413980170208E+01;1.692295911248830E+02;
1.123000000000000E+09;-1.349982159773887E+01;1.712878866040925E+02;
1.124000000000000E+09;-1.305300762710252E+01;1.729712294521140E+02;
1.125000000000000E+09;-1.262053431532951E+01;1.743332058327159E+02;
1.126000000000000E+09;-1.218539117653259E+01;1.754221964652379E+02;
1.127000000000000E+09;-1.176953241437540E+01;1.762164005884172E+02;
1.128000000000000E+09;-1.135805486413413E+01;1.768356603140549E+02;
1.129000000000000E+09;-1.095868427468617E+01;1.772008418985599E+02;
1.130000000000000E+09;-1.056738886516441E+01;1.774454276866659E+02;
1.131000000000000E+09;-1.019834983574955E+01;1.774475749472338E+02;
1.132000000000000E+09;-9.839310254763786E+00;1.773009664474413E+02;
1.133000000000000E+09;-9.496710842882957E+00;1.770356948428916E+02;
1.134000000000000E+09;-9.167712220849259E+00;1.766913596362298E+02;
1.135000000000000E+09;-8.860512940632979E+00;1.762779033508196E+02;
1.136000000000000E+09;-8.558524674277489E+00;1.757737249696813E+02;
1.137000000000000E+09;-8.267397517023609E+00;1.751919755881268E+02;
1.138000000000000E+09;-7.991977793934447E+00;1.745747409517562E+02;
1.139000000000000E+09;-7.730142159654557E+00;1.738843044028119E+02;
1.140000000000000E+09;-7.478129497356342E+00;1.732116210919527E+02;
1.141000000000000E+09;-7.228374401791076E+00;1.724832883605526E+02;
1.142000000000000E+09;-6.988736646965665E+00;1.717108994955874E+02;
1.143000000000000E+09;-6.760368323509834E+00;1.709117619885990E+02;
1.144000000000000E+09;-6.536435907053435E+00;1.701281039487907E+02;
1.145000000000000E+09;-6.323772349368632E+00;1.692731474693943E+02;
1.146000000000000E+09;-6.126969696810089E+00;1.683934911300465E+02;
1.147000000000000E+09;-5.928361778223024E+00;1.675480913967226E+02;
1.148000000000000E+09;-5.741224710936534E+00;1.666824286084265E+02;
1.149000000000000E+09;-5.554536756291229E+00;1.658110116781598E+02;
1.150000000000000E+09;-5.377533705145245E+00;1.649307345977678E+02;
1.151000000000000E+09;-5.209281718544902E+00;1.640771811148318E+02;
1.152000000000000E+09;-5.046630481930535E+00;1.631820554218536E+02;
1.153000000000000E+09;-4.890438292284443E+00;1.622950405536714E+02;
1.154000000000000E+09;-4.739889531939362E+00;1.614013646906117E+02;
1.155000000000000E+09;-4.598991921197441E+00;1.605630299062600E+02;
1.156000000000000E+09;-4.459027917224417E+00;1.597053437038722E+02;
1.157000000000000E+09;-4.329796038403800E+00;1.588337521537646E+02;
1.158000000000000E+09;-4.196065332009710E+00;1.580216381050708E+02;
1.159000000000000E+09;-4.075859005079095E+00;1.572173517821785E+02;
1.160000000000000E+09;-3.960777972602425E+00;1.564343524067400E+02;
1.161000000000000E+09;-3.846998407383817E+00;1.556524132882265E+02;
1.162000000000000E+09;-3.738514672881671E+00;1.548871267704775E+02;
1.163000000000000E+09;-3.633425372573121E+00;1.541290930134631E+02;
1.164000000000000E+09;-3.531085819232198E+00;1.533823359211058E+02;
1.165000000000000E+09;-3.433952923938933E+00;1.526469456852764E+02;
1.166000000000000E+09;-3.340001676245459E+00;1.519493075934392E+02;
1.167000000000000E+09;-3.251335860110957E+00;1.512319864099669E+02;
1.168000000000000E+09;-3.164618967626477E+00;1.505439245991471E+02;
1.169000000000000E+09;-3.083854665399358E+00;1.498789314925142E+02;
1.170000000000000E+09;-3.005224476309467E+00;1.492199247151781E+02;
1.171000000000000E+09;-2.928868141403515E+00;1.485743590823809E+02;
1.172000000000000E+09;-2.856214518345819E+00;1.479296198960951E+02;
1.173000000000000E+09;-2.788334383037636E+00;1.472972056058537E+02;
1.174000000000000E+09;-2.721108199917399E+00;1.467039603190375E+02;
1.175000000000000E+09;-2.657843529609762E+00;1.460932903854589E+02;
1.176000000000000E+09;-2.596476325774411E+00;1.454772548765907E+02;
1.177000000000000E+09;-2.538290493471945E+00;1.448935301778987E+02;
1.178000000000000E+09;-2.482978642967954E+00;1.443129158780362E+02;
1.179000000000000E+09;-2.433529646456553E+00;1.437174482678636E+02;
1.180000000000000E+09;-2.384425877231223E+00;1.431532486446886E+02;
1.181000000000000E+09;-2.340871886825842E+00;1.425973270914432E+02;
1.182000000000000E+09;-2.300311856477045E+00;1.420415730043544E+02;
1.183000000000000E+09;-2.258384703533152E+00;1.414796372946648E+02;
1.184000000000000E+09;-2.219640428473019E+00;1.409456532129876E+02;
1.185000000000000E+09;-2.186223861264845E+00;1.404170777252610E+02;
1.186000000000000E+09;-2.154248587568414E+00;1.398786711515415E+02;
1.187000000000000E+09;-2.121197692677793E+00;1.393292395842720E+02;
1.188000000000000E+09;-2.095349391893518E+00;1.388305995512479E+02;
1.189000000000000E+09;-2.064831983758195E+00;1.382985039105155E+02;
1.190000000000000E+09;-2.040416844000553E+00;1.377987865669534E+02;
1.191000000000000E+09;-2.018412849668702E+00;1.372722892311111E+02;
1.192000000000000E+09;-1.996850414148818E+00;1.367389376202002E+02;
1.193000000000000E+09;-1.977862839548558E+00;1.362301288901502E+02;
1.194000000000000E+09;-1.959442397897598E+00;1.356793582352941E+02;
1.195000000000000E+09;-1.946127257620737E+00;1.351926953505513E+02;
1.196000000000000E+09;-1.932263691856766E+00;1.346692146138989E+02;
1.197000000000000E+09;-1.924842966122823E+00;1.341517043590196E+02;
1.198000000000000E+09;-1.912273704516162E+00;1.335903884791959E+02;
1.199000000000000E+09;-1.902360869763938E+00;1.330875866846197E+02;
1.200000000000000E+09;-1.892642124312291E+00;1.325650170055931E+02;
1.201000000000000E+09;-1.889306498262092E+00;1.320192863271832E+02;
1.202000000000000E+09;-1.885120747059031E+00;1.314774056872255E+02;
1.203000000000000E+09;-1.879666255355775E+00;1.309520742713454E+02;
1.204000000000000E+09;-1.876910523682624E+00;1.303920671582573E+02;
1.205000000000000E+09;-1.875684643084076E+00;1.298800823890721E+02;
1.206000000000000E+09;-1.874997128841293E+00;1.293310716566821E+02;
1.207000000000000E+09;-1.871825568956655E+00;1.287859727172494E+02;
1.208000000000000E+09;-1.875314747356345E+00;1.282468023327607E+02;
1.209000000000000E+09;-1.875146152165023E+00;1.277021708024051E+02;
1.210000000000000E+09;-1.875152541771355E+00;1.271619947567810E+02;
1.211000000000000E+09;-1.878608372007756E+00;1.266220431289375E+02;
1.212000000000000E+09;-1.879653257119896E+00;1.260781731786447E+02;
1.213000000000000E+09;-1.879037032621772E+00;1.254844340126621E+02;
1.214000000000000E+09;-1.878960710516042E+00;1.249389975813881E+02;
1.215000000000000E+09;-1.876873278866029E+00;1.243591951062203E+02;
1.216000000000000E+09;-1.876482990701605E+00;1.237905206148654E+02;
1.217000000000000E+09;-1.876275383462773E+00;1.232033977698589E+02;
1.218000000000000E+09;-1.877057857063147E+00;1.226312527378038E+02;
1.219000000000000E+09;-1.878347088217097E+00;1.220405132939793E+02;
1.220000000000000E+09;-1.875694109161896E+00;1.214345822037054E+02;
1.221000000000000E+09;-1.873892728194193E+00;1.208643882220387E+02;
1.222000000000000E+09;-1.878010153724649E+00;1.202864870367339E+02;
1.223000000000000E+09;-1.873368237701077E+00;1.196883426994525E+02;
1.224000000000000E+09;-1.873363928300757E+00;1.190783970337637E+02;
1.225000000000000E+09;-1.868621607435481E+00;1.184996615376247E+02;
1.226000000000000E+09;-1.864918730680321E+00;1.179106639244980E+02;
1.227000000000000E+09;-1.864943902977304E+00;1.173225850203356E+02;
1.228000000000000E+09;-1.861479666016325E+00;1.167180755775984E+02;
1.229000000000000E+09;-1.858789098844438E+00;1.161588398679141E+02;
1.230000000000000E+09;-1.855586900710196E+00;1.155881829313637E+02;
1.231000000000000E+09;-1.846501994510055E+00;1.149777209888609E+02;
1.232000000000000E+09;-1.837458208352264E+00;1.144416209747672E+02;
1.233000000000000E+09;-1.833615825038259E+00;1.138658553871309E+02;
1.234000000000000E+09;-1.826693705178715E+00;1.133046216207323E+02;
1.235000000000000E+09;-1.819531564383563E+00;1.127420788973137E+02;
1.236000000000000E+09;-1.807061556641311E+00;1.122259285771309E+02;
1.237000000000000E+09;-1.792591106234540E+00;1.116606222899673E+02;
1.238000000000000E+09;-1.780523411725222E+00;1.111355775461241E+02;
1.239000000000000E+09;-1.762881575981266E+00;1.106182018930527E+02;
1.240000000000000E+09;-1.747468180862837E+00;1.101079180904357E+02;
1.241000000000000E+09;-1.734566428079209E+00;1.095929260655178E+02;
1.242000000000000E+09;-1.716390996188073E+00;1.090920423797694E+02;
1.243000000000000E+09;-1.699904357540016E+00;1.085682755665453E+02;
1.244000000000000E+09;-1.679341957779186E+00;1.080863985629476E+02;
1.245000000000000E+09;-1.660192512356804E+00;1.076059615241309E+02;
1.246000000000000E+09;-1.644029257402230E+00;1.071110732003498E+02;
1.247000000000000E+09;-1.621396589882970E+00;1.066286853527391E+02;
1.248000000000000E+09;-1.601899386460442E+00;1.061555630561551E+02;
1.249000000000000E+09;-1.579914895801732E+00;1.056788572216891E+02;
1.250000000000000E+09;-1.559822445854333E+00;1.052309311549847E+02;
1.251000000000000E+09;-1.541199816018297E+00;1.047686670947008E+02;
1.252000000000000E+09;-1.521591706559385E+00;1.043522294401478E+02;
1.253000000000000E+09;-1.501840265417539E+00;1.039279930872370E+02;
1.254000000000000E+09;-1.481537750015689E+00;1.034890936907165E+02;
1.255000000000000E+09;-1.458396606339506E+00;1.030499186169586E+02;
1.256000000000000E+09;-1.440235940434502E+00;1.026367783758899E+02;
1.257000000000000E+09;-1.418118619347358E+00;1.022569322615279E+02;
1.258000000000000E+09;-1.398327429383597E+00;1.018569595107579E+02;
1.259000000000000E+09;-1.376464020316167E+00;1.014201361894275E+02;
1.260000000000000E+09;-1.355724796000834E+00;1.010098789664807E+02;
1.261000000000000E+09;-1.341879008124740E+00;1.006547911981826E+02;
1.262000000000000E+09;-1.324251276456038E+00;1.002547449000742E+02;
1.263000000000000E+09;-1.302731688036123E+00;9.987150038827542E+01;
1.264000000000000E+09;-1.287059164915753E+00;9.944899573033506E+01;
1.265000000000000E+09;-1.273289681644513E+00;9.908486838952561E+01;
1.266000000000000E+09;-1.256485021324776E+00;9.874365937229260E+01;
1.267000000000000E+09;-1.239356327008309E+00;9.834630030104145E+01;
1.268000000000000E+09;-1.226700658409620E+00;9.796436787312784E+01;
1.269000000000000E+09;-1.214281698828039E+00;9.756614758588564E+01;
1.270000000000000E+09;-1.203778503712478E+00;9.721350957666114E+01;
1.271000000000000E+09;-1.192283085258314E+00;9.685155578841675E+01;
1.272000000000000E+09;-1.183282564444446E+00;9.644983841407958E+01;
1.273000000000000E+09;-1.174906680775141E+00;9.608867422801607E+01;
1.274000000000000E+09;-1.164739893835040E+00;9.572311946333474E+01;
1.275000000000000E+09;-1.157128613021892E+00;9.536764002786866E+01;
1.276000000000000E+09;-1.148786827878960E+00;9.498979811050445E+01;
1.277000000000000E+09;-1.142613524115348E+00;9.461838540951162E+01;
1.278000000000000E+09;-1.140081752479672E+00;9.423581616780646E+01;
1.279000000000000E+09;-1.135016612847402E+00;9.384710646125126E+01;
1.280000000000000E+09;-1.133855227208336E+00;9.348436509609347E+01;
1.281000000000000E+09;-1.130716475172877E+00;9.308723904088690E+01;
1.282000000000000E+09;-1.128231758346161E+00;9.269594142137835E+01;
1.283000000000000E+09;-1.128248123456769E+00;9.226144267851633E+01;
1.284000000000000E+09;-1.122759922233370E+00;9.190419148668487E+01;
1.285000000000000E+09;-1.132970736783516E+00;9.150397948134076E+01;
1.286000000000000E+09;-1.134709195855014E+00;9.107493816940065E+01;
1.287000000000000E+09;-1.135319521617258E+00;9.065622134483969E+01;
1.288000000000000E+09;-1.138902131989237E+00;9.024630346471284E+01;
1.289000000000000E+09;-1.140328344598647E+00;8.985152051865123E+01;
1.290000000000000E+09;-1.151933308861560E+00;8.942482224206331E+01;
1.291000000000000E+09;-1.154635602466425E+00;8.897240054906109E+01;
1.292000000000000E+09;-1.161034517169454E+00;8.854696980767109E+01;
