# Version 1.00
#
freq[Hz];db:Trc4_S11;ang:Trc4_S11;
1.000000000000000E+09;-1.307880582193479E+00;1.577044211384460E+02;
1.001000000000000E+09;-1.329006309882736E+00;1.572507851033958E+02;
1.002000000000000E+09;-1.352560228610949E+00;1.567525083460614E+02;
1.003000000000000E+09;-1.383339004149951E+00;1.563029334508317E+02;
1.004000000000000E+09;-1.405305847376959E+00;1.557980589477681E+02;
1.005000000000000E+09;-1.435313508148277E+00;1.553354386883478E+02;
1.006000000000000E+09;-1.463454697828599E+00;1.548270959593129E+02;
1.007000000000000E+09;-1.497264653687370E+00;1.543232738159647E+02;
1.008000000000000E+09;-1.526459544982302E+00;1.538277640449555E+02;
1.009000000000000E+09;-1.559862451249252E+00;1.533193509026836E+02;
1.010000000000000E+09;-1.592468857609325E+00;1.527845629395234E+02;
1.011000000000000E+09;-1.631623387747198E+00;1.522273405197334E+02;
1.012000000000000E+09;-1.666737102974812E+00;1.516782840048560E+02;
1.013000000000000E+09;-1.700814648297044E+00;1.511471527855544E+02;
1.014000000000000E+09;-1.739831988005113E+00;1.505631010821926E+02;
1.015000000000000E+09;-1.780543381815106E+00;1.500132918085974E+02;
1.016000000000000E+09;-1.820746436844308E+00;1.494369701666204E+02;
1.017000000000000E+09;-1.860108762861930E+00;1.488398139313302E+02;
1.018000000000000E+09;-1.904918165930067E+00;1.482322412352620E+02;
1.019000000000000E+09;-1.949917173367539E+00;1.476448012740589E+02;
1.020000000000000E+09;-1.993888773886480E+00;1.470412105992161E+02;
1.021000000000000E+09;-2.039779275495775E+00;1.464198653245221E+02;
1.022000000000000E+09;-2.085473667292923E+00;1.457970638934521E+02;
1.023000000000000E+09;-2.135495412205464E+00;1.451863655193035E+02;
1.024000000000000E+09;-2.187144495732174E+00;1.445582789111789E+02;
1.025000000000000E+09;-2.235278886361818E+00;1.439129554017196E+02;
1.026000000000000E+09;-2.285704615915920E+00;1.432859444501791E+02;
1.027000000000000E+09;-2.336635932821741E+00;1.426754374436500E+02;
1.028000000000000E+09;-2.386419661656279E+00;1.419986018487555E+02;
1.029000000000000E+09;-2.438291932704028E+00;1.413746993843820E+02;
1.030000000000000E+09;-2.491768262750159E+00;1.407295612491179E+02;
1.031000000000000E+09;-2.545614000100027E+00;1.400927216519001E+02;
1.032000000000000E+09;-2.597664220081313E+00;1.394383467429843E+02;
1.033000000000000E+09;-2.647933600758240E+00;1.387936738467400E+02;
1.034000000000000E+09;-2.698210049377201E+00;1.381609705497878E+02;
1.035000000000000E+09;-2.753224456715293E+00;1.375197579865579E+02;
1.036000000000000E+09;-2.802607156831420E+00;1.368863096144282E+02;
1.037000000000000E+09;-2.856320821208048E+00;1.362422567427751E+02;
1.038000000000000E+09;-2.904601926804605E+00;1.356153961966324E+02;
1.039000000000000E+09;-2.956084375387574E+00;1.349847258244914E+02;
1.040000000000000E+09;-3.005973611771407E+00;1.343656275151239E+02;
1.041000000000000E+09;-3.057361874904454E+00;1.337377487219941E+02;
1.042000000000000E+09;-3.109256668302480E+00;1.331015020093971E+02;
1.043000000000000E+09;-3.159587388630449E+00;1.324607146717559E+02;
1.044000000000000E+09;-3.207045622189342E+00;1.318226573492760E+02;
1.045000000000000E+09;-3.262270972486129E+00;1.312829173610527E+02;
1.046000000000000E+09;-3.307849376741754E+00;1.306899381108411E+02;
1.047000000000000E+09;-3.357616658336624E+00;1.300827295052682E+02;
1.048000000000000E+09;-3.408584880679738E+00;1.295087630428007E+02;
1.049000000000000E+09;-3.454809898037618E+00;1.289127026538644E+02;
1.050000000000000E+09;-3.504208713535381E+00;1.283084797053630E+02;
1.051000000000000E+09;-3.552959883318295E+00;1.277764867840724E+02;
1.052000000000000E+09;-3.601360299340737E+00;1.272121371046831E+02;
1.053000000000000E+09;-3.648896838004498E+00;1.266550201051803E+02;
1.054000000000000E+09;-3.700706825213038E+00;1.260655900127737E+02;
1.055000000000000E+09;-3.740397522727806E+00;1.255146944926753E+02;
1.056000000000000E+09;-3.794717700076424E+00;1.249844780296722E+02;
1.057000000000000E+09;-3.846907946599983E+00;1.244283806030143E+02;
1.058000000000000E+09;-3.897993275720352E+00;1.238728216085764E+02;
1.059000000000000E+09;-3.953491700074970E+00;1.233554541931532E+02;
1.060000000000000E+09;-4.004948065413490E+00;1.228006380900816E+02;
1.061000000000000E+09;-4.061792432988512E+00;1.222945299981600E+02;
1.062000000000000E+09;-4.119808321277111E+00;1.217380228997971E+02;
1.063000000000000E+09;-4.180416656539871E+00;1.212547808435680E+02;
1.064000000000000E+09;-4.237000900541588E+00;1.207540667417262E+02;
1.065000000000000E+09;-4.301082912558700E+00;1.202429220024651E+02;
1.066000000000000E+09;-4.365134997375850E+00;1.197080989410244E+02;
1.067000000000000E+09;-4.430549282179882E+00;1.192217122848515E+02;
1.068000000000000E+09;-4.503447590230201E+00;1.187313923662965E+02;
1.069000000000000E+09;-4.578073018036027E+00;1.181931264274777E+02;
1.070000000000000E+09;-4.653011629022579E+00;1.176884010184084E+02;
1.071000000000000E+09;-4.734046316292576E+00;1.171968600608507E+02;
1.072000000000000E+09;-4.817719859226014E+00;1.166884297975277E+02;
1.073000000000000E+09;-4.906181247576619E+00;1.161823380889892E+02;
1.074000000000000E+09;-5.000258166336286E+00;1.156878517803614E+02;
1.075000000000000E+09;-5.100141669541056E+00;1.151889694468218E+02;
1.076000000000000E+09;-5.204734937723932E+00;1.146863234082177E+02;
1.077000000000000E+09;-5.317644321154869E+00;1.141785537904588E+02;
1.078000000000000E+09;-5.432104737523376E+00;1.137205795829281E+02;
1.079000000000000E+09;-5.553018610775888E+00;1.132587202890473E+02;
1.080000000000000E+09;-5.685909063274700E+00;1.127828978024397E+02;
1.081000000000000E+09;-5.821043670290798E+00;1.122925001564352E+02;
1.082000000000000E+09;-5.962817223019027E+00;1.118751431309725E+02;
1.083000000000000E+09;-6.103611391243713E+00;1.114232884142435E+02;
1.084000000000000E+09;-6.265388661192724E+00;1.109694884116135E+02;
1.085000000000000E+09;-6.435527039720767E+00;1.105532961139033E+02;
1.086000000000000E+09;-6.605643979153193E+00;1.101576805641584E+02;
1.087000000000000E+09;-6.792440068061082E+00;1.097324611159651E+02;
1.088000000000000E+09;-6.990905008789778E+00;1.093437812557701E+02;
1.089000000000000E+09;-7.192245082043963E+00;1.090064937241412E+02;
1.090000000000000E+09;-7.410178992129435E+00;1.086723107834100E+02;
1.091000000000000E+09;-7.633986641481950E+00;1.083767057746394E+02;
1.092000000000000E+09;-7.872620038820251E+00;1.081196139371892E+02;
1.093000000000000E+09;-8.123632706973545E+00;1.079283043640281E+02;
1.094000000000000E+09;-8.393227573117276E+00;1.077268645834447E+02;
1.095000000000000E+09;-8.663691563248907E+00;1.075783021974099E+02;
1.096000000000000E+09;-8.966571429971712E+00;1.075638822452853E+02;
1.097000000000000E+09;-9.265944112401852E+00;1.075792263808424E+02;
1.098000000000000E+09;-9.590624820012218E+00;1.076695439159293E+02;
1.099000000000000E+09;-9.932740561552938E+00;1.079076200458351E+02;
1.100000000000000E+09;-1.028990091366276E+01;1.082248122616109E+02;
1.101000000000000E+09;-1.066461295792549E+01;1.086645800712030E+02;
1.102000000000000E+09;-1.106224787046191E+01;1.093709360158200E+02;
1.103000000000000E+09;-1.146072263655291E+01;1.102176610781399E+02;
1.104000000000000E+09;-1.188861245125506E+01;1.113391730052866E+02;
1.105000000000000E+09;-1.231618579500570E+01;1.127438410017039E+02;
1.106000000000000E+09;-1.274268949083494E+01;1.143916940278932E+02;
1.107000000000000E+09;-1.316292976149715E+01;1.164351802929026E+02;
1.108000000000000E+09;-1.357408228076782E+01;1.188343238458897E+02;
1.109000000000000E+09;-1.397352881203381E+01;1.215396016739555E+02;
1.110000000000000E+09;-1.434251285880096E+01;1.246250316439367E+02;
1.111000000000000E+09;-1.464919961096066E+01;1.281710713881963E+02;
1.112000000000000E+09;-1.488844717264979E+01;1.319505184787719E+02;
1.113000000000000E+09;-1.508603158309112E+01;1.359254814144308E+02;
1.114000000000000E+09;-1.520546359102608E+01;1.401066146613031E+02;
1.115000000000000E+09;-1.521599895044638E+01;1.444150948481413E+02;
1.116000000000000E+09;-1.515897171867210E+01;1.485244285345062E+02;
1.117000000000000E+09;-1.502967395416303E+01;1.525192668188084E+02;
1.118000000000000E+09;-1.482753865264812E+01;1.562872425124075E+02;
1.119000000000000E+09;-1.456854456657443E+01;1.597636904539147E+02;
1.120000000000000E+09;-1.426542173801998E+01;1.628170476787664E+02;
1.121000000000000E+09;-1.392491101290046E+01;1.656162165635166E+02;
1.122000000000000E+09;-1.355810376622209E+01;1.680730555846714E+02;
1.123000000000000E+09;-1.317650897742339E+01;1.701161461817702E+02;
1.124000000000000E+09;-1.278513561379181E+01;1.719178467157944E+02;
1.125000000000000E+09;-1.240026940577104E+01;1.734014906791562E+02;
1.126000000000000E+09;-1.200100661870445E+01;1.746238812095287E+02;
1.127000000000000E+09;-1.161057022276646E+01;1.755519657308818E+02;
1.128000000000000E+09;-1.122073125640842E+01;1.762956413007129E+02;
1.129000000000000E+09;-1.083849236627968E+01;1.767760858439379E+02;
1.130000000000000E+09;-1.046767888874922E+01;1.770975632543494E+02;
1.131000000000000E+09;-1.011363624349507E+01;1.772423358488076E+02;
1.132000000000000E+09;-9.766074376071161E+00;1.772499191781484E+02;
1.133000000000000E+09;-9.432132054215309E+00;1.771118731067236E+02;
1.134000000000000E+09;-9.106455320420780E+00;1.768815450926911E+02;
1.135000000000000E+09;-8.800558200589352E+00;1.765670124340284E+02;
1.136000000000000E+09;-8.502820088226910E+00;1.761457773001906E+02;
1.137000000000000E+09;-8.214643570001336E+00;1.756797587395739E+02;
1.138000000000000E+09;-7.931084398100281E+00;1.751091871048060E+02;
1.139000000000000E+09;-7.676270254514074E+00;1.744874380220968E+02;
1.140000000000000E+09;-7.416912019508311E+00;1.738700546602105E+02;
1.141000000000000E+09;-7.162408882899124E+00;1.731330866575718E+02;
1.142000000000000E+09;-6.927672952867965E+00;1.723635506039157E+02;
1.143000000000000E+09;-6.703148361272481E+00;1.715820400914377E+02;
1.144000000000000E+09;-6.484432930912293E+00;1.707870601911771E+02;
1.145000000000000E+09;-6.271909943651309E+00;1.699351638701089E+02;
1.146000000000000E+09;-6.078784158652224E+00;1.690816341537392E+02;
1.147000000000000E+09;-5.885479340707523E+00;1.682189649142782E+02;
1.148000000000000E+09;-5.705789598543771E+00;1.674022172420626E+02;
1.149000000000000E+09;-5.531649684689812E+00;1.665426056566472E+02;
1.150000000000000E+09;-5.359598370312421E+00;1.656690269097076E+02;
1.151000000000000E+09;-5.194644893012196E+00;1.648502040706555E+02;
1.152000000000000E+09;-5.038060561357254E+00;1.639985290860657E+02;
1.153000000000000E+09;-4.882478441246521E+00;1.631569313199996E+02;
1.154000000000000E+09;-4.732526039903270E+00;1.622787292208854E+02;
1.155000000000000E+09;-4.595329340713691E+00;1.614630009763903E+02;
1.156000000000000E+09;-4.452879301289762E+00;1.606539925304235E+02;
1.157000000000000E+09;-4.324767002422814E+00;1.598063170938440E+02;
1.158000000000000E+09;-4.196058827585010E+00;1.590064198588818E+02;
1.159000000000000E+09;-4.073511864486782E+00;1.582207282950250E+02;
1.160000000000000E+09;-3.955920211950165E+00;1.574279436792902E+02;
1.161000000000000E+09;-3.841410218573309E+00;1.566514959429645E+02;
1.162000000000000E+09;-3.734375602352787E+00;1.558885942266139E+02;
1.163000000000000E+09;-3.626025528374016E+00;1.551463762643135E+02;
1.164000000000000E+09;-3.525776973010895E+00;1.544068391027070E+02;
1.165000000000000E+09;-3.426957338135789E+00;1.536817041465960E+02;
1.166000000000000E+09;-3.329069404337253E+00;1.529768332626325E+02;
1.167000000000000E+09;-3.238770261684586E+00;1.522597777449418E+02;
1.168000000000000E+09;-3.150824524326188E+00;1.515639872880070E+02;
1.169000000000000E+09;-3.065723471761807E+00;1.508861677580933E+02;
1.170000000000000E+09;-2.988094107660768E+00;1.502029263308889E+02;
1.171000000000000E+09;-2.906855545377224E+00;1.495205024749118E+02;
1.172000000000000E+09;-2.833619001033259E+00;1.488691990487388E+02;
1.173000000000000E+09;-2.762972369532029E+00;1.482116654880604E+02;
1.174000000000000E+09;-2.694066807776257E+00;1.475757313283242E+02;
1.175000000000000E+09;-2.633299012684758E+00;1.469585588742910E+02;
1.176000000000000E+09;-2.571865985530931E+00;1.463271552791532E+02;
1.177000000000000E+09;-2.512015294228234E+00;1.457458615497959E+02;
1.178000000000000E+09;-2.457512377142880E+00;1.451504365836330E+02;
1.179000000000000E+09;-2.402665335325949E+00;1.445516142570139E+02;
1.180000000000000E+09;-2.352026341973618E+00;1.439688011842851E+02;
1.181000000000000E+09;-2.299657949188104E+00;1.433958363324242E+02;
1.182000000000000E+09;-2.258150436241473E+00;1.428285075379270E+02;
1.183000000000000E+09;-2.210672662713358E+00;1.422469942289238E+02;
1.184000000000000E+09;-2.167553551511940E+00;1.416870098585273E+02;
1.185000000000000E+09;-2.133318426961590E+00;1.411176688078950E+02;
1.186000000000000E+09;-2.094806731068476E+00;1.405340161051713E+02;
1.187000000000000E+09;-2.058070644029536E+00;1.399867431967165E+02;
1.188000000000000E+09;-2.031619677075849E+00;1.394387344278553E+02;
1.189000000000000E+09;-2.002528703773754E+00;1.388598910881666E+02;
1.190000000000000E+09;-1.976730794537460E+00;1.383180221309857E+02;
1.191000000000000E+09;-1.952833517183761E+00;1.377805320565699E+02;
1.192000000000000E+09;-1.929559815244496E+00;1.372836577670550E+02;
1.193000000000000E+09;-1.906727491285539E+00;1.367486060979581E+02;
1.194000000000000E+09;-1.885335674719162E+00;1.361819380994152E+02;
1.195000000000000E+09;-1.864829068621924E+00;1.356613637594772E+02;
1.196000000000000E+09;-1.849690560131302E+00;1.351184451864794E+02;
1.197000000000000E+09;-1.834107396814364E+00;1.345902770830519E+02;
1.198000000000000E+09;-1.820340329801725E+00;1.340201559136794E+02;
1.199000000000000E+09;-1.804255990366748E+00;1.335122532796298E+02;
1.200000000000000E+09;-1.790247864968228E+00;1.329608414352268E+02;
1.201000000000000E+09;-1.779181437634289E+00;1.324001082239768E+02;
1.202000000000000E+09;-1.769580266167671E+00;1.318227215575962E+02;
1.203000000000000E+09;-1.759689216551688E+00;1.312815718694049E+02;
1.204000000000000E+09;-1.752861934432279E+00;1.307071000565505E+02;
1.205000000000000E+09;-1.745825633413618E+00;1.301593987611795E+02;
1.206000000000000E+09;-1.740965192785928E+00;1.296000841437779E+02;
1.207000000000000E+09;-1.734770096248581E+00;1.290345264612198E+02;
1.208000000000000E+09;-1.729140728920566E+00;1.284291537635337E+02;
1.209000000000000E+09;-1.724615327066959E+00;1.278453301261854E+02;
1.210000000000000E+09;-1.720354071401575E+00;1.272848381270299E+02;
1.211000000000000E+09;-1.719326065168889E+00;1.267080672686637E+02;
1.212000000000000E+09;-1.716742378594734E+00;1.261286062365748E+02;
1.213000000000000E+09;-1.714273027914930E+00;1.254830156519845E+02;
1.214000000000000E+09;-1.714574025159604E+00;1.249261414201687E+02;
1.215000000000000E+09;-1.711253379826411E+00;1.243271596968164E+02;
1.216000000000000E+09;-1.711902513665046E+00;1.237131600064350E+02;
1.217000000000000E+09;-1.711778010831269E+00;1.231100672771990E+02;
1.218000000000000E+09;-1.710709671274798E+00;1.225219838948036E+02;
1.219000000000000E+09;-1.712840816049071E+00;1.219108927876004E+02;
1.220000000000000E+09;-1.708817874852631E+00;1.213021030503487E+02;
1.221000000000000E+09;-1.709234716258017E+00;1.207141469581498E+02;
1.222000000000000E+09;-1.712219287089352E+00;1.201068266085493E+02;
1.223000000000000E+09;-1.708756716743851E+00;1.195181123246450E+02;
1.224000000000000E+09;-1.707470615469095E+00;1.188799981781259E+02;
1.225000000000000E+09;-1.708073631791604E+00;1.182980171197041E+02;
1.226000000000000E+09;-1.705037929122164E+00;1.177200477936663E+02;
1.227000000000000E+09;-1.704366783719175E+00;1.171009165147243E+02;
1.228000000000000E+09;-1.705645394936971E+00;1.165145691064408E+02;
1.229000000000000E+09;-1.700460146124198E+00;1.159385010632799E+02;
1.230000000000000E+09;-1.698591380808842E+00;1.153662043771322E+02;
1.231000000000000E+09;-1.689502327315884E+00;1.147806155350505E+02;
1.232000000000000E+09;-1.682575185544270E+00;1.141961210481248E+02;
1.233000000000000E+09;-1.679518636076996E+00;1.136500205801346E+02;
1.234000000000000E+09;-1.675356798039264E+00;1.130700464389882E+02;
1.235000000000000E+09;-1.667067997793031E+00;1.125361342373836E+02;
1.236000000000000E+09;-1.661187949363043E+00;1.120096893560147E+02;
1.237000000000000E+09;-1.651546135643561E+00;1.114496317711419E+02;
1.238000000000000E+09;-1.639770324911169E+00;1.109350981681410E+02;
1.239000000000000E+09;-1.630835640777614E+00;1.103839701774714E+02;
1.240000000000000E+09;-1.619131350441742E+00;1.098871542691591E+02;
1.241000000000000E+09;-1.607797193069679E+00;1.093721182719634E+02;
1.242000000000000E+09;-1.594976884467092E+00;1.088918587685825E+02;
1.243000000000000E+09;-1.579744322432443E+00;1.083880914416646E+02;
1.244000000000000E+09;-1.560877026662722E+00;1.079210870198305E+02;
1.245000000000000E+09;-1.549132641057629E+00;1.074353856592386E+02;
1.246000000000000E+09;-1.537155796486951E+00;1.069681863252430E+02;
1.247000000000000E+09;-1.519871707569144E+00;1.064972384060855E+02;
1.248000000000000E+09;-1.503890576839597E+00;1.060207148153545E+02;
1.249000000000000E+09;-1.485994018583683E+00;1.055882348579931E+02;
1.250000000000000E+09;-1.471267233084720E+00;1.051312571612140E+02;
1.251000000000000E+09;-1.455068361707350E+00;1.047111731575010E+02;
1.252000000000000E+09;-1.440658340031884E+00;1.043098253900701E+02;
1.253000000000000E+09;-1.424457812247204E+00;1.039123129039624E+02;
1.254000000000000E+09;-1.405514079548027E+00;1.035007481979844E+02;
1.255000000000000E+09;-1.387727865188114E+00;1.031095741017959E+02;
1.256000000000000E+09;-1.368560583832314E+00;1.027161125049094E+02;
1.257000000000000E+09;-1.350865686446227E+00;1.023444137665380E+02;
1.258000000000000E+09;-1.329482759646405E+00;1.019583623338312E+02;
1.259000000000000E+09;-1.309079813157823E+00;1.015553474535914E+02;
1.260000000000000E+09;-1.288145574049748E+00;1.011656724530224E+02;
1.261000000000000E+09;-1.272547045563494E+00;1.008030765575083E+02;
1.262000000000000E+09;-1.257155692630402E+00;1.004163100453376E+02;
1.263000000000000E+09;-1.236189514477526E+00;1.000466817674954E+02;
1.264000000000000E+09;-1.221868041303349E+00;9.963607928135934E+01;
1.265000000000000E+09;-1.204091810517362E+00;9.927262909540164E+01;
1.266000000000000E+09;-1.190616468553746E+00;9.893027665740620E+01;
1.267000000000000E+09;-1.175626377958986E+00;9.854447646589462E+01;
1.268000000000000E+09;-1.162998888816343E+00;9.815954792566792E+01;
1.269000000000000E+09;-1.148767624488053E+00;9.778524277398253E+01;
1.270000000000000E+09;-1.138515333954671E+00;9.742984643270729E+01;
1.271000000000000E+09;-1.126701548221853E+00;9.706700282421599E+01;
1.272000000000000E+09;-1.117020273615972E+00;9.668881300456124E+01;
1.273000000000000E+09;-1.109115795028768E+00;9.631000768086005E+01;
1.274000000000000E+09;-1.100269435005377E+00;9.594342714380393E+01;
1.275000000000000E+09;-1.094297998835855E+00;9.556710423635320E+01;
1.276000000000000E+09;-1.086184567219979E+00;9.519075023779747E+01;
1.277000000000000E+09;-1.080590908109813E+00;9.482196625563876E+01;
1.278000000000000E+09;-1.076278167973899E+00;9.443745300293870E+01;
1.279000000000000E+09;-1.070266946975314E+00;9.407486727352938E+01;
1.280000000000000E+09;-1.069478449748986E+00;9.369094718096640E+01;
1.281000000000000E+09;-1.066124842355069E+00;9.329150251521513E+01;
1.282000000000000E+09;-1.062381565225774E+00;9.291579822644617E+01;
1.283000000000000E+09;-1.062325686445913E+00;9.248018282529564E+01;
1.284000000000000E+09;-1.060380834478479E+00;9.211994718684784E+01;
1.285000000000000E+09;-1.061120194839127E+00;9.172490433322314E+01;
1.286000000000000E+09;-1.064853983482154E+00;9.129047887657300E+01;
1.287000000000000E+09;-1.068017878106520E+00;9.087680794520841E+01;
1.288000000000000E+09;-1.071408997480892E+00;9.046523163558045E+01;
1.289000000000000E+09;-1.074124343298330E+00;9.005595082644881E+01;
1.290000000000000E+09;-1.081345516671243E+00;8.962043651784415E+01;
1.291000000000000E+09;-1.082410534505432E+00;8.917460006583289E+01;
1.292000000000000E+09;-1.088869921717329E+00;8.875270855448191E+01;
