# Version 1.00
#
freq[Hz];db:Trc4_S11;ang:Trc4_S11;
1.000000000000000E+09;-1.296869866012172E+00;1.582697272996129E+02;
1.001000000000000E+09;-1.319216332302414E+00;1.578244107265536E+02;
1.002000000000000E+09;-1.348448694238598E+00;1.573646674381756E+02;
1.003000000000000E+09;-1.370615794951392E+00;1.569212479734444E+02;
1.004000000000000E+09;-1.396020020626467E+00;1.564199651417189E+02;
1.005000000000000E+09;-1.419686200177831E+00;1.559841487254899E+02;
1.006000000000000E+09;-1.448278136632246E+00;1.554963548169038E+02;
1.007000000000000E+09;-1.483786786762780E+00;1.549757951236555E+02;
1.008000000000000E+09;-1.511189922198110E+00;1.545004914479196E+02;
1.009000000000000E+09;-1.543992408887036E+00;1.539887617884974E+02;
1.010000000000000E+09;-1.576769216856481E+00;1.534389018106139E+02;
1.011000000000000E+09;-1.617521169865256E+00;1.529062472940392E+02;
1.012000000000000E+09;-1.650585709370113E+00;1.523452894663906E+02;
1.013000000000000E+09;-1.686568302767077E+00;1.518101491352927E+02;
1.014000000000000E+09;-1.725434019531485E+00;1.512326193607690E+02;
1.015000000000000E+09;-1.764165682738628E+00;1.506688068430419E+02;
1.016000000000000E+09;-1.806937781324895E+00;1.500950397485828E+02;
1.017000000000000E+09;-1.848971589276045E+00;1.494824743419182E+02;
1.018000000000000E+09;-1.891830330815980E+00;1.488521459234794E+02;
1.019000000000000E+09;-1.939936898286194E+00;1.482398175240936E+02;
1.020000000000000E+09;-1.984416776374111E+00;1.476328123015307E+02;
1.021000000000000E+09;-2.028441331073028E+00;1.469932446497803E+02;
1.022000000000000E+09;-2.077329299756962E+00;1.463430228285817E+02;
1.023000000000000E+09;-2.128934360700308E+00;1.457172981049261E+02;
1.024000000000000E+09;-2.176258454695463E+00;1.450661870824866E+02;
1.025000000000000E+09;-2.233018900077395E+00;1.443869484680383E+02;
1.026000000000000E+09;-2.281753668768308E+00;1.437378066140311E+02;
1.027000000000000E+09;-2.330830662718350E+00;1.431099347009671E+02;
1.028000000000000E+09;-2.384941257957193E+00;1.423858757370430E+02;
1.029000000000000E+09;-2.437120184256246E+00;1.417415280300532E+02;
1.030000000000000E+09;-2.493776115833776E+00;1.410553171401803E+02;
1.031000000000000E+09;-2.547577919125858E+00;1.403912770028481E+02;
1.032000000000000E+09;-2.598834800240867E+00;1.396988260091908E+02;
1.033000000000000E+09;-2.649190577562574E+00;1.390234264927760E+02;
1.034000000000000E+09;-2.701335673010528E+00;1.383385351116755E+02;
1.035000000000000E+09;-2.753296728662033E+00;1.376885943445313E+02;
1.036000000000000E+09;-2.803759403212980E+00;1.370032008246927E+02;
1.037000000000000E+09;-2.859531380028612E+00;1.362710078120183E+02;
1.038000000000000E+09;-2.910669216790150E+00;1.356344591622599E+02;
1.039000000000000E+09;-2.959427722150452E+00;1.349657945870300E+02;
1.040000000000000E+09;-3.008919654867834E+00;1.342748315604835E+02;
1.041000000000000E+09;-3.061553208684827E+00;1.336132570750495E+02;
1.042000000000000E+09;-3.111117518330037E+00;1.329283577264225E+02;
1.043000000000000E+09;-3.164016786025940E+00;1.322498570435579E+02;
1.044000000000000E+09;-3.213908678680331E+00;1.315756642063843E+02;
1.045000000000000E+09;-3.268702958528035E+00;1.309462231351002E+02;
1.046000000000000E+09;-3.314338121530802E+00;1.302946873789851E+02;
1.047000000000000E+09;-3.362509833968859E+00;1.296519991621753E+02;
1.048000000000000E+09;-3.409804988995415E+00;1.290225301256707E+02;
1.049000000000000E+09;-3.456143064168911E+00;1.283779741625406E+02;
1.050000000000000E+09;-3.507070425191418E+00;1.277430398935464E+02;
1.051000000000000E+09;-3.553746549411699E+00;1.271194263591354E+02;
1.052000000000000E+09;-3.600857072281543E+00;1.265212664116589E+02;
1.053000000000000E+09;-3.651308863103618E+00;1.259089379568368E+02;
1.054000000000000E+09;-3.700792062220269E+00;1.252532345005531E+02;
1.055000000000000E+09;-3.745322827236252E+00;1.246261129738617E+02;
1.056000000000000E+09;-3.799714235480210E+00;1.240540950598780E+02;
1.057000000000000E+09;-3.848984984212401E+00;1.234553833598974E+02;
1.058000000000000E+09;-3.904044002723695E+00;1.228370550772235E+02;
1.059000000000000E+09;-3.957754350350351E+00;1.222775675849864E+02;
1.060000000000000E+09;-4.012667093857886E+00;1.216752431151200E+02;
1.061000000000000E+09;-4.072213831681026E+00;1.211185650449731E+02;
1.062000000000000E+09;-4.129077456513256E+00;1.205246079025794E+02;
1.063000000000000E+09;-4.191114428267440E+00;1.199977223113844E+02;
1.064000000000000E+09;-4.249350905632053E+00;1.194453266372516E+02;
1.065000000000000E+09;-4.315056878921411E+00;1.188788425560248E+02;
1.066000000000000E+09;-4.382413803602164E+00;1.183061534470892E+02;
1.067000000000000E+09;-4.450313442459536E+00;1.177481171649593E+02;
1.068000000000000E+09;-4.527170806709841E+00;1.172141110898219E+02;
1.069000000000000E+09;-4.602077115632895E+00;1.166208581764279E+02;
1.070000000000000E+09;-4.683669282586424E+00;1.160623713863480E+02;
1.071000000000000E+09;-4.768234013170546E+00;1.155118727473807E+02;
1.072000000000000E+09;-4.857283357414564E+00;1.149858815995968E+02;
1.073000000000000E+09;-4.954244906198896E+00;1.144110593172094E+02;
1.074000000000000E+09;-5.057676509538265E+00;1.139152166375902E+02;
1.075000000000000E+09;-5.165723216780618E+00;1.133552952478710E+02;
1.076000000000000E+09;-5.278602345096725E+00;1.128222564081643E+02;
1.077000000000000E+09;-5.399169379109773E+00;1.122887781997287E+02;
1.078000000000000E+09;-5.528375102006214E+00;1.118080406528376E+02;
1.079000000000000E+09;-5.658712208331606E+00;1.112941068030606E+02;
1.080000000000000E+09;-5.804069078242510E+00;1.108087176906802E+02;
1.081000000000000E+09;-5.950651912702916E+00;1.103110665434822E+02;
1.082000000000000E+09;-6.108633152349899E+00;1.098452376832454E+02;
1.083000000000000E+09;-6.280695739820549E+00;1.093844538311428E+02;
1.084000000000000E+09;-6.459249597007057E+00;1.089484955893976E+02;
1.085000000000000E+09;-6.643791479511522E+00;1.085868813761074E+02;
1.086000000000000E+09;-6.834539487125158E+00;1.082374511108673E+02;
1.087000000000000E+09;-7.041739190025059E+00;1.078953489317569E+02;
1.088000000000000E+09;-7.253721297105300E+00;1.075975021155341E+02;
1.089000000000000E+09;-7.475550865428728E+00;1.073019365255453E+02;
1.090000000000000E+09;-7.709138815045050E+00;1.070810326632150E+02;
1.091000000000000E+09;-7.954393753386549E+00;1.068514085476060E+02;
1.092000000000000E+09;-8.211598715392501E+00;1.066677160225444E+02;
1.093000000000000E+09;-8.481147582360331E+00;1.065743258543216E+02;
1.094000000000000E+09;-8.768060198709160E+00;1.065389298489101E+02;
1.095000000000000E+09;-9.070407111724803E+00;1.065303882311514E+02;
1.096000000000000E+09;-9.390721256285099E+00;1.066645667790613E+02;
1.097000000000000E+09;-9.715499737496003E+00;1.069308870729494E+02;
1.098000000000000E+09;-1.005385974261934E+01;1.072390147739388E+02;
1.099000000000000E+09;-1.041104202316890E+01;1.077457813872096E+02;
1.100000000000000E+09;-1.078326859351176E+01;1.083278008298368E+02;
1.101000000000000E+09;-1.116030525281226E+01;1.091591717140418E+02;
1.102000000000000E+09;-1.155449580192460E+01;1.101329399679342E+02;
1.103000000000000E+09;-1.195651767448603E+01;1.113249926875275E+02;
1.104000000000000E+09;-1.236629317016019E+01;1.128172994388643E+02;
1.105000000000000E+09;-1.277124303346912E+01;1.145902143407764E+02;
1.106000000000000E+09;-1.317702966694500E+01;1.166531519125216E+02;
1.107000000000000E+09;-1.357134362418506E+01;1.190713944829392E+02;
1.108000000000000E+09;-1.393102421673815E+01;1.218195445085032E+02;
1.109000000000000E+09;-1.427256058352896E+01;1.248801373369077E+02;
1.110000000000000E+09;-1.457158173618154E+01;1.282946835656873E+02;
1.111000000000000E+09;-1.479283332159205E+01;1.321375406339519E+02;
1.112000000000000E+09;-1.494581476845717E+01;1.360127998020000E+02;
1.113000000000000E+09;-1.504072084527456E+01;1.400582364978295E+02;
1.114000000000000E+09;-1.503467317455465E+01;1.441818302724964E+02;
1.115000000000000E+09;-1.494935754763896E+01;1.481200809502872E+02;
1.116000000000000E+09;-1.481021423074679E+01;1.518040611139658E+02;
1.117000000000000E+09;-1.461011478413767E+01;1.553114676886914E+02;
1.118000000000000E+09;-1.435616708966427E+01;1.585078755349278E+02;
1.119000000000000E+09;-1.406553495599902E+01;1.615075630755945E+02;
1.120000000000000E+09;-1.373860481160435E+01;1.640399630474610E+02;
1.121000000000000E+09;-1.339544678440235E+01;1.663008673718122E+02;
1.122000000000000E+09;-1.302652982177942E+01;1.682711048156243E+02;
1.123000000000000E+09;-1.265067477183701E+01;1.698475500097189E+02;
1.124000000000000E+09;-1.227735080540783E+01;1.711531489181907E+02;
1.125000000000000E+09;-1.191436476745809E+01;1.722643128104189E+02;
1.126000000000000E+09;-1.153745580758539E+01;1.731436020576405E+02;
1.127000000000000E+09;-1.117673809174996E+01;1.737770294603220E+02;
1.128000000000000E+09;-1.082289841946725E+01;1.742421089398487E+02;
1.129000000000000E+09;-1.047367894656936E+01;1.745278484481844E+02;
1.130000000000000E+09;-1.013111631837635E+01;1.746927575319557E+02;
1.131000000000000E+09;-9.804598839808889E+00;1.746834790459940E+02;
1.132000000000000E+09;-9.482979676794494E+00;1.745278521935890E+02;
1.133000000000000E+09;-9.171181582763731E+00;1.742540149159808E+02;
1.134000000000000E+09;-8.876218366560870E+00;1.739152349588240E+02;
1.135000000000000E+09;-8.589644428814623E+00;1.734562652185777E+02;
1.136000000000000E+09;-8.320888446423314E+00;1.729337265475458E+02;
1.137000000000000E+09;-8.056796863347181E+00;1.723250455579654E+02;
1.138000000000000E+09;-7.808794591103284E+00;1.716782475968674E+02;
1.139000000000000E+09;-7.580597394736184E+00;1.709823972036076E+02;
1.140000000000000E+09;-7.353546122739965E+00;1.703593131759914E+02;
1.141000000000000E+09;-7.134593239944421E+00;1.696121659042540E+02;
1.142000000000000E+09;-6.920302399581829E+00;1.688624006922397E+02;
1.143000000000000E+09;-6.722494549685284E+00;1.681318278985634E+02;
1.144000000000000E+09;-6.519728414778928E+00;1.673758254492919E+02;
1.145000000000000E+09;-6.328768588898849E+00;1.666241717735108E+02;
1.146000000000000E+09;-6.144878578945328E+00;1.658192659604363E+02;
1.147000000000000E+09;-5.964723710259302E+00;1.650145007732772E+02;
1.148000000000000E+09;-5.793752355982998E+00;1.642196857794547E+02;
1.149000000000000E+09;-5.622619965419168E+00;1.634343203812581E+02;
1.150000000000000E+09;-5.467526610431978E+00;1.625865992660250E+02;
1.151000000000000E+09;-5.306884904507894E+00;1.617991164522769E+02;
1.152000000000000E+09;-5.164679321374356E+00;1.609901287637537E+02;
1.153000000000000E+09;-5.021433981022378E+00;1.601899652190369E+02;
1.154000000000000E+09;-4.885483124229266E+00;1.594227529025610E+02;
1.155000000000000E+09;-4.751766943644736E+00;1.586369745453435E+02;
1.156000000000000E+09;-4.619493797054236E+00;1.578699004507792E+02;
1.157000000000000E+09;-4.493877934455417E+00;1.571027717751979E+02;
1.158000000000000E+09;-4.374405208355064E+00;1.563976657592642E+02;
1.159000000000000E+09;-4.259622360143631E+00;1.556596043661400E+02;
1.160000000000000E+09;-4.144179349377971E+00;1.549585449621775E+02;
1.161000000000000E+09;-4.038607092261429E+00;1.542403799648521E+02;
1.162000000000000E+09;-3.932628287214517E+00;1.535531187055237E+02;
1.163000000000000E+09;-3.829777747493632E+00;1.528638157643569E+02;
1.164000000000000E+09;-3.731084239134811E+00;1.521699887545335E+02;
1.165000000000000E+09;-3.635556993218158E+00;1.514925638856814E+02;
1.166000000000000E+09;-3.544884192557110E+00;1.508340917257402E+02;
1.167000000000000E+09;-3.460136530406739E+00;1.501855425456815E+02;
1.168000000000000E+09;-3.379992315474668E+00;1.495528265157645E+02;
1.169000000000000E+09;-3.302421722883311E+00;1.489417558803387E+02;
1.170000000000000E+09;-3.228699904472958E+00;1.483392996733212E+02;
1.171000000000000E+09;-3.155122612262748E+00;1.477260528458338E+02;
1.172000000000000E+09;-3.088904461885863E+00;1.471498110295050E+02;
1.173000000000000E+09;-3.023778625206567E+00;1.465742811124709E+02;
1.174000000000000E+09;-2.960675016849952E+00;1.460285166677381E+02;
1.175000000000000E+09;-2.905098421099106E+00;1.454736059912393E+02;
1.176000000000000E+09;-2.851764222585086E+00;1.449274671032032E+02;
1.177000000000000E+09;-2.797526831019479E+00;1.444108053726269E+02;
1.178000000000000E+09;-2.748911505578740E+00;1.439065130195269E+02;
1.179000000000000E+09;-2.703985730776951E+00;1.433839386517556E+02;
1.180000000000000E+09;-2.660358454321620E+00;1.428996888808941E+02;
1.181000000000000E+09;-2.615684768411464E+00;1.424467979354295E+02;
1.182000000000000E+09;-2.582991946351132E+00;1.419650955525095E+02;
1.183000000000000E+09;-2.543436063010318E+00;1.415018760226114E+02;
1.184000000000000E+09;-2.506671972577867E+00;1.410325945378000E+02;
1.185000000000000E+09;-2.477826260386696E+00;1.405980429661599E+02;
1.186000000000000E+09;-2.445710768454116E+00;1.401461882717169E+02;
1.187000000000000E+09;-2.415044349075043E+00;1.397013864947524E+02;
1.188000000000000E+09;-2.387443232144113E+00;1.392763183781902E+02;
1.189000000000000E+09;-2.359801323243817E+00;1.388456630355807E+02;
1.190000000000000E+09;-2.337426166421538E+00;1.384222186448335E+02;
1.191000000000000E+09;-2.310755604246625E+00;1.379824112595748E+02;
1.192000000000000E+09;-2.287714169862722E+00;1.375558850148801E+02;
1.193000000000000E+09;-2.272472184056381E+00;1.371307461830083E+02;
1.194000000000000E+09;-2.249749752455237E+00;1.366423141782445E+02;
1.195000000000000E+09;-2.229778591623478E+00;1.362491406323545E+02;
1.196000000000000E+09;-2.215065770129218E+00;1.357833657691262E+02;
1.197000000000000E+09;-2.199124767182706E+00;1.353337295898971E+02;
1.198000000000000E+09;-2.186680968084780E+00;1.348845048748746E+02;
1.199000000000000E+09;-2.174031600963991E+00;1.344679978093831E+02;
1.200000000000000E+09;-2.161872712015039E+00;1.339868400179823E+02;
1.201000000000000E+09;-2.153146358289792E+00;1.335480383962433E+02;
1.202000000000000E+09;-2.143861081836411E+00;1.330781927719995E+02;
1.203000000000000E+09;-2.133144430817554E+00;1.326290391785196E+02;
1.204000000000000E+09;-2.125795833357563E+00;1.321917153247886E+02;
1.205000000000000E+09;-2.113569650040888E+00;1.317185996384792E+02;
1.206000000000000E+09;-2.106096819027773E+00;1.312471276398657E+02;
1.207000000000000E+09;-2.099950971265942E+00;1.307937750760899E+02;
1.208000000000000E+09;-2.086500475135357E+00;1.302842771080824E+02;
1.209000000000000E+09;-2.076273371098040E+00;1.298012647316286E+02;
1.210000000000000E+09;-2.066899704074539E+00;1.293121728181271E+02;
1.211000000000000E+09;-2.058601040634860E+00;1.288066363308329E+02;
1.212000000000000E+09;-2.048374905241425E+00;1.282832461448439E+02;
1.213000000000000E+09;-2.038250812902230E+00;1.277285934490707E+02;
1.214000000000000E+09;-2.027698397495386E+00;1.272276133239705E+02;
1.215000000000000E+09;-2.016111201969983E+00;1.266822313463003E+02;
1.216000000000000E+09;-2.005506840087731E+00;1.261218789173986E+02;
1.217000000000000E+09;-1.995234200395120E+00;1.255625759875813E+02;
1.218000000000000E+09;-1.982626773215189E+00;1.250091146606155E+02;
1.219000000000000E+09;-1.973045584649138E+00;1.244215651632968E+02;
1.220000000000000E+09;-1.957330806008850E+00;1.238383412574327E+02;
1.221000000000000E+09;-1.942041017486567E+00;1.232496139672463E+02;
1.222000000000000E+09;-1.931108919386933E+00;1.226584630360616E+02;
1.223000000000000E+09;-1.916692834624999E+00;1.220570541239129E+02;
1.224000000000000E+09;-1.900257687745650E+00;1.214220921008390E+02;
1.225000000000000E+09;-1.885370192657458E+00;1.208207249592217E+02;
1.226000000000000E+09;-1.874590088486092E+00;1.201886029712364E+02;
1.227000000000000E+09;-1.862155984209800E+00;1.195614885763039E+02;
1.228000000000000E+09;-1.847133485962021E+00;1.189352979654060E+02;
1.229000000000000E+09;-1.831872309113868E+00;1.183158490334771E+02;
1.230000000000000E+09;-1.818644892201283E+00;1.176885229410475E+02;
1.231000000000000E+09;-1.801003456150340E+00;1.170254305689038E+02;
1.232000000000000E+09;-1.781831419617535E+00;1.164256939494917E+02;
1.233000000000000E+09;-1.766875391076298E+00;1.158056102589040E+02;
1.234000000000000E+09;-1.747301568668371E+00;1.151699060550202E+02;
1.235000000000000E+09;-1.732423014697758E+00;1.145678903218800E+02;
1.236000000000000E+09;-1.711674548836570E+00;1.139706936093126E+02;
1.237000000000000E+09;-1.692080209861350E+00;1.133124317482145E+02;
1.238000000000000E+09;-1.680556097104242E+00;1.127263508390789E+02;
1.239000000000000E+09;-1.655629883669313E+00;1.121107597734236E+02;
1.240000000000000E+09;-1.639697268236607E+00;1.115223481324634E+02;
1.241000000000000E+09;-1.622422552696718E+00;1.109279514237453E+02;
1.242000000000000E+09;-1.601325004522736E+00;1.103600219073019E+02;
1.243000000000000E+09;-1.585941102773556E+00;1.097631941552727E+02;
1.244000000000000E+09;-1.562845269706586E+00;1.092192247465110E+02;
1.245000000000000E+09;-1.543345038179032E+00;1.086785016412648E+02;
1.246000000000000E+09;-1.524533859441234E+00;1.081280687735180E+02;
1.247000000000000E+09;-1.500667074029543E+00;1.075914386890598E+02;
1.248000000000000E+09;-1.482001629233819E+00;1.070603218420884E+02;
1.249000000000000E+09;-1.461632239185441E+00;1.065433667000534E+02;
1.250000000000000E+09;-1.439928512636886E+00;1.060161065997182E+02;
1.251000000000000E+09;-1.422930846691632E+00;1.054866895249738E+02;
1.252000000000000E+09;-1.400782503190650E+00;1.050376980616455E+02;
1.253000000000000E+09;-1.380235975173437E+00;1.045505604427679E+02;
1.254000000000000E+09;-1.362336189459228E+00;1.040458270445734E+02;
1.255000000000000E+09;-1.340803945368162E+00;1.035670257602040E+02;
1.256000000000000E+09;-1.326355523087573E+00;1.030858707594299E+02;
1.257000000000000E+09;-1.310209976331338E+00;1.026603152678984E+02;
1.258000000000000E+09;-1.291201485102844E+00;1.022041160197353E+02;
1.259000000000000E+09;-1.277646470528629E+00;1.017572226245892E+02;
1.260000000000000E+09;-1.258026424947520E+00;1.013149632789530E+02;
1.261000000000000E+09;-1.248453757650957E+00;1.009139669491461E+02;
1.262000000000000E+09;-1.234699450727839E+00;1.004911944671382E+02;
1.263000000000000E+09;-1.215295156615760E+00;1.001023198045601E+02;
1.264000000000000E+09;-1.204858019000574E+00;9.965063707920343E+01;
1.265000000000000E+09;-1.191226227923110E+00;9.927215361038547E+01;
1.266000000000000E+09;-1.181010317814449E+00;9.892121096951475E+01;
1.267000000000000E+09;-1.167957330395235E+00;9.850302098901264E+01;
1.268000000000000E+09;-1.155818510561381E+00;9.811154607598613E+01;
1.269000000000000E+09;-1.148751028836058E+00;9.771250989472932E+01;
1.270000000000000E+09;-1.137153376159862E+00;9.734504337077989E+01;
1.271000000000000E+09;-1.128119508219885E+00;9.697381711119100E+01;
1.272000000000000E+09;-1.122570423319912E+00;9.658072612383663E+01;
1.273000000000000E+09;-1.117111837086891E+00;9.619692502179441E+01;
1.274000000000000E+09;-1.109418825743325E+00;9.579858995186423E+01;
1.275000000000000E+09;-1.104792216512259E+00;9.543825835857379E+01;
1.276000000000000E+09;-1.100032676351686E+00;9.505041206964545E+01;
1.277000000000000E+09;-1.098439530102084E+00;9.468980839730055E+01;
1.278000000000000E+09;-1.098851465893867E+00;9.428900195582983E+01;
1.279000000000000E+09;-1.094562024920036E+00;9.393745636418001E+01;
1.280000000000000E+09;-1.089902552274573E+00;9.356571030343400E+01;
1.281000000000000E+09;-1.093643019348683E+00;9.317061599221506E+01;
1.282000000000000E+09;-1.093159682269118E+00;9.276094172685730E+01;
1.283000000000000E+09;-1.094391023623045E+00;9.236705092172262E+01;
1.284000000000000E+09;-1.097725885141705E+00;9.199117313431421E+01;
1.285000000000000E+09;-1.100623896052367E+00;9.157948823152620E+01;
1.286000000000000E+09;-1.106046808154111E+00;9.116425315585741E+01;
1.287000000000000E+09;-1.109287630743394E+00;9.074121432741156E+01;
1.288000000000000E+09;-1.112976030462608E+00;9.032305266476230E+01;
1.289000000000000E+09;-1.120741528171866E+00;8.989981587138085E+01;
1.290000000000000E+09;-1.128428700667049E+00;8.948346854327299E+01;
1.291000000000000E+09;-1.134744247813702E+00;8.903707795864105E+01;
1.292000000000000E+09;-1.148509426449751E+00;8.861817528871455E+01;
