# Version 1.00
#
freq[Hz];db:Trc4_S11;ang:Trc4_S11;
1.000000000000000E+09;-1.310543265302096E+00;1.576991692783892E+02;
1.001000000000000E+09;-1.333055335074679E+00;1.572635698992371E+02;
1.002000000000000E+09;-1.359184895852644E+00;1.568072484626383E+02;
1.003000000000000E+09;-1.388229113150408E+00;1.563531970598369E+02;
1.004000000000000E+09;-1.416659374018195E+00;1.558767463940032E+02;
1.005000000000000E+09;-1.441831809413757E+00;1.554434878139501E+02;
1.006000000000000E+09;-1.470872702147723E+00;1.549266521664662E+02;
1.007000000000000E+09;-1.505846035383046E+00;1.544379851754354E+02;
1.008000000000000E+09;-1.539614226957990E+00;1.539751356863898E+02;
1.009000000000000E+09;-1.572131765896291E+00;1.534583244869034E+02;
1.010000000000000E+09;-1.603485070863674E+00;1.529425184359488E+02;
1.011000000000000E+09;-1.646182980437035E+00;1.523950646674416E+02;
1.012000000000000E+09;-1.681839335970049E+00;1.518537862128763E+02;
1.013000000000000E+09;-1.718467575807674E+00;1.513198674169934E+02;
1.014000000000000E+09;-1.756800673754698E+00;1.507411428320646E+02;
1.015000000000000E+09;-1.799973269910578E+00;1.501839308257686E+02;
1.016000000000000E+09;-1.840934854706099E+00;1.496006028894852E+02;
1.017000000000000E+09;-1.885380234855799E+00;1.489976459121703E+02;
1.018000000000000E+09;-1.930395471448215E+00;1.483900184299748E+02;
1.019000000000000E+09;-1.976354690501867E+00;1.477828602561732E+02;
1.020000000000000E+09;-2.020143438951175E+00;1.471871772883864E+02;
1.021000000000000E+09;-2.070483527830870E+00;1.465569444819312E+02;
1.022000000000000E+09;-2.117297409275633E+00;1.459166324722434E+02;
1.023000000000000E+09;-2.168560339502356E+00;1.452919636420906E+02;
1.024000000000000E+09;-2.220277625067982E+00;1.446452867386018E+02;
1.025000000000000E+09;-2.269280031545704E+00;1.439707806738727E+02;
1.026000000000000E+09;-2.322648642081584E+00;1.433233821582180E+02;
1.027000000000000E+09;-2.372029679858772E+00;1.426962573620417E+02;
1.028000000000000E+09;-2.428211981500589E+00;1.419962737084716E+02;
1.029000000000000E+09;-2.478321337425356E+00;1.413405001132160E+02;
1.030000000000000E+09;-2.535489699630075E+00;1.406522593257375E+02;
1.031000000000000E+09;-2.587921112584431E+00;1.399765203282850E+02;
1.032000000000000E+09;-2.641841880043087E+00;1.392838727926343E+02;
1.033000000000000E+09;-2.696615650929235E+00;1.385995594848845E+02;
1.034000000000000E+09;-2.749437055180598E+00;1.379358549160583E+02;
1.035000000000000E+09;-2.804825121274520E+00;1.372691204247190E+02;
1.036000000000000E+09;-2.858656933391388E+00;1.366053459452640E+02;
1.037000000000000E+09;-2.920839808147285E+00;1.359142777370654E+02;
1.038000000000000E+09;-2.964773202982716E+00;1.352758572663832E+02;
1.039000000000000E+09;-3.020519772895522E+00;1.345881859872421E+02;
1.040000000000000E+09;-3.073638067366397E+00;1.339316470330887E+02;
1.041000000000000E+09;-3.126395213582654E+00;1.333010452210906E+02;
1.042000000000000E+09;-3.177274026546015E+00;1.326554300942459E+02;
1.043000000000000E+09;-3.233523210102264E+00;1.319810621314610E+02;
1.044000000000000E+09;-3.282065250755024E+00;1.313459278223562E+02;
1.045000000000000E+09;-3.333484931277346E+00;1.307457871564664E+02;
1.046000000000000E+09;-3.383041123825193E+00;1.301220346457040E+02;
1.047000000000000E+09;-3.432006476571368E+00;1.294795159330321E+02;
1.048000000000000E+09;-3.477613747414268E+00;1.288691083553445E+02;
1.049000000000000E+09;-3.521573718146427E+00;1.282859777033932E+02;
1.050000000000000E+09;-3.571446386089077E+00;1.276594539122569E+02;
1.051000000000000E+09;-3.617971272510768E+00;1.270692960495278E+02;
1.052000000000000E+09;-3.663648818839470E+00;1.264891650494985E+02;
1.053000000000000E+09;-3.715708373447616E+00;1.259022054361867E+02;
1.054000000000000E+09;-3.761610230062024E+00;1.252924265570788E+02;
1.055000000000000E+09;-3.800339721272203E+00;1.247245711791408E+02;
1.056000000000000E+09;-3.852563203732399E+00;1.241584602788068E+02;
1.057000000000000E+09;-3.897936582162245E+00;1.236048078467944E+02;
1.058000000000000E+09;-3.946745188306339E+00;1.230198162765264E+02;
1.059000000000000E+09;-3.996595126670081E+00;1.224631798329282E+02;
1.060000000000000E+09;-4.044312996900905E+00;1.218929517375041E+02;
1.061000000000000E+09;-4.099608960278283E+00;1.213312099865647E+02;
1.062000000000000E+09;-4.150970713872480E+00;1.207502532718474E+02;
1.063000000000000E+09;-4.208936106142901E+00;1.202426220466680E+02;
1.064000000000000E+09;-4.262451895989392E+00;1.197134717324749E+02;
1.065000000000000E+09;-4.323698900324604E+00;1.191593422161486E+02;
1.066000000000000E+09;-4.386750687634169E+00;1.186001053542354E+02;
1.067000000000000E+09;-4.450140468858105E+00;1.180687350085615E+02;
1.068000000000000E+09;-4.520528115061221E+00;1.175618528683932E+02;
1.069000000000000E+09;-4.587001948036687E+00;1.169872956564814E+02;
1.070000000000000E+09;-4.664280954504734E+00;1.164513852901646E+02;
1.071000000000000E+09;-4.741719483235631E+00;1.159351237421017E+02;
1.072000000000000E+09;-4.825123451012812E+00;1.154322633999345E+02;
1.073000000000000E+09;-4.909640001125801E+00;1.148569210802338E+02;
1.074000000000000E+09;-5.001960288485155E+00;1.143676122542233E+02;
1.075000000000000E+09;-5.099204788626199E+00;1.138261945962575E+02;
1.076000000000000E+09;-5.196991279569038E+00;1.133361534915518E+02;
1.077000000000000E+09;-5.309082460768666E+00;1.127848018120967E+02;
1.078000000000000E+09;-5.423195275694480E+00;1.122985120277645E+02;
1.079000000000000E+09;-5.540497781944429E+00;1.118010224472529E+02;
1.080000000000000E+09;-5.670564187784997E+00;1.113362035004174E+02;
1.081000000000000E+09;-5.800638003616068E+00;1.108014917351032E+02;
1.082000000000000E+09;-5.944923708261420E+00;1.103223430496187E+02;
1.083000000000000E+09;-6.087889345247930E+00;1.098425652368605E+02;
1.084000000000000E+09;-6.246976292454232E+00;1.093549243121149E+02;
1.085000000000000E+09;-6.406738910367217E+00;1.088969269501416E+02;
1.086000000000000E+09;-6.577769815671690E+00;1.084786699651682E+02;
1.087000000000000E+09;-6.759469252767674E+00;1.080284865278257E+02;
1.088000000000000E+09;-6.954697612962284E+00;1.076011671011880E+02;
1.089000000000000E+09;-7.152084330057563E+00;1.071649843130207E+02;
1.090000000000000E+09;-7.366739037345582E+00;1.067636861180015E+02;
1.091000000000000E+09;-7.597409222395535E+00;1.064139162001427E+02;
1.092000000000000E+09;-7.834140288660824E+00;1.060600049272740E+02;
1.093000000000000E+09;-8.084165748620654E+00;1.057822613602703E+02;
1.094000000000000E+09;-8.354243312986139E+00;1.054897436069871E+02;
1.095000000000000E+09;-8.634716618054926E+00;1.052649791613126E+02;
1.096000000000000E+09;-8.935714454855963E+00;1.051662380327838E+02;
1.097000000000000E+09;-9.244691483098503E+00;1.051399672548839E+02;
1.098000000000000E+09;-9.574267031516747E+00;1.051450077357861E+02;
1.099000000000000E+09;-9.917883207947886E+00;1.052751602991386E+02;
1.100000000000000E+09;-1.027192540633857E+01;1.055410822947219E+02;
1.101000000000000E+09;-1.064826436328682E+01;1.058945414255130E+02;
1.102000000000000E+09;-1.103750360643570E+01;1.063785644153430E+02;
1.103000000000000E+09;-1.144231318802055E+01;1.070427662204248E+02;
1.104000000000000E+09;-1.187322546055307E+01;1.079709965374015E+02;
1.105000000000000E+09;-1.230550167417215E+01;1.090663887744105E+02;
1.106000000000000E+09;-1.276053191207984E+01;1.104222460642811E+02;
1.107000000000000E+09;-1.320994654068866E+01;1.121122639786191E+02;
1.108000000000000E+09;-1.366170238076490E+01;1.142173509619758E+02;
1.109000000000000E+09;-1.411898453704807E+01;1.165725584298592E+02;
1.110000000000000E+09;-1.456039384129153E+01;1.193980631007784E+02;
1.111000000000000E+09;-1.496246782480452E+01;1.227954047823818E+02;
1.112000000000000E+09;-1.531102344059678E+01;1.265538223142660E+02;
1.113000000000000E+09;-1.561197241332540E+01;1.306718685865755E+02;
1.114000000000000E+09;-1.580921352086028E+01;1.351363442337729E+02;
1.115000000000000E+09;-1.592433354754361E+01;1.398871404890268E+02;
1.116000000000000E+09;-1.594607798205301E+01;1.446435571362454E+02;
1.117000000000000E+09;-1.585271236886069E+01;1.493178321405148E+02;
1.118000000000000E+09;-1.566765247773796E+01;1.538112223961725E+02;
1.119000000000000E+09;-1.540160583110901E+01;1.579713373191572E+02;
1.120000000000000E+09;-1.506691758331259E+01;1.616596357945332E+02;
1.121000000000000E+09;-1.468107562947875E+01;1.649393812542773E+02;
1.122000000000000E+09;-1.425194738770488E+01;1.677502019516809E+02;
1.123000000000000E+09;-1.380820466359508E+01;1.700455571663430E+02;
1.124000000000000E+09;-1.336140017045396E+01;1.719372263621881E+02;
1.125000000000000E+09;-1.291765068339041E+01;1.734980179506797E+02;
1.126000000000000E+09;-1.246568981516542E+01;1.747284320497740E+02;
1.127000000000000E+09;-1.202878399931800E+01;1.756625723547770E+02;
1.128000000000000E+09;-1.159898406424641E+01;1.763280541017015E+02;
1.129000000000000E+09;-1.118995633555138E+01;1.767215671872219E+02;
1.130000000000000E+09;-1.079050799814792E+01;1.769265404657419E+02;
1.131000000000000E+09;-1.041219116320296E+01;1.769603890578776E+02;
1.132000000000000E+09;-1.005146685350056E+01;1.768541238394783E+02;
1.133000000000000E+09;-9.708091084098333E+00;1.765893491411688E+02;
1.134000000000000E+09;-9.372505962401638E+00;1.763204797285894E+02;
1.135000000000000E+09;-9.054423029523317E+00;1.759282820765441E+02;
1.136000000000000E+09;-8.747363978327243E+00;1.754566370316359E+02;
1.137000000000000E+09;-8.447131599193490E+00;1.749434886558909E+02;
1.138000000000000E+09;-8.162723658237782E+00;1.743223867902577E+02;
1.139000000000000E+09;-7.893385049643864E+00;1.736564886934956E+02;
1.140000000000000E+09;-7.628116757166627E+00;1.729794464351234E+02;
1.141000000000000E+09;-7.373296681572794E+00;1.722094150549824E+02;
1.142000000000000E+09;-7.130563887648252E+00;1.714169759966999E+02;
1.143000000000000E+09;-6.898679156170290E+00;1.706249858748076E+02;
1.144000000000000E+09;-6.671750463659636E+00;1.698279582935891E+02;
1.145000000000000E+09;-6.453790239837398E+00;1.689734774550362E+02;
1.146000000000000E+09;-6.244659199796811E+00;1.681477209592833E+02;
1.147000000000000E+09;-6.042076374454924E+00;1.672637034705956E+02;
1.148000000000000E+09;-5.850570234751942E+00;1.664347465540585E+02;
1.149000000000000E+09;-5.667502169495004E+00;1.655248341772270E+02;
1.150000000000000E+09;-5.485508495198939E+00;1.646246576433381E+02;
1.151000000000000E+09;-5.307026239083780E+00;1.637473207432266E+02;
1.152000000000000E+09;-5.144648334904119E+00;1.628478805834584E+02;
1.153000000000000E+09;-4.988842764749601E+00;1.619998031799761E+02;
1.154000000000000E+09;-4.840532147283226E+00;1.611211992135200E+02;
1.155000000000000E+09;-4.693166589145974E+00;1.602900118294325E+02;
1.156000000000000E+09;-4.548663188139339E+00;1.594783310263536E+02;
1.157000000000000E+09;-4.412118406668379E+00;1.586304363761089E+02;
1.158000000000000E+09;-4.277220816383471E+00;1.578405614401619E+02;
1.159000000000000E+09;-4.150746924465994E+00;1.570030767709777E+02;
1.160000000000000E+09;-4.029288386854235E+00;1.562295509298810E+02;
1.161000000000000E+09;-3.915516348569186E+00;1.554317581252249E+02;
1.162000000000000E+09;-3.805141585144920E+00;1.546962508308281E+02;
1.163000000000000E+09;-3.696440269747155E+00;1.539302614122053E+02;
1.164000000000000E+09;-3.594676216001056E+00;1.532131568367473E+02;
1.165000000000000E+09;-3.493541098606911E+00;1.525070143917071E+02;
1.166000000000000E+09;-3.398193072345894E+00;1.518226617627118E+02;
1.167000000000000E+09;-3.303796720924726E+00;1.511365154377195E+02;
1.168000000000000E+09;-3.217676942880403E+00;1.504671094340090E+02;
1.169000000000000E+09;-3.130563059629150E+00;1.498168651583181E+02;
1.170000000000000E+09;-3.048299250344038E+00;1.491784042895594E+02;
1.171000000000000E+09;-2.968732899015034E+00;1.485365580585550E+02;
1.172000000000000E+09;-2.891775532875692E+00;1.479049573426573E+02;
1.173000000000000E+09;-2.817851354449222E+00;1.472786722130893E+02;
1.174000000000000E+09;-2.748457259187708E+00;1.466740201558486E+02;
1.175000000000000E+09;-2.682945583286429E+00;1.460733354157198E+02;
1.176000000000000E+09;-2.621290613035411E+00;1.454825661889928E+02;
1.177000000000000E+09;-2.560645469186711E+00;1.449007719342685E+02;
1.178000000000000E+09;-2.503310148246470E+00;1.443389672422154E+02;
1.179000000000000E+09;-2.450684171693655E+00;1.437396846337713E+02;
1.180000000000000E+09;-2.402021070792263E+00;1.432059292741333E+02;
1.181000000000000E+09;-2.353166941863596E+00;1.426725252785187E+02;
1.182000000000000E+09;-2.310982502941783E+00;1.421168267212443E+02;
1.183000000000000E+09;-2.268115532395149E+00;1.415774666382238E+02;
1.184000000000000E+09;-2.225608559969439E+00;1.410540257512116E+02;
1.185000000000000E+09;-2.191673319308166E+00;1.405253455555745E+02;
1.186000000000000E+09;-2.154133727348120E+00;1.400046531727221E+02;
1.187000000000000E+09;-2.117516666796202E+00;1.394704148067263E+02;
1.188000000000000E+09;-2.091434620346229E+00;1.389583812488607E+02;
1.189000000000000E+09;-2.057526555657334E+00;1.384375464947275E+02;
1.190000000000000E+09;-2.030774211726047E+00;1.379130037394802E+02;
1.191000000000000E+09;-2.008823827848753E+00;1.373773359110606E+02;
1.192000000000000E+09;-1.985051650806110E+00;1.368630426293144E+02;
1.193000000000000E+09;-1.966108211438155E+00;1.363444074212899E+02;
1.194000000000000E+09;-1.947166326604831E+00;1.357907574413341E+02;
1.195000000000000E+09;-1.933644769031374E+00;1.352906081819410E+02;
1.196000000000000E+09;-1.916299357707906E+00;1.347581315387339E+02;
1.197000000000000E+09;-1.906278852706035E+00;1.342146685186955E+02;
1.198000000000000E+09;-1.896352805376413E+00;1.336642019284636E+02;
1.199000000000000E+09;-1.885235064973753E+00;1.331662104516081E+02;
1.200000000000000E+09;-1.876671968670729E+00;1.326387448846651E+02;
1.201000000000000E+09;-1.872114219440313E+00;1.320742360256782E+02;
1.202000000000000E+09;-1.868202201767931E+00;1.315251327111170E+02;
1.203000000000000E+09;-1.865924457671554E+00;1.309866884134877E+02;
1.204000000000000E+09;-1.864063284343368E+00;1.304286437135717E+02;
1.205000000000000E+09;-1.860585824585197E+00;1.299039410425254E+02;
1.206000000000000E+09;-1.864191613810567E+00;1.293448398611837E+02;
1.207000000000000E+09;-1.865325956656217E+00;1.288073957669149E+02;
1.208000000000000E+09;-1.863170839744495E+00;1.282221335025656E+02;
1.209000000000000E+09;-1.864775139432797E+00;1.276871316146398E+02;
1.210000000000000E+09;-1.866733906619021E+00;1.271229162857427E+02;
1.211000000000000E+09;-1.868563547637488E+00;1.265645985885755E+02;
1.212000000000000E+09;-1.870424339779903E+00;1.259942991315515E+02;
1.213000000000000E+09;-1.874031718931641E+00;1.253777496237747E+02;
1.214000000000000E+09;-1.877923900527939E+00;1.248332497566212E+02;
1.215000000000000E+09;-1.877133988297417E+00;1.242356785409605E+02;
1.216000000000000E+09;-1.883309928979584E+00;1.236433848165195E+02;
1.217000000000000E+09;-1.884929879825936E+00;1.230537316584762E+02;
1.218000000000000E+09;-1.885046420682268E+00;1.224697235709814E+02;
1.219000000000000E+09;-1.891537707129610E+00;1.218730120850497E+02;
1.220000000000000E+09;-1.889169082466484E+00;1.212544349929581E+02;
1.221000000000000E+09;-1.888396415844845E+00;1.206641326820625E+02;
1.222000000000000E+09;-1.892743095077560E+00;1.200696991975791E+02;
1.223000000000000E+09;-1.890523880264059E+00;1.194641313947687E+02;
1.224000000000000E+09;-1.888764452875903E+00;1.188505124909657E+02;
1.225000000000000E+09;-1.889805065664020E+00;1.182585853180774E+02;
1.226000000000000E+09;-1.889004985973585E+00;1.176321236776871E+02;
1.227000000000000E+09;-1.886615357853812E+00;1.170206624169597E+02;
1.228000000000000E+09;-1.888381251211763E+00;1.164159748551086E+02;
1.229000000000000E+09;-1.886595075098453E+00;1.158218067738664E+02;
1.230000000000000E+09;-1.883249485989295E+00;1.152414605835951E+02;
1.231000000000000E+09;-1.876463558250843E+00;1.146242231690169E+02;
1.232000000000000E+09;-1.871455020426791E+00;1.140571438165896E+02;
1.233000000000000E+09;-1.866077380384801E+00;1.134818473658241E+02;
1.234000000000000E+09;-1.858568993716573E+00;1.129071271244273E+02;
1.235000000000000E+09;-1.853220817601543E+00;1.123610617023755E+02;
1.236000000000000E+09;-1.844293578637818E+00;1.118132759120901E+02;
1.237000000000000E+09;-1.833955614076886E+00;1.112571794658579E+02;
1.238000000000000E+09;-1.823769678161305E+00;1.107079841869916E+02;
1.239000000000000E+09;-1.808478393670866E+00;1.101839470020851E+02;
1.240000000000000E+09;-1.795106302831607E+00;1.096414832970262E+02;
1.241000000000000E+09;-1.784070906174149E+00;1.091127429307770E+02;
1.242000000000000E+09;-1.768563160411075E+00;1.086359732352500E+02;
1.243000000000000E+09;-1.749600995392286E+00;1.081002021608299E+02;
1.244000000000000E+09;-1.730037282901849E+00;1.076164716857999E+02;
1.245000000000000E+09;-1.712035881563397E+00;1.070986146347580E+02;
1.246000000000000E+09;-1.694306712071325E+00;1.066470617324256E+02;
1.247000000000000E+09;-1.677015328424565E+00;1.061417151463663E+02;
1.248000000000000E+09;-1.655680214709390E+00;1.056715157626706E+02;
1.249000000000000E+09;-1.635244092577616E+00;1.052091897171901E+02;
1.250000000000000E+09;-1.617346357475962E+00;1.047388017853903E+02;
1.251000000000000E+09;-1.597519666512119E+00;1.042867426407663E+02;
1.252000000000000E+09;-1.577095394594414E+00;1.038662044171119E+02;
1.253000000000000E+09;-1.553709267344121E+00;1.034401432008953E+02;
1.254000000000000E+09;-1.536623326381475E+00;1.029884996840770E+02;
1.255000000000000E+09;-1.514362171488375E+00;1.025663857811259E+02;
1.256000000000000E+09;-1.496377947893597E+00;1.021345288994455E+02;
1.257000000000000E+09;-1.477723188324431E+00;1.017505145496273E+02;
1.258000000000000E+09;-1.456379625199817E+00;1.013440350376511E+02;
1.259000000000000E+09;-1.437561989527133E+00;1.009199753312707E+02;
1.260000000000000E+09;-1.417598703434996E+00;1.005086901087583E+02;
1.261000000000000E+09;-1.403602830506726E+00;1.001426963150237E+02;
1.262000000000000E+09;-1.386423184251814E+00;9.974967854823021E+01;
1.263000000000000E+09;-1.366163119488535E+00;9.937510000890877E+01;
1.264000000000000E+09;-1.351451957376838E+00;9.895605056542945E+01;
1.265000000000000E+09;-1.336495423196683E+00;9.859016652678133E+01;
1.266000000000000E+09;-1.323885957910923E+00;9.824532574026247E+01;
1.267000000000000E+09;-1.308754116554568E+00;9.785021174564835E+01;
1.268000000000000E+09;-1.297584306031210E+00;9.748484057964909E+01;
1.269000000000000E+09;-1.287338936985767E+00;9.710918615980040E+01;
1.270000000000000E+09;-1.276377985364350E+00;9.676773280391198E+01;
1.271000000000000E+09;-1.266482270400429E+00;9.641817915564003E+01;
1.272000000000000E+09;-1.259007092721246E+00;9.603217950178258E+01;
1.273000000000000E+09;-1.251070614547846E+00;9.566631034181262E+01;
1.274000000000000E+09;-1.240005901237927E+00;9.530503062775676E+01;
1.275000000000000E+09;-1.233699338161707E+00;9.495011262250914E+01;
1.276000000000000E+09;-1.225126068488304E+00;9.457546617825189E+01;
1.277000000000000E+09;-1.222274883980712E+00;9.421968823367907E+01;
1.278000000000000E+09;-1.218906798262209E+00;9.384496430805710E+01;
1.279000000000000E+09;-1.213564497155779E+00;9.345903655637279E+01;
1.280000000000000E+09;-1.211286159856500E+00;9.310262632686664E+01;
1.281000000000000E+09;-1.213413923550695E+00;9.269935072780915E+01;
1.282000000000000E+09;-1.210227799280312E+00;9.231825270427257E+01;
1.283000000000000E+09;-1.210170372503401E+00;9.192044928435629E+01;
1.284000000000000E+09;-1.205659494358645E+00;9.155255553533495E+01;
1.285000000000000E+09;-1.214360923624064E+00;9.115338224273120E+01;
1.286000000000000E+09;-1.215530897344375E+00;9.075054276977041E+01;
1.287000000000000E+09;-1.219187775236949E+00;9.035088603739035E+01;
1.288000000000000E+09;-1.223095077277820E+00;8.994886827863708E+01;
1.289000000000000E+09;-1.223224907808015E+00;8.955142817502299E+01;
1.290000000000000E+09;-1.233475242014617E+00;8.913531564989225E+01;
1.291000000000000E+09;-1.235982674561195E+00;8.868495815962601E+01;
1.292000000000000E+09;-1.246432487454522E+00;8.826249522529827E+01;
