# Version 1.00
#
freq[Hz];db:Trc4_S11;ang:Trc4_S11;
1.000000000000000E+09;-1.301540558565206E+00;1.580853210424424E+02;
1.001000000000000E+09;-1.321936659000087E+00;1.576506358314478E+02;
1.002000000000000E+09;-1.342072502244285E+00;1.571808965972136E+02;
1.003000000000000E+09;-1.369466320192173E+00;1.566877979914705E+02;
1.004000000000000E+09;-1.397685668059309E+00;1.562161457278110E+02;
1.005000000000000E+09;-1.423423523452271E+00;1.557708382587562E+02;
1.006000000000000E+09;-1.451025623868717E+00;1.552485052845408E+02;
1.007000000000000E+09;-1.482911357384772E+00;1.547460877712636E+02;
1.008000000000000E+09;-1.513638141074185E+00;1.542752562003473E+02;
1.009000000000000E+09;-1.544197425152572E+00;1.537546496924219E+02;
1.010000000000000E+09;-1.577246243486689E+00;1.532214670008593E+02;
1.011000000000000E+09;-1.618306751931770E+00;1.526711397718240E+02;
1.012000000000000E+09;-1.652547227243647E+00;1.521530391896066E+02;
1.013000000000000E+09;-1.684731257591666E+00;1.516184266906011E+02;
1.014000000000000E+09;-1.726114873005698E+00;1.510472612257624E+02;
1.015000000000000E+09;-1.766633967847089E+00;1.505008659535393E+02;
1.016000000000000E+09;-1.807795368484666E+00;1.499451988661131E+02;
1.017000000000000E+09;-1.847440113692894E+00;1.493455940512938E+02;
1.018000000000000E+09;-1.892301857730082E+00;1.487611286524317E+02;
1.019000000000000E+09;-1.936833237151352E+00;1.481694083350316E+02;
1.020000000000000E+09;-1.981931347342780E+00;1.475918560818994E+02;
1.021000000000000E+09;-2.026819660460959E+00;1.469783017398330E+02;
1.022000000000000E+09;-2.074078530047815E+00;1.463783390461776E+02;
1.023000000000000E+09;-2.124779349553751E+00;1.457743174860358E+02;
1.024000000000000E+09;-2.172183005992150E+00;1.451553619021585E+02;
1.025000000000000E+09;-2.224825279861013E+00;1.445085490903678E+02;
1.026000000000000E+09;-2.275536286495333E+00;1.438968276329473E+02;
1.027000000000000E+09;-2.322267950190101E+00;1.432916405848330E+02;
1.028000000000000E+09;-2.373410475516497E+00;1.426068576303805E+02;
1.029000000000000E+09;-2.426672648832037E+00;1.420248487518138E+02;
1.030000000000000E+09;-2.478151978760553E+00;1.413910125117798E+02;
1.031000000000000E+09;-2.534035978131770E+00;1.407779369124506E+02;
1.032000000000000E+09;-2.584844605112714E+00;1.401216547204861E+02;
1.033000000000000E+09;-2.635807908974203E+00;1.394889846126736E+02;
1.034000000000000E+09;-2.683577688206635E+00;1.388724796476779E+02;
1.035000000000000E+09;-2.738957733323212E+00;1.382775239675768E+02;
1.036000000000000E+09;-2.787832832004784E+00;1.376407903319276E+02;
1.037000000000000E+09;-2.837042011819948E+00;1.370046442843664E+02;
1.038000000000000E+09;-2.888044544843158E+00;1.364211169878126E+02;
1.039000000000000E+09;-2.939856488480927E+00;1.358007514163220E+02;
1.040000000000000E+09;-2.988251486716024E+00;1.351937164544600E+02;
1.041000000000000E+09;-3.038191857755598E+00;1.346115961427881E+02;
1.042000000000000E+09;-3.090399945995210E+00;1.340135713067844E+02;
1.043000000000000E+09;-3.138256985768191E+00;1.333955842358638E+02;
1.044000000000000E+09;-3.183588056956879E+00;1.328018228621422E+02;
1.045000000000000E+09;-3.234284555549423E+00;1.322853353471257E+02;
1.046000000000000E+09;-3.277032160458313E+00;1.317167400902617E+02;
1.047000000000000E+09;-3.327155878916132E+00;1.311627804796401E+02;
1.048000000000000E+09;-3.370289933195960E+00;1.306088191138440E+02;
1.049000000000000E+09;-3.413976179883180E+00;1.300556319924885E+02;
1.050000000000000E+09;-3.458007766441775E+00;1.295198758668954E+02;
1.051000000000000E+09;-3.503293354459917E+00;1.289965077237880E+02;
1.052000000000000E+09;-3.547464795441211E+00;1.284865525663531E+02;
1.053000000000000E+09;-3.590236375012474E+00;1.279702679557857E+02;
1.054000000000000E+09;-3.632563903674043E+00;1.274330564588525E+02;
1.055000000000000E+09;-3.666923031265185E+00;1.269359198274679E+02;
1.056000000000000E+09;-3.710428107217434E+00;1.264404471187336E+02;
1.057000000000000E+09;-3.751445963562987E+00;1.259542230693339E+02;
1.058000000000000E+09;-3.794410942906928E+00;1.254385367016059E+02;
1.059000000000000E+09;-3.836881459169697E+00;1.249529116246092E+02;
1.060000000000000E+09;-3.877755611534131E+00;1.244441038808172E+02;
1.061000000000000E+09;-3.920288858100375E+00;1.239723522461542E+02;
1.062000000000000E+09;-3.964170450413504E+00;1.234410665093079E+02;
1.063000000000000E+09;-4.010076761394157E+00;1.229618246899870E+02;
1.064000000000000E+09;-4.054528506897980E+00;1.224864425628942E+02;
1.065000000000000E+09;-4.107613466179678E+00;1.219881750369791E+02;
1.066000000000000E+09;-4.159275490925181E+00;1.214728731290232E+02;
1.067000000000000E+09;-4.212425200952843E+00;1.209843535947520E+02;
1.068000000000000E+09;-4.272537334273673E+00;1.205232814306634E+02;
1.069000000000000E+09;-4.329219476611884E+00;1.200097415604028E+02;
1.070000000000000E+09;-4.393021130293245E+00;1.194899141958237E+02;
1.071000000000000E+09;-4.457386061500250E+00;1.190240093204503E+02;
1.072000000000000E+09;-4.526273755713166E+00;1.185072215075976E+02;
1.073000000000000E+09;-4.599102134819238E+00;1.180005415492042E+02;
1.074000000000000E+09;-4.677623715333772E+00;1.175214402876327E+02;
1.075000000000000E+09;-4.760780347282573E+00;1.169852804423358E+02;
1.076000000000000E+09;-4.843953898939976E+00;1.165326087195422E+02;
1.077000000000000E+09;-4.938521207297602E+00;1.159842407111534E+02;
1.078000000000000E+09;-5.036012813070770E+00;1.155045622016018E+02;
1.079000000000000E+09;-5.136749093600709E+00;1.149888185433172E+02;
1.080000000000000E+09;-5.248015149927511E+00;1.144538816938722E+02;
1.081000000000000E+09;-5.363860794848626E+00;1.139514731470018E+02;
1.082000000000000E+09;-5.483672226088814E+00;1.134582856341549E+02;
1.083000000000000E+09;-5.611987740175187E+00;1.129390281218524E+02;
1.084000000000000E+09;-5.759736757027174E+00;1.123943649859211E+02;
1.085000000000000E+09;-5.913391148694035E+00;1.119167458543029E+02;
1.086000000000000E+09;-6.065244210415703E+00;1.114613988750753E+02;
1.087000000000000E+09;-6.234242108205663E+00;1.109911329125810E+02;
1.088000000000000E+09;-6.408759656818277E+00;1.105537006900695E+02;
1.089000000000000E+09;-6.588234354055567E+00;1.101116989263502E+02;
1.090000000000000E+09;-6.785721160571154E+00;1.097029516556189E+02;
1.091000000000000E+09;-6.988982029228872E+00;1.092923482999059E+02;
1.092000000000000E+09;-7.203178816354001E+00;1.089150473692357E+02;
1.093000000000000E+09;-7.424281325026288E+00;1.086135563437200E+02;
1.094000000000000E+09;-7.664927094244037E+00;1.082571448281282E+02;
1.095000000000000E+09;-7.921741646894463E+00;1.079090406064133E+02;
1.096000000000000E+09;-8.189501913360841E+00;1.077143137447727E+02;
1.097000000000000E+09;-8.468003679245573E+00;1.075577716854845E+02;
1.098000000000000E+09;-8.767472228561234E+00;1.074216299089275E+02;
1.099000000000000E+09;-9.077092865905620E+00;1.074007953758606E+02;
1.100000000000000E+09;-9.401872481191180E+00;1.074456221196895E+02;
1.101000000000000E+09;-9.745124359199252E+00;1.075951877431133E+02;
1.102000000000000E+09;-1.009864945764632E+01;1.078587801141791E+02;
1.103000000000000E+09;-1.047239571991139E+01;1.082539912062693E+02;
1.104000000000000E+09;-1.086345918481273E+01;1.088245784698389E+02;
1.105000000000000E+09;-1.126191646185786E+01;1.095421877872419E+02;
1.106000000000000E+09;-1.168244465630288E+01;1.104570879596446E+02;
1.107000000000000E+09;-1.211257755931341E+01;1.116321864531684E+02;
1.108000000000000E+09;-1.254223763069826E+01;1.131007353863948E+02;
1.109000000000000E+09;-1.299294044667188E+01;1.148438909602310E+02;
1.110000000000000E+09;-1.344395011852064E+01;1.169605805991370E+02;
1.111000000000000E+09;-1.387347944209696E+01;1.195374401287195E+02;
1.112000000000000E+09;-1.426462241937948E+01;1.225589129839822E+02;
1.113000000000000E+09;-1.464228253334710E+01;1.258998266677686E+02;
1.114000000000000E+09;-1.495691689547915E+01;1.297079091109512E+02;
1.115000000000000E+09;-1.518074370319466E+01;1.339942309059660E+02;
1.116000000000000E+09;-1.531662919101180E+01;1.383334067925982E+02;
1.117000000000000E+09;-1.537417953956061E+01;1.427135375543627E+02;
1.118000000000000E+09;-1.532345884116871E+01;1.471899346739576E+02;
1.119000000000000E+09;-1.519634866620029E+01;1.514083092361270E+02;
1.120000000000000E+09;-1.498954442547212E+01;1.553362821700164E+02;
1.121000000000000E+09;-1.471651337668042E+01;1.589909773558921E+02;
1.122000000000000E+09;-1.439456644010535E+01;1.622669800383159E+02;
1.123000000000000E+09;-1.403127601904357E+01;1.651021564242499E+02;
1.124000000000000E+09;-1.364388314119261E+01;1.674801910674658E+02;
1.125000000000000E+09;-1.325454365004682E+01;1.695597193072198E+02;
1.126000000000000E+09;-1.284354573344814E+01;1.713295628127531E+02;
1.127000000000000E+09;-1.243928539280569E+01;1.726735577504421E+02;
1.128000000000000E+09;-1.202963816413761E+01;1.738407281440265E+02;
1.129000000000000E+09;-1.163461882396684E+01;1.747276449018948E+02;
1.130000000000000E+09;-1.124213543183566E+01;1.753912937744670E+02;
1.131000000000000E+09;-1.086380811446605E+01;1.758596891280216E+02;
1.132000000000000E+09;-1.049105344865341E+01;1.761856037378871E+02;
1.133000000000000E+09;-1.012747873862068E+01;1.762644563894542E+02;
1.134000000000000E+09;-9.777096645097231E+00;1.762321189948645E+02;
1.135000000000000E+09;-9.442373523597245E+00;1.761382053001482E+02;
1.136000000000000E+09;-9.117312827559941E+00;1.758168690018120E+02;
1.137000000000000E+09;-8.797691274188523E+00;1.754782497261777E+02;
1.138000000000000E+09;-8.495085968562140E+00;1.750113455993453E+02;
1.139000000000000E+09;-8.209023960290656E+00;1.744305423475502E+02;
1.140000000000000E+09;-7.935200266051932E+00;1.738620520354753E+02;
1.141000000000000E+09;-7.659978133143998E+00;1.731880232062731E+02;
1.142000000000000E+09;-7.413882888590052E+00;1.724800326249060E+02;
1.143000000000000E+09;-7.179315422822055E+00;1.717147678435826E+02;
1.144000000000000E+09;-6.946000854922412E+00;1.709746937284438E+02;
1.145000000000000E+09;-6.727306621078176E+00;1.702074684278710E+02;
1.146000000000000E+09;-6.520623736581630E+00;1.693781043237956E+02;
1.147000000000000E+09;-6.319563332737149E+00;1.686115339917507E+02;
1.148000000000000E+09;-6.120070045976504E+00;1.678552835880151E+02;
1.149000000000000E+09;-5.932718446121694E+00;1.670781584313781E+02;
1.150000000000000E+09;-5.746079770989684E+00;1.662476787571652E+02;
1.151000000000000E+09;-5.569376991836952E+00;1.654475391052507E+02;
1.152000000000000E+09;-5.395524207183025E+00;1.646445508018822E+02;
1.153000000000000E+09;-5.232071566976956E+00;1.638398731542625E+02;
1.154000000000000E+09;-5.070267085543697E+00;1.630237282660985E+02;
1.155000000000000E+09;-4.913608831264149E+00;1.622271328931095E+02;
1.156000000000000E+09;-4.761946115993812E+00;1.614403547326482E+02;
1.157000000000000E+09;-4.615419938696252E+00;1.606271805347542E+02;
1.158000000000000E+09;-4.474944587622696E+00;1.598579842070221E+02;
1.159000000000000E+09;-4.340699827273363E+00;1.590618243254685E+02;
1.160000000000000E+09;-4.209368404403239E+00;1.583220091425686E+02;
1.161000000000000E+09;-4.084867188913083E+00;1.575432252642869E+02;
1.162000000000000E+09;-3.963857796332580E+00;1.567860169918690E+02;
1.163000000000000E+09;-3.844355357581872E+00;1.560374464908582E+02;
1.164000000000000E+09;-3.729893745644372E+00;1.552984907084311E+02;
1.165000000000000E+09;-3.624192805223036E+00;1.545581928471674E+02;
1.166000000000000E+09;-3.518815683542488E+00;1.538524355187072E+02;
1.167000000000000E+09;-3.420488912355886E+00;1.531473086847346E+02;
1.168000000000000E+09;-3.324064762954419E+00;1.524515626403135E+02;
1.169000000000000E+09;-3.229748077335397E+00;1.517646307388861E+02;
1.170000000000000E+09;-3.145205145654186E+00;1.510913396776646E+02;
1.171000000000000E+09;-3.059244813247807E+00;1.504193670499911E+02;
1.172000000000000E+09;-2.980156335980566E+00;1.497667492942293E+02;
1.173000000000000E+09;-2.903453096159581E+00;1.491300996573075E+02;
1.174000000000000E+09;-2.828684453236614E+00;1.484910799468034E+02;
1.175000000000000E+09;-2.758165675271362E+00;1.478804741993546E+02;
1.176000000000000E+09;-2.693250295540703E+00;1.472409361072760E+02;
1.177000000000000E+09;-2.625595021567356E+00;1.466649164875141E+02;
1.178000000000000E+09;-2.565230553148856E+00;1.460683277588746E+02;
1.179000000000000E+09;-2.506212583299700E+00;1.454582356696354E+02;
1.180000000000000E+09;-2.452483710530628E+00;1.448838597200516E+02;
1.181000000000000E+09;-2.397025760741132E+00;1.443346203739922E+02;
1.182000000000000E+09;-2.349974890874663E+00;1.437350545121518E+02;
1.183000000000000E+09;-2.301648963988131E+00;1.431873129491838E+02;
1.184000000000000E+09;-2.258427341815513E+00;1.426159890106265E+02;
1.185000000000000E+09;-2.220520461328109E+00;1.420768937169305E+02;
1.186000000000000E+09;-2.179004058376852E+00;1.415253605464293E+02;
1.187000000000000E+09;-2.139373311094154E+00;1.409609291033395E+02;
1.188000000000000E+09;-2.104427153052185E+00;1.404375567310275E+02;
1.189000000000000E+09;-2.070299171554349E+00;1.398957423953728E+02;
1.190000000000000E+09;-2.039782151580843E+00;1.393576323263769E+02;
1.191000000000000E+09;-2.008664635807861E+00;1.387931589855308E+02;
1.192000000000000E+09;-1.979126493250537E+00;1.382713201576361E+02;
1.193000000000000E+09;-1.956871475352249E+00;1.377308537896512E+02;
1.194000000000000E+09;-1.932692051366771E+00;1.371630623858832E+02;
1.195000000000000E+09;-1.910290201080957E+00;1.366456918313658E+02;
1.196000000000000E+09;-1.890549319846835E+00;1.360934278535344E+02;
1.197000000000000E+09;-1.875732706186609E+00;1.355476849582214E+02;
1.198000000000000E+09;-1.858392272492673E+00;1.349857737728786E+02;
1.199000000000000E+09;-1.845366180961834E+00;1.344480651217415E+02;
1.200000000000000E+09;-1.829773621971217E+00;1.338921564258599E+02;
1.201000000000000E+09;-1.816778532886195E+00;1.333441452014426E+02;
1.202000000000000E+09;-1.805004957582931E+00;1.327686900182657E+02;
1.203000000000000E+09;-1.796636055485832E+00;1.322141471767651E+02;
1.204000000000000E+09;-1.789090218862642E+00;1.316268387752822E+02;
1.205000000000000E+09;-1.780076042942219E+00;1.310534509987793E+02;
1.206000000000000E+09;-1.781248055569032E+00;1.304833968218636E+02;
1.207000000000000E+09;-1.772627892020256E+00;1.299267344343838E+02;
1.208000000000000E+09;-1.771923901400297E+00;1.293539172080949E+02;
1.209000000000000E+09;-1.767866977093571E+00;1.287581321334970E+02;
1.210000000000000E+09;-1.766248694523044E+00;1.282125937840916E+02;
1.211000000000000E+09;-1.765175049718644E+00;1.276195510510602E+02;
1.212000000000000E+09;-1.764574644315428E+00;1.270576165526328E+02;
1.213000000000000E+09;-1.763851105012326E+00;1.264490641316135E+02;
1.214000000000000E+09;-1.758147526206419E+00;1.258979352508730E+02;
1.215000000000000E+09;-1.756617449641114E+00;1.253035381142256E+02;
1.216000000000000E+09;-1.756934852743984E+00;1.247098445448011E+02;
1.217000000000000E+09;-1.754970538892363E+00;1.241189506891858E+02;
1.218000000000000E+09;-1.750017893363549E+00;1.235269577699880E+02;
1.219000000000000E+09;-1.754326202274142E+00;1.229362595469553E+02;
1.220000000000000E+09;-1.749233706807497E+00;1.223320692942724E+02;
1.221000000000000E+09;-1.745668271089698E+00;1.217423149282052E+02;
1.222000000000000E+09;-1.745992475391319E+00;1.211747132730491E+02;
1.223000000000000E+09;-1.742250371871005E+00;1.205847832879168E+02;
1.224000000000000E+09;-1.731496775008629E+00;1.199924259252789E+02;
1.225000000000000E+09;-1.730060938645997E+00;1.194104521596722E+02;
1.226000000000000E+09;-1.720926680824831E+00;1.188479672622906E+02;
1.227000000000000E+09;-1.713594222455344E+00;1.182407011743799E+02;
1.228000000000000E+09;-1.707230284863984E+00;1.176407930355450E+02;
1.229000000000000E+09;-1.696160741334615E+00;1.170765542759401E+02;
1.230000000000000E+09;-1.686826527223573E+00;1.165219481294748E+02;
1.231000000000000E+09;-1.675275689492819E+00;1.159154639531412E+02;
1.232000000000000E+09;-1.661686734545201E+00;1.153506507757967E+02;
1.233000000000000E+09;-1.647664244322745E+00;1.147717502847418E+02;
1.234000000000000E+09;-1.633039056464482E+00;1.141686340978790E+02;
1.235000000000000E+09;-1.619433451853681E+00;1.136192719942213E+02;
1.236000000000000E+09;-1.602942278075949E+00;1.130636695014036E+02;
1.237000000000000E+09;-1.584661512433820E+00;1.124801800072602E+02;
1.238000000000000E+09;-1.577426769767105E+00;1.119221417722842E+02;
1.239000000000000E+09;-1.554492403792108E+00;1.113704521470896E+02;
1.240000000000000E+09;-1.542706402845769E+00;1.108256298480731E+02;
1.241000000000000E+09;-1.523050420936225E+00;1.102889477868561E+02;
1.242000000000000E+09;-1.507859959285045E+00;1.097867078171402E+02;
1.243000000000000E+09;-1.487085298982014E+00;1.092413945265270E+02;
1.244000000000000E+09;-1.466240921628713E+00;1.087725877529498E+02;
1.245000000000000E+09;-1.446702834796809E+00;1.082738949723212E+02;
1.246000000000000E+09;-1.430019691040551E+00;1.077679616114200E+02;
1.247000000000000E+09;-1.403097932901016E+00;1.072929142788796E+02;
1.248000000000000E+09;-1.382902235920797E+00;1.067842321017620E+02;
1.249000000000000E+09;-1.358880697179085E+00;1.063276845321027E+02;
1.250000000000000E+09;-1.336428505692829E+00;1.058338204341914E+02;
1.251000000000000E+09;-1.318245011139835E+00;1.053795585907833E+02;
1.252000000000000E+09;-1.295309021226587E+00;1.049347906742078E+02;
1.253000000000000E+09;-1.275971789873097E+00;1.044881515152679E+02;
1.254000000000000E+09;-1.253453844200027E+00;1.040295861506313E+02;
1.255000000000000E+09;-1.233492134951264E+00;1.035945442341937E+02;
1.256000000000000E+09;-1.213566892485661E+00;1.031448005116769E+02;
1.257000000000000E+09;-1.194266183273893E+00;1.027549505180456E+02;
1.258000000000000E+09;-1.171894852819519E+00;1.023320559671284E+02;
1.259000000000000E+09;-1.153389945729301E+00;1.019118440301277E+02;
1.260000000000000E+09;-1.134061710337496E+00;1.014809964247048E+02;
1.261000000000000E+09;-1.117644136584073E+00;1.010984409679853E+02;
1.262000000000000E+09;-1.102111696268304E+00;1.006908587163360E+02;
1.263000000000000E+09;-1.082255967271515E+00;1.003088654384924E+02;
1.264000000000000E+09;-1.067955328544210E+00;9.986766515888415E+01;
1.265000000000000E+09;-1.053210456385447E+00;9.950434348649378E+01;
1.266000000000000E+09;-1.038154867848072E+00;9.913815516636815E+01;
1.267000000000000E+09;-1.024435042020027E+00;9.872882561291928E+01;
1.268000000000000E+09;-1.012541864492893E+00;9.834612468017535E+01;
1.269000000000000E+09;-1.000936864334674E+00;9.794921002749174E+01;
1.270000000000000E+09;-9.931092890480443E-01;9.757287490456687E+01;
1.271000000000000E+09;-9.806219654755914E-01;9.722442324585546E+01;
1.272000000000000E+09;-9.747101099863159E-01;9.680754624933276E+01;
1.273000000000000E+09;-9.687364742549419E-01;9.644150146984792E+01;
1.274000000000000E+09;-9.634978826742535E-01;9.605461479102931E+01;
1.275000000000000E+09;-9.565021147623071E-01;9.568803546522975E+01;
1.276000000000000E+09;-9.516832534527999E-01;9.530090897992136E+01;
1.277000000000000E+09;-9.452686940672201E-01;9.492211620403658E+01;
1.278000000000000E+09;-9.462230546712530E-01;9.454918102989068E+01;
1.279000000000000E+09;-9.445482347622686E-01;9.415417070767539E+01;
1.280000000000000E+09;-9.424632546535937E-01;9.379979256628327E+01;
1.281000000000000E+09;-9.449056703826199E-01;9.339779332874892E+01;
1.282000000000000E+09;-9.463194096635152E-01;9.300150749603004E+01;
1.283000000000000E+09;-9.462995856640645E-01;9.259151768153406E+01;
1.284000000000000E+09;-9.458316017965300E-01;9.223869992360927E+01;
1.285000000000000E+09;-9.568245224657854E-01;9.182452042317331E+01;
1.286000000000000E+09;-9.607235692140017E-01;9.140131121204612E+01;
1.287000000000000E+09;-9.623453191438691E-01;9.097290535731585E+01;
1.288000000000000E+09;-9.676445095895656E-01;9.055843938468190E+01;
1.289000000000000E+09;-9.746569591804161E-01;9.016774868568271E+01;
1.290000000000000E+09;-9.851560627216813E-01;8.973381943562556E+01;
1.291000000000000E+09;-9.885977961116488E-01;8.931064820603787E+01;
1.292000000000000E+09;-1.001431055075654E+00;8.886278270290944E+01;
