# Version 1.00
#
freq[Hz];db:Trc4_S11;ang:Trc4_S11;
1.000000000000000E+09;-1.283255398355254E+00;1.581041395338408E+02;
1.001000000000000E+09;-1.304989435434817E+00;1.576356887049666E+02;
1.002000000000000E+09;-1.329069356043334E+00;1.571594977905038E+02;
1.003000000000000E+09;-1.355195871745522E+00;1.567019680000471E+02;
1.004000000000000E+09;-1.384086210295300E+00;1.562037744076978E+02;
1.005000000000000E+09;-1.406645388205967E+00;1.557216622191188E+02;
1.006000000000000E+09;-1.433693213503792E+00;1.552201427951260E+02;
1.007000000000000E+09;-1.467192979081573E+00;1.547043110761334E+02;
1.008000000000000E+09;-1.500190410608997E+00;1.542144190844402E+02;
1.009000000000000E+09;-1.529625744329681E+00;1.537051004499931E+02;
1.010000000000000E+09;-1.559971178840388E+00;1.531579031580608E+02;
1.011000000000000E+09;-1.598807952030073E+00;1.526248880026395E+02;
1.012000000000000E+09;-1.633202372731369E+00;1.520759049617500E+02;
1.013000000000000E+09;-1.665736723763575E+00;1.515418958129164E+02;
1.014000000000000E+09;-1.704475462182571E+00;1.509679831315583E+02;
1.015000000000000E+09;-1.746263557531883E+00;1.504168528642002E+02;
1.016000000000000E+09;-1.783781950527053E+00;1.498515608199106E+02;
1.017000000000000E+09;-1.822274197682555E+00;1.492631206665822E+02;
1.018000000000000E+09;-1.866238486286002E+00;1.486669028625732E+02;
1.019000000000000E+09;-1.909501734519223E+00;1.480715960608726E+02;
1.020000000000000E+09;-1.952192866441800E+00;1.474910642588935E+02;
1.021000000000000E+09;-1.993533734837505E+00;1.468713458161889E+02;
1.022000000000000E+09;-2.039306019542407E+00;1.462574847179979E+02;
1.023000000000000E+09;-2.088325593659226E+00;1.456528735701499E+02;
1.024000000000000E+09;-2.134587720364725E+00;1.450357411763606E+02;
1.025000000000000E+09;-2.184188442290829E+00;1.443981659702201E+02;
1.026000000000000E+09;-2.231483017599818E+00;1.437528878826904E+02;
1.027000000000000E+09;-2.274617802602653E+00;1.431196291263514E+02;
1.028000000000000E+09;-2.325251772148965E+00;1.424607752759707E+02;
1.029000000000000E+09;-2.376198700315034E+00;1.418419249453642E+02;
1.030000000000000E+09;-2.429281888280801E+00;1.411827899903487E+02;
1.031000000000000E+09;-2.480073498932665E+00;1.405398839454712E+02;
1.032000000000000E+09;-2.532486671627891E+00;1.398918764764014E+02;
1.033000000000000E+09;-2.580424945089094E+00;1.392252196592115E+02;
1.034000000000000E+09;-2.634727982894264E+00;1.386211839338871E+02;
1.035000000000000E+09;-2.682891860842954E+00;1.379803971425814E+02;
1.036000000000000E+09;-2.733712679699798E+00;1.373359611083626E+02;
1.037000000000000E+09;-2.788357015645333E+00;1.366918656448430E+02;
1.038000000000000E+09;-2.835773401111656E+00;1.360788715142507E+02;
1.039000000000000E+09;-2.886508502236541E+00;1.354094797251909E+02;
1.040000000000000E+09;-2.936736600733481E+00;1.347746277557058E+02;
1.041000000000000E+09;-2.992027410181267E+00;1.341848667340678E+02;
1.042000000000000E+09;-3.043886086850914E+00;1.335397760642861E+02;
1.043000000000000E+09;-3.093582520528302E+00;1.329098015245200E+02;
1.044000000000000E+09;-3.141630626076506E+00;1.322803032988693E+02;
1.045000000000000E+09;-3.196046435883840E+00;1.316968820315688E+02;
1.046000000000000E+09;-3.245838461313573E+00;1.310985649945115E+02;
1.047000000000000E+09;-3.301217647711768E+00;1.304787277628779E+02;
1.048000000000000E+09;-3.349235607094672E+00;1.298858817660031E+02;
1.049000000000000E+09;-3.397721029803698E+00;1.293220944029398E+02;
1.050000000000000E+09;-3.455338865688656E+00;1.287419566015439E+02;
1.051000000000000E+09;-3.502726030465709E+00;1.281836935325167E+02;
1.052000000000000E+09;-3.556867096445391E+00;1.276120243930943E+02;
1.053000000000000E+09;-3.611455429497256E+00;1.270647023213239E+02;
1.054000000000000E+09;-3.668663657455687E+00;1.264883585883097E+02;
1.055000000000000E+09;-3.715414649136887E+00;1.259565336399508E+02;
1.056000000000000E+09;-3.774113912815816E+00;1.254431023972004E+02;
1.057000000000000E+09;-3.828243606103463E+00;1.249345647408857E+02;
1.058000000000000E+09;-3.884537307511591E+00;1.244088479216393E+02;
1.059000000000000E+09;-3.945310932256380E+00;1.239280999656908E+02;
1.060000000000000E+09;-3.999573084257636E+00;1.233954746139649E+02;
1.061000000000000E+09;-4.057328958927330E+00;1.229188838175241E+02;
1.062000000000000E+09;-4.119192519406491E+00;1.224019697848638E+02;
1.063000000000000E+09;-4.182918572515170E+00;1.219284267304498E+02;
1.064000000000000E+09;-4.243827631395788E+00;1.214788413605057E+02;
1.065000000000000E+09;-4.313676608068190E+00;1.210016467905121E+02;
1.066000000000000E+09;-4.383499522142007E+00;1.205160068295127E+02;
1.067000000000000E+09;-4.455406600707748E+00;1.200839244007220E+02;
1.068000000000000E+09;-4.531213369943767E+00;1.196503505052925E+02;
1.069000000000000E+09;-4.606182549259164E+00;1.191828216794348E+02;
1.070000000000000E+09;-4.686678967884034E+00;1.187474947216405E+02;
1.071000000000000E+09;-4.768475655154006E+00;1.183499705411469E+02;
1.072000000000000E+09;-4.851884068747606E+00;1.179291361680660E+02;
1.073000000000000E+09;-4.940222876403953E+00;1.174852189183822E+02;
1.074000000000000E+09;-5.033799043323610E+00;1.171049367751785E+02;
1.075000000000000E+09;-5.131423229207338E+00;1.166924631797990E+02;
1.076000000000000E+09;-5.224514899259751E+00;1.163084308285975E+02;
1.077000000000000E+09;-5.331390865334149E+00;1.158718837287548E+02;
1.078000000000000E+09;-5.440338990071577E+00;1.154926847582765E+02;
1.079000000000000E+09;-5.550325280932657E+00;1.150930387690348E+02;
1.080000000000000E+09;-5.675701892898419E+00;1.146864834578395E+02;
1.081000000000000E+09;-5.800224430309057E+00;1.143301973249535E+02;
1.082000000000000E+09;-5.931296015193835E+00;1.139442161458930E+02;
1.083000000000000E+09;-6.069807681420949E+00;1.135771773359107E+02;
1.084000000000000E+09;-6.217930591224372E+00;1.132032330533894E+02;
1.085000000000000E+09;-6.367007417784017E+00;1.128537061933275E+02;
1.086000000000000E+09;-6.527344626103970E+00;1.125637136338050E+02;
1.087000000000000E+09;-6.697484616351433E+00;1.122230508039480E+02;
1.088000000000000E+09;-6.877765896217847E+00;1.119108670341467E+02;
1.089000000000000E+09;-7.058897158339793E+00;1.116374536353920E+02;
1.090000000000000E+09;-7.257141130358114E+00;1.113619731841319E+02;
1.091000000000000E+09;-7.458421802145899E+00;1.111347360516966E+02;
1.092000000000000E+09;-7.675767657148790E+00;1.108914540741257E+02;
1.093000000000000E+09;-7.898129498150274E+00;1.107373832210984E+02;
1.094000000000000E+09;-8.140268448697171E+00;1.105705186326581E+02;
1.095000000000000E+09;-8.389087469082094E+00;1.104030952385569E+02;
1.096000000000000E+09;-8.656035887276166E+00;1.103800041203303E+02;
1.097000000000000E+09;-8.934296314006071E+00;1.103988640011203E+02;
1.098000000000000E+09;-9.237765380522777E+00;1.104795354719884E+02;
1.099000000000000E+09;-9.551833563538423E+00;1.106964890883080E+02;
1.100000000000000E+09;-9.874457970340151E+00;1.110019529760889E+02;
1.101000000000000E+09;-1.021162752079216E+01;1.114743390972219E+02;
1.102000000000000E+09;-1.056380842233769E+01;1.120616148359009E+02;
1.103000000000000E+09;-1.092457063761667E+01;1.128623774767461E+02;
1.104000000000000E+09;-1.130692176966326E+01;1.138930662165217E+02;
1.105000000000000E+09;-1.168332255377178E+01;1.150545109611282E+02;
1.106000000000000E+09;-1.206767449328450E+01;1.165243232190311E+02;
1.107000000000000E+09;-1.244160232684719E+01;1.183284017842869E+02;
1.108000000000000E+09;-1.279427029724990E+01;1.203832263688895E+02;
1.109000000000000E+09;-1.314892960742381E+01;1.226483086151415E+02;
1.110000000000000E+09;-1.347627000795488E+01;1.251465766863726E+02;
1.111000000000000E+09;-1.376878253761386E+01;1.280458220710981E+02;
1.112000000000000E+09;-1.401677740767128E+01;1.311414383333148E+02;
1.113000000000000E+09;-1.424022307057393E+01;1.344873953282120E+02;
1.114000000000000E+09;-1.439141950743329E+01;1.380235645812731E+02;
1.115000000000000E+09;-1.447814619231652E+01;1.418491877251203E+02;
1.116000000000000E+09;-1.450116678907101E+01;1.455452717366823E+02;
1.117000000000000E+09;-1.444935762122480E+01;1.492112189745702E+02;
1.118000000000000E+09;-1.431444290169729E+01;1.527381733128517E+02;
1.119000000000000E+09;-1.414441595932488E+01;1.561466107162911E+02;
1.120000000000000E+09;-1.392525478536125E+01;1.591613275826049E+02;
1.121000000000000E+09;-1.366460327338488E+01;1.619991759713733E+02;
1.122000000000000E+09;-1.337680496555844E+01;1.645487136702836E+02;
1.123000000000000E+09;-1.305235664030203E+01;1.668102242284026E+02;
1.124000000000000E+09;-1.271637526972200E+01;1.687385597146787E+02;
1.125000000000000E+09;-1.237692250136134E+01;1.704436529672598E+02;
1.126000000000000E+09;-1.201541168966640E+01;1.719453025519802E+02;
1.127000000000000E+09;-1.166079433661490E+01;1.731645183348895E+02;
1.128000000000000E+09;-1.129550535249617E+01;1.742141371002290E+02;
1.129000000000000E+09;-1.093352682738573E+01;1.749423161317226E+02;
1.130000000000000E+09;-1.057239103130327E+01;1.755471953218354E+02;
1.131000000000000E+09;-1.022283231300819E+01;1.758947069835557E+02;
1.132000000000000E+09;-9.879881027752003E+00;1.760730672289638E+02;
1.133000000000000E+09;-9.551700141942822E+00;1.760765593982851E+02;
1.134000000000000E+09;-9.226549267715431E+00;1.760276938529092E+02;
1.135000000000000E+09;-8.929260488882694E+00;1.758033081782572E+02;
1.136000000000000E+09;-8.634522418333855E+00;1.755619449673268E+02;
1.137000000000000E+09;-8.348123706718383E+00;1.752216381986077E+02;
1.138000000000000E+09;-8.066054975200840E+00;1.748094473831648E+02;
1.139000000000000E+09;-7.806958093276284E+00;1.743196276863995E+02;
1.140000000000000E+09;-7.548647943206265E+00;1.738028436851156E+02;
1.141000000000000E+09;-7.299329695967318E+00;1.731709088037890E+02;
1.142000000000000E+09;-7.059532478425552E+00;1.725253206082363E+02;
1.143000000000000E+09;-6.828098757499403E+00;1.718529289546225E+02;
1.144000000000000E+09;-6.602714049274887E+00;1.711407672253263E+02;
1.145000000000000E+09;-6.387181553690990E+00;1.704272714758882E+02;
1.146000000000000E+09;-6.182923536718876E+00;1.696350566028678E+02;
1.147000000000000E+09;-5.986338418450172E+00;1.688258766801461E+02;
1.148000000000000E+09;-5.788258127339066E+00;1.680446617416773E+02;
1.149000000000000E+09;-5.608383763482985E+00;1.672211504570889E+02;
1.150000000000000E+09;-5.431661218198887E+00;1.663472886481699E+02;
1.151000000000000E+09;-5.263005238376435E+00;1.655565252981158E+02;
1.152000000000000E+09;-5.097687634367852E+00;1.647104344171949E+02;
1.153000000000000E+09;-4.944427882210944E+00;1.638756871479873E+02;
1.154000000000000E+09;-4.792705484319177E+00;1.630392092589372E+02;
1.155000000000000E+09;-4.648960970103565E+00;1.622451125059817E+02;
1.156000000000000E+09;-4.515122870687086E+00;1.614281188945752E+02;
1.157000000000000E+09;-4.377019663432025E+00;1.606258800347200E+02;
1.158000000000000E+09;-4.247868130724537E+00;1.598646212482788E+02;
1.159000000000000E+09;-4.122260671844355E+00;1.590660778583598E+02;
1.160000000000000E+09;-4.003113846420546E+00;1.583211585712849E+02;
1.161000000000000E+09;-3.887419031375509E+00;1.575622982576301E+02;
1.162000000000000E+09;-3.769446978861187E+00;1.568000725120712E+02;
1.163000000000000E+09;-3.660800454617736E+00;1.560763684797524E+02;
1.164000000000000E+09;-3.554682234952422E+00;1.553256985951003E+02;
1.165000000000000E+09;-3.448313472041466E+00;1.545887986669475E+02;
1.166000000000000E+09;-3.347881651185012E+00;1.538752150827511E+02;
1.167000000000000E+09;-3.252089957541639E+00;1.531425268466078E+02;
1.168000000000000E+09;-3.162940899031390E+00;1.524230277932505E+02;
1.169000000000000E+09;-3.075172071828207E+00;1.517233539154568E+02;
1.170000000000000E+09;-2.995497336256209E+00;1.510284543718070E+02;
1.171000000000000E+09;-2.915314559001478E+00;1.503327750866890E+02;
1.172000000000000E+09;-2.843263303962020E+00;1.496707760334765E+02;
1.173000000000000E+09;-2.769932928953832E+00;1.490070892618311E+02;
1.174000000000000E+09;-2.699695603802890E+00;1.483691403429902E+02;
1.175000000000000E+09;-2.635216191040532E+00;1.477448015924295E+02;
1.176000000000000E+09;-2.574567653687382E+00;1.470911633332535E+02;
1.177000000000000E+09;-2.512575861389050E+00;1.464874262604925E+02;
1.178000000000000E+09;-2.456348008910799E+00;1.458698511943318E+02;
1.179000000000000E+09;-2.402502784075019E+00;1.452701699000833E+02;
1.180000000000000E+09;-2.352812952122686E+00;1.446827265856144E+02;
1.181000000000000E+09;-2.301297719138573E+00;1.441263189912966E+02;
1.182000000000000E+09;-2.257132232692902E+00;1.435291150702786E+02;
1.183000000000000E+09;-2.213742914717311E+00;1.429535466339786E+02;
1.184000000000000E+09;-2.169045888679107E+00;1.423941815416390E+02;
1.185000000000000E+09;-2.129421350286302E+00;1.418282889522306E+02;
1.186000000000000E+09;-2.092249583111317E+00;1.412564155978034E+02;
1.187000000000000E+09;-2.056680027007121E+00;1.407232612033632E+02;
1.188000000000000E+09;-2.020450457818083E+00;1.401776525354830E+02;
1.189000000000000E+09;-1.989313627861701E+00;1.396347172568494E+02;
1.190000000000000E+09;-1.958750569826636E+00;1.390705689133157E+02;
1.191000000000000E+09;-1.927014267714266E+00;1.384961347387961E+02;
1.192000000000000E+09;-1.902186434918491E+00;1.379551966980613E+02;
1.193000000000000E+09;-1.876806029450554E+00;1.374424044980831E+02;
1.194000000000000E+09;-1.851354952620796E+00;1.368613811062576E+02;
1.195000000000000E+09;-1.830209533409810E+00;1.363404616632332E+02;
1.196000000000000E+09;-1.807435867221484E+00;1.357954863143091E+02;
1.197000000000000E+09;-1.789966475948247E+00;1.352240467195841E+02;
1.198000000000000E+09;-1.770569497624300E+00;1.346701031628053E+02;
1.199000000000000E+09;-1.752794393023198E+00;1.341083701401998E+02;
1.200000000000000E+09;-1.739047321948948E+00;1.335503889881041E+02;
1.201000000000000E+09;-1.727537816801394E+00;1.329852654333108E+02;
1.202000000000000E+09;-1.710910374477122E+00;1.323963008096685E+02;
1.203000000000000E+09;-1.701271069875161E+00;1.318401208067779E+02;
1.204000000000000E+09;-1.687341027316474E+00;1.312507040827401E+02;
1.205000000000000E+09;-1.676850085792228E+00;1.306708341686521E+02;
1.206000000000000E+09;-1.674691167238591E+00;1.301036157798162E+02;
1.207000000000000E+09;-1.666176494401211E+00;1.295296295611733E+02;
1.208000000000000E+09;-1.661100539207392E+00;1.289154031891196E+02;
1.209000000000000E+09;-1.653544239761853E+00;1.283357718566600E+02;
1.210000000000000E+09;-1.648050255662734E+00;1.277613081692269E+02;
1.211000000000000E+09;-1.644146543331297E+00;1.271638557319098E+02;
1.212000000000000E+09;-1.640808794426132E+00;1.265743695858640E+02;
1.213000000000000E+09;-1.638434481057987E+00;1.259254742933767E+02;
1.214000000000000E+09;-1.636340713858660E+00;1.253626972384407E+02;
1.215000000000000E+09;-1.630966866840772E+00;1.247496122486454E+02;
1.216000000000000E+09;-1.629668503603420E+00;1.241446810349380E+02;
1.217000000000000E+09;-1.627290618436635E+00;1.235530401562196E+02;
1.218000000000000E+09;-1.624048512625937E+00;1.229551962618954E+02;
1.219000000000000E+09;-1.621119040440064E+00;1.223445647903872E+02;
1.220000000000000E+09;-1.615394241046654E+00;1.217329890602476E+02;
1.221000000000000E+09;-1.612384010248492E+00;1.211322797586129E+02;
1.222000000000000E+09;-1.613472317674710E+00;1.205281378595976E+02;
1.223000000000000E+09;-1.609298512871625E+00;1.199207646253468E+02;
1.224000000000000E+09;-1.604586810859006E+00;1.192832213039161E+02;
1.225000000000000E+09;-1.600350299016772E+00;1.187076115590657E+02;
1.226000000000000E+09;-1.593747161596105E+00;1.181073613588938E+02;
1.227000000000000E+09;-1.591358871743662E+00;1.174855119099640E+02;
1.228000000000000E+09;-1.588614489474737E+00;1.168937374733150E+02;
1.229000000000000E+09;-1.581736103109795E+00;1.163143309975365E+02;
1.230000000000000E+09;-1.579295082218491E+00;1.157327571193297E+02;
1.231000000000000E+09;-1.567499173241752E+00;1.151161731113389E+02;
1.232000000000000E+09;-1.557570677571491E+00;1.145535905700486E+02;
1.233000000000000E+09;-1.551149795377630E+00;1.139886306298617E+02;
1.234000000000000E+09;-1.542707214422196E+00;1.134042257798584E+02;
1.235000000000000E+09;-1.534754049792163E+00;1.128244982181149E+02;
1.236000000000000E+09;-1.525033379634632E+00;1.122915111047222E+02;
1.237000000000000E+09;-1.512164432629246E+00;1.117193826651725E+02;
1.238000000000000E+09;-1.508020768994187E+00;1.111843660667720E+02;
1.239000000000000E+09;-1.491018543912053E+00;1.106218388067224E+02;
1.240000000000000E+09;-1.479095744189452E+00;1.101073458437188E+02;
1.241000000000000E+09;-1.468798060105994E+00;1.095672450457766E+02;
1.242000000000000E+09;-1.458627323063053E+00;1.090498814109982E+02;
1.243000000000000E+09;-1.443359451376005E+00;1.085395750118740E+02;
1.244000000000000E+09;-1.427468284651525E+00;1.080690956978076E+02;
1.245000000000000E+09;-1.417799820053792E+00;1.075604128540590E+02;
1.246000000000000E+09;-1.406478904646690E+00;1.070878693047370E+02;
1.247000000000000E+09;-1.385893771772138E+00;1.066093546728869E+02;
1.248000000000000E+09;-1.373857578926055E+00;1.061400380365589E+02;
1.249000000000000E+09;-1.355498541279756E+00;1.057010152580189E+02;
1.250000000000000E+09;-1.342085548763342E+00;1.052322271497123E+02;
1.251000000000000E+09;-1.326403711989390E+00;1.047841265220665E+02;
1.252000000000000E+09;-1.309160714755525E+00;1.043845249996952E+02;
1.253000000000000E+09;-1.292480378077896E+00;1.039645497892948E+02;
1.254000000000000E+09;-1.276943160046720E+00;1.035179632010886E+02;
1.255000000000000E+09;-1.258946920370279E+00;1.030838935281821E+02;
1.256000000000000E+09;-1.246999515661080E+00;1.026808367771632E+02;
1.257000000000000E+09;-1.230795838868584E+00;1.023091796649666E+02;
1.258000000000000E+09;-1.215178407832906E+00;1.019114690616446E+02;
1.259000000000000E+09;-1.199791578861291E+00;1.014953103867313E+02;
1.260000000000000E+09;-1.183397746100392E+00;1.011024526913845E+02;
1.261000000000000E+09;-1.172270729491429E+00;1.007543008602318E+02;
1.262000000000000E+09;-1.157456913560351E+00;1.003636312064064E+02;
1.263000000000000E+09;-1.140129789832641E+00;1.000178167469424E+02;
1.264000000000000E+09;-1.127113917079045E+00;9.959991066079357E+01;
1.265000000000000E+09;-1.115976044244908E+00;9.924597368013096E+01;
1.266000000000000E+09;-1.103984279004491E+00;9.890325551776166E+01;
1.267000000000000E+09;-1.091032680654267E+00;9.852703021203989E+01;
1.268000000000000E+09;-1.079739355230870E+00;9.814725205910140E+01;
1.269000000000000E+09;-1.069213169838987E+00;9.779339477125789E+01;
1.270000000000000E+09;-1.060471810895139E+00;9.743032262495257E+01;
1.271000000000000E+09;-1.048921204434410E+00;9.708025301720359E+01;
1.272000000000000E+09;-1.044289251094989E+00;9.669061382654398E+01;
1.273000000000000E+09;-1.037343756988765E+00;9.634598736661276E+01;
1.274000000000000E+09;-1.029334055051141E+00;9.597177970641945E+01;
1.275000000000000E+09;-1.025835773444095E+00;9.561742637944673E+01;
1.276000000000000E+09;-1.019041919277376E+00;9.523922411388359E+01;
1.277000000000000E+09;-1.017538844168476E+00;9.487991125208930E+01;
1.278000000000000E+09;-1.015269849087038E+00;9.450773277491524E+01;
1.279000000000000E+09;-1.012163429795318E+00;9.414103716490007E+01;
1.280000000000000E+09;-1.011495163483744E+00;9.381105458753174E+01;
1.281000000000000E+09;-1.011414275141375E+00;9.343853939544326E+01;
1.282000000000000E+09;-1.012727951198660E+00;9.304080955757732E+01;
1.283000000000000E+09;-1.011174149443681E+00;9.263654643972276E+01;
1.284000000000000E+09;-1.008010417284566E+00;9.228936453920687E+01;
1.285000000000000E+09;-1.015714623745920E+00;9.188488351732310E+01;
1.286000000000000E+09;-1.018053896199551E+00;9.150244410855224E+01;
1.287000000000000E+09;-1.018438478053085E+00;9.107734826692911E+01;
1.288000000000000E+09;-1.022598748674497E+00;9.069913630165743E+01;
1.289000000000000E+09;-1.024814323851365E+00;9.030303485451654E+01;
1.290000000000000E+09;-1.032290578323723E+00;8.986952648293801E+01;
1.291000000000000E+09;-1.035788455818509E+00;8.944249538510898E+01;
1.292000000000000E+09;-1.041453968447829E+00;8.901067239397530E+01;
