# Version 1.00
#
freq[Hz];db:Trc4_S11;ang:Trc4_S11;
1.000000000000000E+09;-1.375374351826461E+00;1.573705787728959E+02;
1.001000000000000E+09;-1.401470115333803E+00;1.569027573879758E+02;
1.002000000000000E+09;-1.431580392370753E+00;1.564270712460547E+02;
1.003000000000000E+09;-1.456862742771674E+00;1.559347521075118E+02;
1.004000000000000E+09;-1.487718918313187E+00;1.554466065044542E+02;
1.005000000000000E+09;-1.517107246423171E+00;1.549969623758893E+02;
1.006000000000000E+09;-1.550339877632100E+00;1.544800765110566E+02;
1.007000000000000E+09;-1.585551481017589E+00;1.539516187744821E+02;
1.008000000000000E+09;-1.621883030999332E+00;1.534481528710408E+02;
1.009000000000000E+09;-1.662237033024973E+00;1.529353800008369E+02;
1.010000000000000E+09;-1.697986190986622E+00;1.523956654816805E+02;
1.011000000000000E+09;-1.740309165578825E+00;1.518447487574955E+02;
1.012000000000000E+09;-1.782692898561322E+00;1.513032174986842E+02;
1.013000000000000E+09;-1.822768742250452E+00;1.507602820622704E+02;
1.014000000000000E+09;-1.867902369307203E+00;1.501952104023535E+02;
1.015000000000000E+09;-1.914496194778840E+00;1.496419596534314E+02;
1.016000000000000E+09;-1.961390915184529E+00;1.490787180030731E+02;
1.017000000000000E+09;-2.006489032610737E+00;1.484926877779462E+02;
1.018000000000000E+09;-2.058332025036720E+00;1.478964129230862E+02;
1.019000000000000E+09;-2.110601975792857E+00;1.473063358205121E+02;
1.020000000000000E+09;-2.161044201813045E+00;1.467427786563421E+02;
1.021000000000000E+09;-2.211654702560866E+00;1.461411017322029E+02;
1.022000000000000E+09;-2.265390582149624E+00;1.455288420739844E+02;
1.023000000000000E+09;-2.319480084346227E+00;1.449507353191641E+02;
1.024000000000000E+09;-2.373862399785876E+00;1.443304280852016E+02;
1.025000000000000E+09;-2.431276190265899E+00;1.437152441860178E+02;
1.026000000000000E+09;-2.487229542478888E+00;1.431027953012305E+02;
1.027000000000000E+09;-2.541070225480176E+00;1.425250337491958E+02;
1.028000000000000E+09;-2.598725027075395E+00;1.418676489962616E+02;
1.029000000000000E+09;-2.652786006175423E+00;1.412926941455080E+02;
1.030000000000000E+09;-2.711433249920857E+00;1.406627342614279E+02;
1.031000000000000E+09;-2.770173665654397E+00;1.400643502250340E+02;
1.032000000000000E+09;-2.831119486601533E+00;1.394223753104271E+02;
1.033000000000000E+09;-2.884653131627875E+00;1.387988537565821E+02;
1.034000000000000E+09;-2.940113608940672E+00;1.381953447346443E+02;
1.035000000000000E+09;-2.994248426457164E+00;1.376177283579782E+02;
1.036000000000000E+09;-3.055774443391730E+00;1.370038877152276E+02;
1.037000000000000E+09;-3.112566619469859E+00;1.363720784625728E+02;
1.038000000000000E+09;-3.169321049363347E+00;1.358050110358568E+02;
1.039000000000000E+09;-3.224445647273442E+00;1.352240284431863E+02;
1.040000000000000E+09;-3.275003287112891E+00;1.346437720119800E+02;
1.041000000000000E+09;-3.333881596421679E+00;1.340872143186949E+02;
1.042000000000000E+09;-3.380355423263761E+00;1.335432196601846E+02;
1.043000000000000E+09;-3.439926031672309E+00;1.329197217125696E+02;
1.044000000000000E+09;-3.490302946366540E+00;1.324058571794344E+02;
1.045000000000000E+09;-3.541943854252148E+00;1.318719880969709E+02;
1.046000000000000E+09;-3.586487761750789E+00;1.313378587346521E+02;
1.047000000000000E+09;-3.635169518840367E+00;1.307651320198323E+02;
1.048000000000000E+09;-3.683495630820297E+00;1.302290196316620E+02;
1.049000000000000E+09;-3.725961693145112E+00;1.297037828638858E+02;
1.050000000000000E+09;-3.770812235271572E+00;1.291698096576917E+02;
1.051000000000000E+09;-3.816176801938433E+00;1.286513411779383E+02;
1.052000000000000E+09;-3.864110350976779E+00;1.281246337784488E+02;
1.053000000000000E+09;-3.911168470610356E+00;1.276053603170438E+02;
1.054000000000000E+09;-3.960731725922176E+00;1.270670192538870E+02;
1.055000000000000E+09;-3.996944300130791E+00;1.265290393933851E+02;
1.056000000000000E+09;-4.047798043458309E+00;1.260502098644786E+02;
1.057000000000000E+09;-4.095616901491012E+00;1.255343427894414E+02;
1.058000000000000E+09;-4.142155610036127E+00;1.250149890971399E+02;
1.059000000000000E+09;-4.193101406405276E+00;1.245005405073216E+02;
1.060000000000000E+09;-4.246220829445654E+00;1.239939997607818E+02;
1.061000000000000E+09;-4.297941383371035E+00;1.234894805651254E+02;
1.062000000000000E+09;-4.353288987170679E+00;1.229569921293256E+02;
1.063000000000000E+09;-4.407672474890579E+00;1.225036603000860E+02;
1.064000000000000E+09;-4.463067869249878E+00;1.220053801600307E+02;
1.065000000000000E+09;-4.526898854526884E+00;1.214897494971196E+02;
1.066000000000000E+09;-4.591647994691363E+00;1.209674733959010E+02;
1.067000000000000E+09;-4.654503961489064E+00;1.204673811303352E+02;
1.068000000000000E+09;-4.732745653731233E+00;1.199863976622286E+02;
1.069000000000000E+09;-4.807779866573737E+00;1.194365341065048E+02;
1.070000000000000E+09;-4.892069958547618E+00;1.189220308801215E+02;
1.071000000000000E+09;-4.979077531483716E+00;1.184668268574120E+02;
1.072000000000000E+09;-5.074328795813635E+00;1.179923437664372E+02;
1.073000000000000E+09;-5.173130346678127E+00;1.174922318924429E+02;
1.074000000000000E+09;-5.274096925614976E+00;1.170993638902465E+02;
1.075000000000000E+09;-5.386349808663430E+00;1.166451226780605E+02;
1.076000000000000E+09;-5.496062356170949E+00;1.162271884613983E+02;
1.077000000000000E+09;-5.613815463531081E+00;1.157714525145851E+02;
1.078000000000000E+09;-5.737473773360239E+00;1.154030570907166E+02;
1.079000000000000E+09;-5.865540189589816E+00;1.149757227670588E+02;
1.080000000000000E+09;-6.008139217143562E+00;1.145731621366755E+02;
1.081000000000000E+09;-6.153476089917513E+00;1.142003633251418E+02;
1.082000000000000E+09;-6.305848419653744E+00;1.138525863501890E+02;
1.083000000000000E+09;-6.466380544592085E+00;1.134944185020680E+02;
1.084000000000000E+09;-6.642442753854229E+00;1.131733650352426E+02;
1.085000000000000E+09;-6.823592934061505E+00;1.128617905655822E+02;
1.086000000000000E+09;-7.013754854591523E+00;1.126364247651727E+02;
1.087000000000000E+09;-7.216572927837468E+00;1.123874932488360E+02;
1.088000000000000E+09;-7.430616489417154E+00;1.121625257756857E+02;
1.089000000000000E+09;-7.651303584808024E+00;1.120605070934641E+02;
1.090000000000000E+09;-7.892320201458282E+00;1.119707066716346E+02;
1.091000000000000E+09;-8.138781447626194E+00;1.119504013481347E+02;
1.092000000000000E+09;-8.391476413032494E+00;1.120110067646144E+02;
1.093000000000000E+09;-8.656024637121490E+00;1.121352105673015E+02;
1.094000000000000E+09;-8.937035420587684E+00;1.123390999952103E+02;
1.095000000000000E+09;-9.225720474444572E+00;1.125501155406408E+02;
1.096000000000000E+09;-9.527998579616575E+00;1.129498267487467E+02;
1.097000000000000E+09;-9.845863145318694E+00;1.134830179464304E+02;
1.098000000000000E+09;-1.016824777835216E+01;1.141200139982517E+02;
1.099000000000000E+09;-1.050969831114465E+01;1.149141356941558E+02;
1.100000000000000E+09;-1.084824878687063E+01;1.159235682438853E+02;
1.101000000000000E+09;-1.119539096308150E+01;1.170969837295502E+02;
1.102000000000000E+09;-1.155189542545940E+01;1.185279223672625E+02;
1.103000000000000E+09;-1.189736347273031E+01;1.201575895351096E+02;
1.104000000000000E+09;-1.224685653764174E+01;1.221000359648681E+02;
1.105000000000000E+09;-1.257350749148203E+01;1.242576461437216E+02;
1.106000000000000E+09;-1.288825249033263E+01;1.267193407119213E+02;
1.107000000000000E+09;-1.317499598652913E+01;1.295063325482092E+02;
1.108000000000000E+09;-1.341752094682406E+01;1.325771070237025E+02;
1.109000000000000E+09;-1.361238847039498E+01;1.358379203582176E+02;
1.110000000000000E+09;-1.374914003881372E+01;1.393401504377943E+02;
1.111000000000000E+09;-1.381294217527192E+01;1.429904333613318E+02;
1.112000000000000E+09;-1.380709254947113E+01;1.465895564282503E+02;
1.113000000000000E+09;-1.375044252825170E+01;1.500614975843398E+02;
1.114000000000000E+09;-1.361883776281863E+01;1.534443277552427E+02;
1.115000000000000E+09;-1.342692674985672E+01;1.566347935184576E+02;
1.116000000000000E+09;-1.319687744774964E+01;1.594717747743867E+02;
1.117000000000000E+09;-1.293700901024952E+01;1.619988124916536E+02;
1.118000000000000E+09;-1.264471758155267E+01;1.642674200029738E+02;
1.119000000000000E+09;-1.233746655015661E+01;1.662629422983433E+02;
1.120000000000000E+09;-1.203379414125761E+01;1.679665003267781E+02;
1.121000000000000E+09;-1.170790307022424E+01;1.694510784163938E+02;
1.122000000000000E+09;-1.137328083727926E+01;1.707106896611495E+02;
1.123000000000000E+09;-1.104420914447755E+01;1.717411393396847E+02;
1.124000000000000E+09;-1.071378704590735E+01;1.725301116479589E+02;
1.125000000000000E+09;-1.039966479885426E+01;1.731306162060386E+02;
1.126000000000000E+09;-1.008140067893457E+01;1.736152531527750E+02;
1.127000000000000E+09;-9.778973455810103E+00;1.739022009203060E+02;
1.128000000000000E+09;-9.474075595311737E+00;1.740853865606026E+02;
1.129000000000000E+09;-9.182758060764899E+00;1.741564487376281E+02;
1.130000000000000E+09;-8.892590643496991E+00;1.741386966776846E+02;
1.131000000000000E+09;-8.612035510643866E+00;1.739618205900474E+02;
1.132000000000000E+09;-8.337282804989743E+00;1.737039280857635E+02;
1.133000000000000E+09;-8.073774341343535E+00;1.733612120684427E+02;
1.134000000000000E+09;-7.813249089904605E+00;1.729164896039278E+02;
1.135000000000000E+09;-7.568008058676869E+00;1.724349683946993E+02;
1.136000000000000E+09;-7.333286381431484E+00;1.718462924322839E+02;
1.137000000000000E+09;-7.102931431461878E+00;1.712358910047042E+02;
1.138000000000000E+09;-6.880775287168096E+00;1.705318569888061E+02;
1.139000000000000E+09;-6.675998043923581E+00;1.698088772973712E+02;
1.140000000000000E+09;-6.477537975608572E+00;1.691104582420915E+02;
1.141000000000000E+09;-6.287508795321159E+00;1.683509750692486E+02;
1.142000000000000E+09;-6.103243100182957E+00;1.675713548269199E+02;
1.143000000000000E+09;-5.923161862360842E+00;1.667804018173935E+02;
1.144000000000000E+09;-5.751923591819623E+00;1.659995780702253E+02;
1.145000000000000E+09;-5.588060010366521E+00;1.652062616123777E+02;
1.146000000000000E+09;-5.432845173990307E+00;1.643649499162545E+02;
1.147000000000000E+09;-5.279021466505056E+00;1.635727849360406E+02;
1.148000000000000E+09;-5.128686977628628E+00;1.628241221663270E+02;
1.149000000000000E+09;-4.991719124372949E+00;1.620413165180586E+02;
1.150000000000000E+09;-4.850004922921442E+00;1.612469864536799E+02;
1.151000000000000E+09;-4.711126646165765E+00;1.604595895516504E+02;
1.152000000000000E+09;-4.579522648382501E+00;1.596611405932570E+02;
1.153000000000000E+09;-4.448003019016827E+00;1.588785510910683E+02;
1.154000000000000E+09;-4.328704590846794E+00;1.580759179745613E+02;
1.155000000000000E+09;-4.208542103701890E+00;1.572960687567823E+02;
1.156000000000000E+09;-4.095412954694797E+00;1.565480641494634E+02;
1.157000000000000E+09;-3.986556763971397E+00;1.557793696084482E+02;
1.158000000000000E+09;-3.879674309618422E+00;1.550485398110283E+02;
1.159000000000000E+09;-3.780066367576655E+00;1.543432681711994E+02;
1.160000000000000E+09;-3.673888941212588E+00;1.536160464868113E+02;
1.161000000000000E+09;-3.576687660679161E+00;1.529161384780822E+02;
1.162000000000000E+09;-3.482958186314446E+00;1.521980670140539E+02;
1.163000000000000E+09;-3.392184524704794E+00;1.514947353451474E+02;
1.164000000000000E+09;-3.303925612710778E+00;1.508213090993719E+02;
1.165000000000000E+09;-3.219840344609117E+00;1.501308611245351E+02;
1.166000000000000E+09;-3.140631499478117E+00;1.495005310136663E+02;
1.167000000000000E+09;-3.059887713872489E+00;1.488298725820673E+02;
1.168000000000000E+09;-2.987058400308027E+00;1.481942683315832E+02;
1.169000000000000E+09;-2.912476997275162E+00;1.475489500726112E+02;
1.170000000000000E+09;-2.844939365127282E+00;1.469458346398536E+02;
1.171000000000000E+09;-2.781368774874278E+00;1.463147201216542E+02;
1.172000000000000E+09;-2.718274485042764E+00;1.457136412838116E+02;
1.173000000000000E+09;-2.661306209197760E+00;1.451207841362989E+02;
1.174000000000000E+09;-2.603589197014617E+00;1.445538700206247E+02;
1.175000000000000E+09;-2.549877649917736E+00;1.439851820896965E+02;
1.176000000000000E+09;-2.499382287283284E+00;1.434220934845775E+02;
1.177000000000000E+09;-2.449527560947589E+00;1.428876038644416E+02;
1.178000000000000E+09;-2.399664325531038E+00;1.423525844088721E+02;
1.179000000000000E+09;-2.354743066923808E+00;1.417912132541045E+02;
1.180000000000000E+09;-2.313478453287919E+00;1.412672571052916E+02;
1.181000000000000E+09;-2.271152175031842E+00;1.407700923832115E+02;
1.182000000000000E+09;-2.234287587225197E+00;1.402432822765219E+02;
1.183000000000000E+09;-2.197832531735656E+00;1.397148371949947E+02;
1.184000000000000E+09;-2.163717002511410E+00;1.392262878710746E+02;
1.185000000000000E+09;-2.131563123781595E+00;1.387230618640638E+02;
1.186000000000000E+09;-2.100137029645154E+00;1.382183311498741E+02;
1.187000000000000E+09;-2.070487806747614E+00;1.377130388280426E+02;
1.188000000000000E+09;-2.044910831225104E+00;1.372351956950614E+02;
1.189000000000000E+09;-2.019529671218255E+00;1.367322277660274E+02;
1.190000000000000E+09;-1.997004434677605E+00;1.362211553135128E+02;
1.191000000000000E+09;-1.977198992808807E+00;1.357250384098206E+02;
1.192000000000000E+09;-1.957089922158568E+00;1.352432130480805E+02;
1.193000000000000E+09;-1.938801470302426E+00;1.347760840475929E+02;
1.194000000000000E+09;-1.922612617415775E+00;1.342616713150202E+02;
1.195000000000000E+09;-1.906805162020176E+00;1.337755805529274E+02;
1.196000000000000E+09;-1.891915740351009E+00;1.332724449860713E+02;
1.197000000000000E+09;-1.881576502900271E+00;1.327905031661011E+02;
1.198000000000000E+09;-1.866131884629687E+00;1.322662872147533E+02;
1.199000000000000E+09;-1.855886314540924E+00;1.318165020547032E+02;
1.200000000000000E+09;-1.844452256276005E+00;1.313042047361013E+02;
1.201000000000000E+09;-1.836289371255265E+00;1.307891026188983E+02;
1.202000000000000E+09;-1.824821783037474E+00;1.302641851404688E+02;
1.203000000000000E+09;-1.816359058147765E+00;1.297713786338232E+02;
1.204000000000000E+09;-1.811750038720783E+00;1.292118256123019E+02;
1.205000000000000E+09;-1.803586846451247E+00;1.287050978942596E+02;
1.206000000000000E+09;-1.802874845090432E+00;1.281735244513216E+02;
1.207000000000000E+09;-1.796895224094306E+00;1.276510275701143E+02;
1.208000000000000E+09;-1.791786076976272E+00;1.271120032036844E+02;
1.209000000000000E+09;-1.784272437494342E+00;1.265630059440849E+02;
1.210000000000000E+09;-1.781492411774503E+00;1.260318830464638E+02;
1.211000000000000E+09;-1.777961424562011E+00;1.254821660198591E+02;
1.212000000000000E+09;-1.775323253374550E+00;1.249254189178075E+02;
1.213000000000000E+09;-1.773503883072483E+00;1.243211405524017E+02;
1.214000000000000E+09;-1.771964180605735E+00;1.237958131279308E+02;
1.215000000000000E+09;-1.766492496593568E+00;1.232112505305982E+02;
1.216000000000000E+09;-1.765940044026580E+00;1.226302927128621E+02;
1.217000000000000E+09;-1.763890276381810E+00;1.220776051824374E+02;
1.218000000000000E+09;-1.758178966050334E+00;1.215072686465098E+02;
1.219000000000000E+09;-1.755309243424108E+00;1.209303869128642E+02;
1.220000000000000E+09;-1.748247084354844E+00;1.203207364802922E+02;
1.221000000000000E+09;-1.741457546416535E+00;1.197504623632255E+02;
1.222000000000000E+09;-1.738583912479794E+00;1.191629160800437E+02;
1.223000000000000E+09;-1.732161594662623E+00;1.185719964516536E+02;
1.224000000000000E+09;-1.723798215623929E+00;1.179525569267986E+02;
1.225000000000000E+09;-1.719556354365937E+00;1.173542246713911E+02;
1.226000000000000E+09;-1.709650657500117E+00;1.167413391108792E+02;
1.227000000000000E+09;-1.707995921635680E+00;1.161309997292504E+02;
1.228000000000000E+09;-1.704515343110107E+00;1.155317328002571E+02;
1.229000000000000E+09;-1.694660063752711E+00;1.149383731960372E+02;
1.230000000000000E+09;-1.694366308656895E+00;1.143380443995387E+02;
1.231000000000000E+09;-1.682941814094505E+00;1.137280741784865E+02;
1.232000000000000E+09;-1.677017627271080E+00;1.131549178935158E+02;
1.233000000000000E+09;-1.670950277615000E+00;1.125842674943875E+02;
1.234000000000000E+09;-1.663230641770759E+00;1.119912901072042E+02;
1.235000000000000E+09;-1.656021026234639E+00;1.114217599420523E+02;
1.236000000000000E+09;-1.647904315746147E+00;1.108702648038665E+02;
1.237000000000000E+09;-1.635200935250327E+00;1.103135763527188E+02;
1.238000000000000E+09;-1.628574347061759E+00;1.097947393459149E+02;
1.239000000000000E+09;-1.615406300966745E+00;1.092318446970696E+02;
1.240000000000000E+09;-1.599949153289876E+00;1.087260192450019E+02;
1.241000000000000E+09;-1.592897481249211E+00;1.082016087931196E+02;
1.242000000000000E+09;-1.582127480219050E+00;1.077300627623507E+02;
1.243000000000000E+09;-1.570255659001627E+00;1.072013907458246E+02;
1.244000000000000E+09;-1.552810669625483E+00;1.067327663976799E+02;
1.245000000000000E+09;-1.538603190238411E+00;1.062510017871830E+02;
1.246000000000000E+09;-1.525271708328481E+00;1.057812390590835E+02;
1.247000000000000E+09;-1.508115239816600E+00;1.053309124550968E+02;
1.248000000000000E+09;-1.489783642277441E+00;1.048525835471934E+02;
1.249000000000000E+09;-1.475856915201814E+00;1.044075109166608E+02;
1.250000000000000E+09;-1.454839088437397E+00;1.039691991456530E+02;
1.251000000000000E+09;-1.440940811956016E+00;1.035307785313098E+02;
1.252000000000000E+09;-1.425319848503011E+00;1.031276111842674E+02;
1.253000000000000E+09;-1.408089630685463E+00;1.027174133423710E+02;
1.254000000000000E+09;-1.390192776040503E+00;1.022789390114609E+02;
1.255000000000000E+09;-1.372622775274358E+00;1.018515069252578E+02;
1.256000000000000E+09;-1.357497282516423E+00;1.014565995177642E+02;
1.257000000000000E+09;-1.340470160090763E+00;1.010952439110436E+02;
1.258000000000000E+09;-1.320688122256426E+00;1.007095678221398E+02;
1.259000000000000E+09;-1.304588519903626E+00;1.002909288724779E+02;
1.260000000000000E+09;-1.287443550711625E+00;9.990648453231648E+01;
1.261000000000000E+09;-1.276096651445014E+00;9.954983634180607E+01;
1.262000000000000E+09;-1.263541979166120E+00;9.916099551373358E+01;
1.263000000000000E+09;-1.247242742023956E+00;9.881752104634725E+01;
1.264000000000000E+09;-1.235091155835176E+00;9.841477718838851E+01;
1.265000000000000E+09;-1.223201976770381E+00;9.807007814489359E+01;
1.266000000000000E+09;-1.210823990516261E+00;9.777301550009688E+01;
1.267000000000000E+09;-1.198136468043967E+00;9.738624240623051E+01;
1.268000000000000E+09;-1.188922910944229E+00;9.702620790260943E+01;
1.269000000000000E+09;-1.177909046015514E+00;9.667052698705216E+01;
1.270000000000000E+09;-1.169079300258658E+00;9.635010357604831E+01;
1.271000000000000E+09;-1.158085899542750E+00;9.600802196985063E+01;
1.272000000000000E+09;-1.151272614487895E+00;9.562517301215740E+01;
1.273000000000000E+09;-1.145972349111925E+00;9.528372015093316E+01;
1.274000000000000E+09;-1.137454715974184E+00;9.491310951056408E+01;
1.275000000000000E+09;-1.133784786259395E+00;9.458097053971181E+01;
1.276000000000000E+09;-1.123979615777126E+00;9.421009426952381E+01;
1.277000000000000E+09;-1.121208096347043E+00;9.388380745196866E+01;
1.278000000000000E+09;-1.121968651689182E+00;9.352070745704458E+01;
1.279000000000000E+09;-1.116313498592317E+00;9.316637636753113E+01;
1.280000000000000E+09;-1.114974331315564E+00;9.283479783394267E+01;
1.281000000000000E+09;-1.115818910535014E+00;9.245175609243300E+01;
1.282000000000000E+09;-1.118084124752967E+00;9.205415431650435E+01;
1.283000000000000E+09;-1.115657408609400E+00;9.167617073662126E+01;
1.284000000000000E+09;-1.114395998791145E+00;9.135288636511848E+01;
1.285000000000000E+09;-1.118312126413491E+00;9.095845141101312E+01;
1.286000000000000E+09;-1.123105044841878E+00;9.053781994513011E+01;
1.287000000000000E+09;-1.121645950716430E+00;9.013858093111020E+01;
1.288000000000000E+09;-1.127728967648143E+00;8.974585024493435E+01;
1.289000000000000E+09;-1.130297611890341E+00;8.935535293737256E+01;
1.290000000000000E+09;-1.136672456867211E+00;8.895438660189144E+01;
1.291000000000000E+09;-1.142209441671899E+00;8.852914094292171E+01;
1.292000000000000E+09;-1.152010015783041E+00;8.810085250707219E+01;
