# Version 1.00
#
freq[Hz];db:Trc4_S11;ang:Trc4_S11;
1.000000000000000E+09;-1.409870199000816E+00;1.574287440979214E+02;
1.001000000000000E+09;-1.436760180639379E+00;1.569654380420552E+02;
1.002000000000000E+09;-1.462150948417439E+00;1.564924568979955E+02;
1.003000000000000E+09;-1.491181216167846E+00;1.560159560268362E+02;
1.004000000000000E+09;-1.520488275645212E+00;1.555164315774389E+02;
1.005000000000000E+09;-1.550560258827959E+00;1.550640173272776E+02;
1.006000000000000E+09;-1.578647213218691E+00;1.545694821990564E+02;
1.007000000000000E+09;-1.616608824060978E+00;1.540670691831342E+02;
1.008000000000000E+09;-1.649480071757196E+00;1.535595408834649E+02;
1.009000000000000E+09;-1.683710830598285E+00;1.530715458045861E+02;
1.010000000000000E+09;-1.719149738838273E+00;1.525320350707030E+02;
1.011000000000000E+09;-1.761502259091882E+00;1.519883699987505E+02;
1.012000000000000E+09;-1.797300037186033E+00;1.514481596773999E+02;
1.013000000000000E+09;-1.834770913314665E+00;1.509285569153998E+02;
1.014000000000000E+09;-1.876029662936985E+00;1.503702839684355E+02;
1.015000000000000E+09;-1.920433241786625E+00;1.498086991867472E+02;
1.016000000000000E+09;-1.963124421511299E+00;1.492647037669186E+02;
1.017000000000000E+09;-2.004436820672898E+00;1.486585055988028E+02;
1.018000000000000E+09;-2.051355254736704E+00;1.480864844490300E+02;
1.019000000000000E+09;-2.100818886079816E+00;1.475059521851815E+02;
1.020000000000000E+09;-2.148058359392838E+00;1.469283337890911E+02;
1.021000000000000E+09;-2.198803862707684E+00;1.463095467329125E+02;
1.022000000000000E+09;-2.247449805322379E+00;1.456976103803188E+02;
1.023000000000000E+09;-2.302049054099595E+00;1.451097371763789E+02;
1.024000000000000E+09;-2.351240819757213E+00;1.445122452287612E+02;
1.025000000000000E+09;-2.403969223010931E+00;1.438726950191184E+02;
1.026000000000000E+09;-2.459471198879626E+00;1.432840551242419E+02;
1.027000000000000E+09;-2.510216936503405E+00;1.426685017093299E+02;
1.028000000000000E+09;-2.567037871424847E+00;1.420165964797023E+02;
1.029000000000000E+09;-2.617674231167051E+00;1.414450282161731E+02;
1.030000000000000E+09;-2.676674083580432E+00;1.408002532808211E+02;
1.031000000000000E+09;-2.731396935143745E+00;1.401706525056867E+02;
1.032000000000000E+09;-2.789194928954305E+00;1.395500896730156E+02;
1.033000000000000E+09;-2.839028026043752E+00;1.389166802447523E+02;
1.034000000000000E+09;-2.895566758394347E+00;1.383290859943386E+02;
1.035000000000000E+09;-2.953211886917363E+00;1.377213153357839E+02;
1.036000000000000E+09;-3.002681341127315E+00;1.371247909847181E+02;
1.037000000000000E+09;-3.061370130373545E+00;1.364805593464713E+02;
1.038000000000000E+09;-3.115403590819508E+00;1.359185957702938E+02;
1.039000000000000E+09;-3.167073074996068E+00;1.353366638489085E+02;
1.040000000000000E+09;-3.220481091479781E+00;1.347389047974336E+02;
1.041000000000000E+09;-3.273629208817091E+00;1.341909091720025E+02;
1.042000000000000E+09;-3.322824710936670E+00;1.335863067183146E+02;
1.043000000000000E+09;-3.374268416451188E+00;1.330127115970744E+02;
1.044000000000000E+09;-3.418444509995011E+00;1.324297556888480E+02;
1.045000000000000E+09;-3.472281672191969E+00;1.319054779586713E+02;
1.046000000000000E+09;-3.514410852615746E+00;1.313413264028958E+02;
1.047000000000000E+09;-3.561745485168484E+00;1.307504820198560E+02;
1.048000000000000E+09;-3.609130160225469E+00;1.302083392668429E+02;
1.049000000000000E+09;-3.652986636735298E+00;1.296721289636957E+02;
1.050000000000000E+09;-3.700176886880612E+00;1.290832759724020E+02;
1.051000000000000E+09;-3.746628495674462E+00;1.285475777262627E+02;
1.052000000000000E+09;-3.791328782555536E+00;1.280027978197061E+02;
1.053000000000000E+09;-3.840614595921505E+00;1.274515410896817E+02;
1.054000000000000E+09;-3.890623673346433E+00;1.268925449820236E+02;
1.055000000000000E+09;-3.929305312743771E+00;1.263749687967887E+02;
1.056000000000000E+09;-3.980692052500324E+00;1.258483492724950E+02;
1.057000000000000E+09;-4.029421172363429E+00;1.253032746300078E+02;
1.058000000000000E+09;-4.080823933669255E+00;1.247659294229021E+02;
1.059000000000000E+09;-4.131042680861578E+00;1.242491625963980E+02;
1.060000000000000E+09;-4.182026840162289E+00;1.237175874335682E+02;
1.061000000000000E+09;-4.235340583872383E+00;1.231987859944360E+02;
1.062000000000000E+09;-4.291818338088143E+00;1.226513473675268E+02;
1.063000000000000E+09;-4.349342114875236E+00;1.221588951551042E+02;
1.064000000000000E+09;-4.406545810440031E+00;1.216734721739323E+02;
1.065000000000000E+09;-4.472582064951532E+00;1.211547641485029E+02;
1.066000000000000E+09;-4.536966086407096E+00;1.206249150578538E+02;
1.067000000000000E+09;-4.602083014163640E+00;1.201111377091948E+02;
1.068000000000000E+09;-4.677928708424880E+00;1.196253184204264E+02;
1.069000000000000E+09;-4.754351737544297E+00;1.190962999021641E+02;
1.070000000000000E+09;-4.829965377900576E+00;1.185927213757943E+02;
1.071000000000000E+09;-4.917944915855933E+00;1.181210299880253E+02;
1.072000000000000E+09;-5.003682729440308E+00;1.176265940258906E+02;
1.073000000000000E+09;-5.098714132545679E+00;1.171363585519451E+02;
1.074000000000000E+09;-5.195873416339476E+00;1.166867641043112E+02;
1.075000000000000E+09;-5.300356618366923E+00;1.162044809922148E+02;
1.076000000000000E+09;-5.405262778046822E+00;1.157506813046203E+02;
1.077000000000000E+09;-5.519101927896104E+00;1.152637715415731E+02;
1.078000000000000E+09;-5.633025551230951E+00;1.148474530266574E+02;
1.079000000000000E+09;-5.755735666797205E+00;1.143884901252901E+02;
1.080000000000000E+09;-5.892453932233997E+00;1.139144991147082E+02;
1.081000000000000E+09;-6.031739986371440E+00;1.134620916851543E+02;
1.082000000000000E+09;-6.176796880647250E+00;1.130363312756000E+02;
1.083000000000000E+09;-6.333160941297304E+00;1.125827652777979E+02;
1.084000000000000E+09;-6.505573037413205E+00;1.122024263690596E+02;
1.085000000000000E+09;-6.675791852872042E+00;1.117686371610259E+02;
1.086000000000000E+09;-6.861718460429539E+00;1.114174906085528E+02;
1.087000000000000E+09;-7.061591208560376E+00;1.110638376896066E+02;
1.088000000000000E+09;-7.273340382037969E+00;1.107616593014316E+02;
1.089000000000000E+09;-7.491288254801702E+00;1.105012379577507E+02;
1.090000000000000E+09;-7.722818941583952E+00;1.102995888552928E+02;
1.091000000000000E+09;-7.966447441503444E+00;1.101345665758924E+02;
1.092000000000000E+09;-8.213843409848856E+00;1.100315215049038E+02;
1.093000000000000E+09;-8.475385688484783E+00;1.100181930214194E+02;
1.094000000000000E+09;-8.756076305412796E+00;1.100289778390662E+02;
1.095000000000000E+09;-9.040686097274520E+00;1.100844615310797E+02;
1.096000000000000E+09;-9.347360701365105E+00;1.102434693340900E+02;
1.097000000000000E+09;-9.655915429421345E+00;1.105556283551998E+02;
1.098000000000000E+09;-9.985051275251596E+00;1.109606824015117E+02;
1.099000000000000E+09;-1.032514148479104E+01;1.114814381589570E+02;
1.100000000000000E+09;-1.067229024670624E+01;1.120780713796616E+02;
1.101000000000000E+09;-1.103446917141146E+01;1.129130021093940E+02;
1.102000000000000E+09;-1.140647937732746E+01;1.138899761491586E+02;
1.103000000000000E+09;-1.179093368124277E+01;1.150735513929688E+02;
1.104000000000000E+09;-1.218740026023211E+01;1.165750890309045E+02;
1.105000000000000E+09;-1.257963723014840E+01;1.182918000099444E+02;
1.106000000000000E+09;-1.296309960568662E+01;1.203356854017889E+02;
1.107000000000000E+09;-1.333902645252707E+01;1.227702691852446E+02;
1.108000000000000E+09;-1.367995131921104E+01;1.255334744411463E+02;
1.109000000000000E+09;-1.398833959954949E+01;1.285986566653122E+02;
1.110000000000000E+09;-1.426182238881984E+01;1.318735958166170E+02;
1.111000000000000E+09;-1.447168731963478E+01;1.354636196690645E+02;
1.112000000000000E+09;-1.462107831177190E+01;1.392454170996112E+02;
1.113000000000000E+09;-1.473196246098136E+01;1.431048308340997E+02;
1.114000000000000E+09;-1.475405501605989E+01;1.471371065918968E+02;
1.115000000000000E+09;-1.468355713035138E+01;1.512220636888960E+02;
1.116000000000000E+09;-1.454005219969459E+01;1.551518722641116E+02;
1.117000000000000E+09;-1.432978629490641E+01;1.588389784120108E+02;
1.118000000000000E+09;-1.404024668178431E+01;1.621603142444987E+02;
1.119000000000000E+09;-1.371717541455139E+01;1.651550438853837E+02;
1.120000000000000E+09;-1.335844233572979E+01;1.676570895487244E+02;
1.121000000000000E+09;-1.298188244984486E+01;1.697784450107804E+02;
1.122000000000000E+09;-1.258437162403593E+01;1.716758384757015E+02;
1.123000000000000E+09;-1.219834779954619E+01;1.731248678909486E+02;
1.124000000000000E+09;-1.180703258397027E+01;1.743334051001551E+02;
1.125000000000000E+09;-1.142914117945968E+01;1.752845223002456E+02;
1.126000000000000E+09;-1.103420144125985E+01;1.760071983704690E+02;
1.127000000000000E+09;-1.066774609108481E+01;1.764602963606940E+02;
1.128000000000000E+09;-1.031099110104253E+01;1.767709219655124E+02;
1.129000000000000E+09;-9.968013695293653E+00;1.768931192896885E+02;
1.130000000000000E+09;-9.633110985202102E+00;1.768861817398553E+02;
1.131000000000000E+09;-9.315182456837043E+00;1.766632029652340E+02;
1.132000000000000E+09;-9.011649255354099E+00;1.764200806056396E+02;
1.133000000000000E+09;-8.722233727717429E+00;1.760390471514616E+02;
1.134000000000000E+09;-8.444409501236169E+00;1.756025104910189E+02;
1.135000000000000E+09;-8.185682750772209E+00;1.751250776467198E+02;
1.136000000000000E+09;-7.937866749411851E+00;1.745901177419873E+02;
1.137000000000000E+09;-7.693044446754045E+00;1.740655414269816E+02;
1.138000000000000E+09;-7.452362687317764E+00;1.734765532715495E+02;
1.139000000000000E+09;-7.232185977379524E+00;1.728398662271457E+02;
1.140000000000000E+09;-7.009891598978286E+00;1.722066584318050E+02;
1.141000000000000E+09;-6.789251057493884E+00;1.714816135941989E+02;
1.142000000000000E+09;-6.583620855770134E+00;1.707538407624910E+02;
1.143000000000000E+09;-6.383589113650774E+00;1.700328843896756E+02;
1.144000000000000E+09;-6.186338123340363E+00;1.692609558535515E+02;
1.145000000000000E+09;-5.997605220906430E+00;1.685035874832539E+02;
1.146000000000000E+09;-5.817491112579636E+00;1.676449599186651E+02;
1.147000000000000E+09;-5.639661125308185E+00;1.668288666503990E+02;
1.148000000000000E+09;-5.468281955776819E+00;1.660376643434223E+02;
1.149000000000000E+09;-5.306095880940781E+00;1.652229384851057E+02;
1.150000000000000E+09;-5.149143805250453E+00;1.643647058531216E+02;
1.151000000000000E+09;-4.997612352043224E+00;1.635922977430610E+02;
1.152000000000000E+09;-4.846086112928866E+00;1.627171921562257E+02;
1.153000000000000E+09;-4.703801698275780E+00;1.618886943061266E+02;
1.154000000000000E+09;-4.564962284203324E+00;1.610252449357964E+02;
1.155000000000000E+09;-4.431761379150973E+00;1.602045883050107E+02;
1.156000000000000E+09;-4.302375538783979E+00;1.593922811876950E+02;
1.157000000000000E+09;-4.183085845495704E+00;1.585699682504621E+02;
1.158000000000000E+09;-4.065778031698237E+00;1.578006870348210E+02;
1.159000000000000E+09;-3.953111887608042E+00;1.569960081672578E+02;
1.160000000000000E+09;-3.846911896992094E+00;1.562027774730509E+02;
1.161000000000000E+09;-3.745449483782690E+00;1.554355200780341E+02;
1.162000000000000E+09;-3.641258394411714E+00;1.546927216565605E+02;
1.163000000000000E+09;-3.547130696764263E+00;1.539700853880500E+02;
1.164000000000000E+09;-3.453907397080865E+00;1.532574775658170E+02;
1.165000000000000E+09;-3.366007153217412E+00;1.525568554702554E+02;
1.166000000000000E+09;-3.280942287261206E+00;1.518943852156147E+02;
1.167000000000000E+09;-3.195798897092335E+00;1.512066496992055E+02;
1.168000000000000E+09;-3.115928267391417E+00;1.505691227851158E+02;
1.169000000000000E+09;-3.030781039688007E+00;1.499285807458893E+02;
1.170000000000000E+09;-2.958133142431856E+00;1.492985200943853E+02;
1.171000000000000E+09;-2.883809524769667E+00;1.486555598236284E+02;
1.172000000000000E+09;-2.813206356762165E+00;1.480351790462506E+02;
1.173000000000000E+09;-2.744231035912541E+00;1.474270368769609E+02;
1.174000000000000E+09;-2.679523371859042E+00;1.468290648946324E+02;
1.175000000000000E+09;-2.616422434226287E+00;1.462456422663546E+02;
1.176000000000000E+09;-2.555803928062509E+00;1.456445656539870E+02;
1.177000000000000E+09;-2.496744403379234E+00;1.450939432259792E+02;
1.178000000000000E+09;-2.439253253085237E+00;1.445097019887024E+02;
1.179000000000000E+09;-2.385391160427776E+00;1.439206144267073E+02;
1.180000000000000E+09;-2.334580044755318E+00;1.433668077221737E+02;
1.181000000000000E+09;-2.282966360791020E+00;1.428065703054708E+02;
1.182000000000000E+09;-2.239579612629518E+00;1.422297385629110E+02;
1.183000000000000E+09;-2.193517595814694E+00;1.416737711930676E+02;
1.184000000000000E+09;-2.152496000343372E+00;1.411245635260806E+02;
1.185000000000000E+09;-2.117390125876026E+00;1.405819319980999E+02;
1.186000000000000E+09;-2.078519612036817E+00;1.400161670780160E+02;
1.187000000000000E+09;-2.041290035142172E+00;1.394593621938801E+02;
1.188000000000000E+09;-2.012467759332130E+00;1.389205602275433E+02;
1.189000000000000E+09;-1.984398970679436E+00;1.383745262059333E+02;
1.190000000000000E+09;-1.959068221573298E+00;1.378376302121972E+02;
1.191000000000000E+09;-1.931203420880556E+00;1.372889631015866E+02;
1.192000000000000E+09;-1.910715418834309E+00;1.367842086739729E+02;
1.193000000000000E+09;-1.889854814550460E+00;1.362596356414482E+02;
1.194000000000000E+09;-1.869013401997912E+00;1.357363700236851E+02;
1.195000000000000E+09;-1.849696499345230E+00;1.352450278801344E+02;
1.196000000000000E+09;-1.831611024285458E+00;1.347000316393949E+02;
1.197000000000000E+09;-1.815909460157912E+00;1.341598009351718E+02;
1.198000000000000E+09;-1.799019337858991E+00;1.336210515139056E+02;
1.199000000000000E+09;-1.786685546219262E+00;1.331161324487921E+02;
1.200000000000000E+09;-1.771076591267591E+00;1.325551584774965E+02;
1.201000000000000E+09;-1.758097392119789E+00;1.320094784005274E+02;
1.202000000000000E+09;-1.749903849157035E+00;1.314733985336809E+02;
1.203000000000000E+09;-1.743822376739844E+00;1.309420504620710E+02;
1.204000000000000E+09;-1.734234953423233E+00;1.303809027941276E+02;
1.205000000000000E+09;-1.727062411228854E+00;1.298465386535470E+02;
1.206000000000000E+09;-1.722137602931600E+00;1.293055488675060E+02;
1.207000000000000E+09;-1.713669731274534E+00;1.287580578118302E+02;
1.208000000000000E+09;-1.708098546971087E+00;1.281773150065814E+02;
1.209000000000000E+09;-1.700340639091446E+00;1.276400902139026E+02;
1.210000000000000E+09;-1.696495990587854E+00;1.270821368405136E+02;
1.211000000000000E+09;-1.691124472891362E+00;1.265226282772426E+02;
1.212000000000000E+09;-1.688841163656720E+00;1.259641544349890E+02;
1.213000000000000E+09;-1.681911154073878E+00;1.253563727124200E+02;
1.214000000000000E+09;-1.679339824778012E+00;1.248125778458100E+02;
1.215000000000000E+09;-1.672461887096882E+00;1.242407709994125E+02;
1.216000000000000E+09;-1.667600703818611E+00;1.236354022329816E+02;
1.217000000000000E+09;-1.663619452921442E+00;1.230527991159729E+02;
1.218000000000000E+09;-1.656948946890782E+00;1.224550307222316E+02;
1.219000000000000E+09;-1.656049107689492E+00;1.218511786930495E+02;
1.220000000000000E+09;-1.648327100783848E+00;1.212351397194664E+02;
1.221000000000000E+09;-1.643303313038884E+00;1.206516184537281E+02;
1.222000000000000E+09;-1.639493373551849E+00;1.200420602482292E+02;
1.223000000000000E+09;-1.634949742880403E+00;1.194404491898656E+02;
1.224000000000000E+09;-1.630080959215770E+00;1.188046797211940E+02;
1.225000000000000E+09;-1.624262210794993E+00;1.182092019567353E+02;
1.226000000000000E+09;-1.619401584901622E+00;1.175935099748365E+02;
1.227000000000000E+09;-1.619119755594041E+00;1.169629540429088E+02;
1.228000000000000E+09;-1.613070971027366E+00;1.163494411182567E+02;
1.229000000000000E+09;-1.606317442771418E+00;1.157603867288316E+02;
1.230000000000000E+09;-1.607110805163205E+00;1.151813739471743E+02;
1.231000000000000E+09;-1.598450186383418E+00;1.145832748480867E+02;
1.232000000000000E+09;-1.593915061942777E+00;1.140121413971158E+02;
1.233000000000000E+09;-1.586331621606573E+00;1.134458672557965E+02;
1.234000000000000E+09;-1.580367867214561E+00;1.128533073812121E+02;
1.235000000000000E+09;-1.575140759068885E+00;1.123035612704857E+02;
1.236000000000000E+09;-1.563992161718069E+00;1.117827354663267E+02;
1.237000000000000E+09;-1.553368834914413E+00;1.112068732135274E+02;
1.238000000000000E+09;-1.543740997945058E+00;1.106689109245401E+02;
1.239000000000000E+09;-1.531599270436532E+00;1.101074201230955E+02;
1.240000000000000E+09;-1.514502574467305E+00;1.095643616636253E+02;
1.241000000000000E+09;-1.505397363867557E+00;1.090465553835458E+02;
1.242000000000000E+09;-1.497195621165061E+00;1.085286631491489E+02;
1.243000000000000E+09;-1.482994481264524E+00;1.079932715638784E+02;
1.244000000000000E+09;-1.464683314512288E+00;1.075261754676139E+02;
1.245000000000000E+09;-1.454962882645236E+00;1.069890451299128E+02;
1.246000000000000E+09;-1.443869908935895E+00;1.064772851205935E+02;
1.247000000000000E+09;-1.427867951068484E+00;1.060244823582199E+02;
1.248000000000000E+09;-1.412539420104497E+00;1.055417525437521E+02;
1.249000000000000E+09;-1.398609336156347E+00;1.050813277106106E+02;
1.250000000000000E+09;-1.386236734451298E+00;1.046165599190109E+02;
1.251000000000000E+09;-1.373372772447710E+00;1.041289621351432E+02;
1.252000000000000E+09;-1.360421365388716E+00;1.037230636589839E+02;
1.253000000000000E+09;-1.346500818993991E+00;1.032876852211408E+02;
1.254000000000000E+09;-1.329925999931866E+00;1.028352195172812E+02;
1.255000000000000E+09;-1.316743466840105E+00;1.024125882879874E+02;
1.256000000000000E+09;-1.304844834979982E+00;1.019971945734464E+02;
1.257000000000000E+09;-1.290550732259552E+00;1.016093072652470E+02;
1.258000000000000E+09;-1.276536391098259E+00;1.012010665349962E+02;
1.259000000000000E+09;-1.262695419987157E+00;1.007875315595428E+02;
1.260000000000000E+09;-1.248656675284449E+00;1.003753360070402E+02;
1.261000000000000E+09;-1.240114817622511E+00;1.000300297564958E+02;
1.262000000000000E+09;-1.229375987943469E+00;9.962661736110910E+01;
1.263000000000000E+09;-1.213348633007048E+00;9.924835250663118E+01;
1.264000000000000E+09;-1.208276957128557E+00;9.884897066977771E+01;
1.265000000000000E+09;-1.197358795929513E+00;9.848467222715740E+01;
1.266000000000000E+09;-1.188370385514704E+00;9.814655327007658E+01;
1.267000000000000E+09;-1.181358567969959E+00;9.776203472079239E+01;
1.268000000000000E+09;-1.173016430810185E+00;9.739229490436371E+01;
1.269000000000000E+09;-1.165407492350510E+00;9.703182581201793E+01;
1.270000000000000E+09;-1.157875190704373E+00;9.669178987515788E+01;
1.271000000000000E+09;-1.149722827802367E+00;9.633954372333747E+01;
1.272000000000000E+09;-1.147317157766120E+00;9.596308300049331E+01;
1.273000000000000E+09;-1.143772713199732E+00;9.560858637461666E+01;
1.274000000000000E+09;-1.139392084496303E+00;9.523622820519287E+01;
1.275000000000000E+09;-1.135101093217565E+00;9.488649412436283E+01;
1.276000000000000E+09;-1.132988186269017E+00;9.450268509450403E+01;
1.277000000000000E+09;-1.129211730485673E+00;9.415189739030033E+01;
1.278000000000000E+09;-1.132159524562887E+00;9.379607680221049E+01;
1.279000000000000E+09;-1.131616693189339E+00;9.343546980690378E+01;
1.280000000000000E+09;-1.129253734135701E+00;9.308294146819533E+01;
1.281000000000000E+09;-1.130994478782834E+00;9.269227055263021E+01;
1.282000000000000E+09;-1.135714505868052E+00;9.233234769986765E+01;
1.283000000000000E+09;-1.141313616037518E+00;9.193629799418578E+01;
1.284000000000000E+09;-1.138975098560656E+00;9.159926112741917E+01;
1.285000000000000E+09;-1.145536675710883E+00;9.120442567071471E+01;
1.286000000000000E+09;-1.150491680238266E+00;9.081535385397609E+01;
1.287000000000000E+09;-1.149801340863728E+00;9.041943778989645E+01;
1.288000000000000E+09;-1.155835980501561E+00;9.003023881235977E+01;
1.289000000000000E+09;-1.157002525328493E+00;8.962446749082842E+01;
1.290000000000000E+09;-1.164824579845428E+00;8.921771244537933E+01;
1.291000000000000E+09;-1.169967436474424E+00;8.880772428447465E+01;
1.292000000000000E+09;-1.177592900175330E+00;8.838905461721642E+01;
