# Version 1.00
#
freq[Hz];db:Trc4_S11;ang:Trc4_S11;
1.000000000000000E+09;-1.288986949124603E+00;1.580845888776300E+02;
1.001000000000000E+09;-1.311082449513707E+00;1.576529549943918E+02;
1.002000000000000E+09;-1.340683126916310E+00;1.571678756452305E+02;
1.003000000000000E+09;-1.362295504583346E+00;1.566898630517126E+02;
1.004000000000000E+09;-1.390980763224030E+00;1.561916909240333E+02;
1.005000000000000E+09;-1.416024347789065E+00;1.557305366295007E+02;
1.006000000000000E+09;-1.445266516625640E+00;1.552238398438633E+02;
1.007000000000000E+09;-1.477149039356125E+00;1.547102593508122E+02;
1.008000000000000E+09;-1.509564060994268E+00;1.542316140456850E+02;
1.009000000000000E+09;-1.541577910769742E+00;1.537115591754253E+02;
1.010000000000000E+09;-1.574724924134281E+00;1.531776608294398E+02;
1.011000000000000E+09;-1.613043726906037E+00;1.526270601112603E+02;
1.012000000000000E+09;-1.648551494734875E+00;1.520866038437241E+02;
1.013000000000000E+09;-1.683688441789829E+00;1.515432518381142E+02;
1.014000000000000E+09;-1.722006454697165E+00;1.509803804042987E+02;
1.015000000000000E+09;-1.762435635358670E+00;1.504060391370576E+02;
1.016000000000000E+09;-1.802742309688669E+00;1.498370085970336E+02;
1.017000000000000E+09;-1.846445680313993E+00;1.492301953869414E+02;
1.018000000000000E+09;-1.890269531766012E+00;1.486240146932713E+02;
1.019000000000000E+09;-1.936036309661940E+00;1.480344569035938E+02;
1.020000000000000E+09;-1.981769611580959E+00;1.474345688398150E+02;
1.021000000000000E+09;-2.026153548331159E+00;1.468131732318434E+02;
1.022000000000000E+09;-2.072069968491535E+00;1.461689221658311E+02;
1.023000000000000E+09;-2.125009915285049E+00;1.455713550964562E+02;
1.024000000000000E+09;-2.172250584072403E+00;1.449318090028188E+02;
1.025000000000000E+09;-2.223589124099405E+00;1.442600577300418E+02;
1.026000000000000E+09;-2.271182771072859E+00;1.436298518126973E+02;
1.027000000000000E+09;-2.321990302147719E+00;1.429963923937686E+02;
1.028000000000000E+09;-2.374705669619459E+00;1.423235694713352E+02;
1.029000000000000E+09;-2.423753745612829E+00;1.417050471945041E+02;
1.030000000000000E+09;-2.476488750284618E+00;1.410388630259579E+02;
1.031000000000000E+09;-2.528619378367118E+00;1.403742223334711E+02;
1.032000000000000E+09;-2.582951264711004E+00;1.396996963868810E+02;
1.033000000000000E+09;-2.634651345687446E+00;1.390286986750577E+02;
1.034000000000000E+09;-2.684870768550363E+00;1.383724331051659E+02;
1.035000000000000E+09;-2.736144115216695E+00;1.377282252124414E+02;
1.036000000000000E+09;-2.788574809670564E+00;1.370512188115274E+02;
1.037000000000000E+09;-2.840231666863824E+00;1.363854103307825E+02;
1.038000000000000E+09;-2.891921632805387E+00;1.357480620318488E+02;
1.039000000000000E+09;-2.943278556370891E+00;1.351257145731010E+02;
1.040000000000000E+09;-2.994317175520495E+00;1.344704464029785E+02;
1.041000000000000E+09;-3.047997938959117E+00;1.338313688487025E+02;
1.042000000000000E+09;-3.096818932590208E+00;1.331996078703981E+02;
1.043000000000000E+09;-3.146938981595633E+00;1.325643873856477E+02;
1.044000000000000E+09;-3.194311042013413E+00;1.319180075182580E+02;
1.045000000000000E+09;-3.243477051702738E+00;1.313355556957529E+02;
1.046000000000000E+09;-3.287004358003806E+00;1.307118609738627E+02;
1.047000000000000E+09;-3.339299259961659E+00;1.300644202978302E+02;
1.048000000000000E+09;-3.383503485068818E+00;1.294514316193218E+02;
1.049000000000000E+09;-3.427796667544549E+00;1.288325769634879E+02;
1.050000000000000E+09;-3.475102482299008E+00;1.282189109862154E+02;
1.051000000000000E+09;-3.519291076114108E+00;1.276269616914824E+02;
1.052000000000000E+09;-3.567484531145332E+00;1.270411128014433E+02;
1.053000000000000E+09;-3.617868298267328E+00;1.264277086665185E+02;
1.054000000000000E+09;-3.665576133501390E+00;1.258038072716023E+02;
1.055000000000000E+09;-3.707398256038989E+00;1.252107137570840E+02;
1.056000000000000E+09;-3.759357548102199E+00;1.246270072092026E+02;
1.057000000000000E+09;-3.810442436310948E+00;1.240479744004286E+02;
1.058000000000000E+09;-3.864815510518376E+00;1.234643162032304E+02;
1.059000000000000E+09;-3.918168636497237E+00;1.228855223158866E+02;
1.060000000000000E+09;-3.972135487608086E+00;1.223008889353994E+02;
1.061000000000000E+09;-4.030599628303985E+00;1.217396974020841E+02;
1.062000000000000E+09;-4.087139602165904E+00;1.211463961381846E+02;
1.063000000000000E+09;-4.150871070247038E+00;1.206096901455661E+02;
1.064000000000000E+09;-4.210545684991615E+00;1.200857995125392E+02;
1.065000000000000E+09;-4.278451935102089E+00;1.195079482779649E+02;
1.066000000000000E+09;-4.347888940453438E+00;1.189503904616535E+02;
1.067000000000000E+09;-4.417846016056206E+00;1.183887042225248E+02;
1.068000000000000E+09;-4.496102833020091E+00;1.178686562621556E+02;
1.069000000000000E+09;-4.575493427109663E+00;1.172706792656726E+02;
1.070000000000000E+09;-4.653724453589949E+00;1.167258746555197E+02;
1.071000000000000E+09;-4.748241363380822E+00;1.161919067324492E+02;
1.072000000000000E+09;-4.841620755913429E+00;1.156600168975545E+02;
1.073000000000000E+09;-4.943227264145966E+00;1.151003212032515E+02;
1.074000000000000E+09;-5.046090699442712E+00;1.145909329855373E+02;
1.075000000000000E+09;-5.158626532034067E+00;1.140699038796854E+02;
1.076000000000000E+09;-5.269180544003865E+00;1.135666639051283E+02;
1.077000000000000E+09;-5.395774906289860E+00;1.130439482228084E+02;
1.078000000000000E+09;-5.524853054520820E+00;1.125880595931281E+02;
1.079000000000000E+09;-5.659055104285088E+00;1.121050348421760E+02;
1.080000000000000E+09;-5.809506819191958E+00;1.116522923878760E+02;
1.081000000000000E+09;-5.958886453382260E+00;1.111506714740200E+02;
1.082000000000000E+09;-6.115236891304491E+00;1.107597294130247E+02;
1.083000000000000E+09;-6.284077728239992E+00;1.102912807490751E+02;
1.084000000000000E+09;-6.462936443602027E+00;1.098748430567953E+02;
1.085000000000000E+09;-6.644890295051734E+00;1.094959209580995E+02;
1.086000000000000E+09;-6.844535767633822E+00;1.091818808482147E+02;
1.087000000000000E+09;-7.052994425125330E+00;1.088380525413895E+02;
1.088000000000000E+09;-7.272376032793426E+00;1.084976573713346E+02;
1.089000000000000E+09;-7.497619245402207E+00;1.082788820538916E+02;
1.090000000000000E+09;-7.738149184842062E+00;1.080807365777960E+02;
1.091000000000000E+09;-7.986211224466938E+00;1.079257043341056E+02;
1.092000000000000E+09;-8.247001954173005E+00;1.078339388266672E+02;
1.093000000000000E+09;-8.522679824776562E+00;1.077950860601401E+02;
1.094000000000000E+09;-8.816232349056341E+00;1.077740481338349E+02;
1.095000000000000E+09;-9.116986666532588E+00;1.078715664664861E+02;
1.096000000000000E+09;-9.433627968495909E+00;1.080788171583218E+02;
1.097000000000000E+09;-9.759012390307678E+00;1.083830089571490E+02;
1.098000000000000E+09;-1.010978111508124E+01;1.087769380167601E+02;
1.099000000000000E+09;-1.046635294963264E+01;1.093384324888757E+02;
1.100000000000000E+09;-1.084516299879498E+01;1.100536433022742E+02;
1.101000000000000E+09;-1.123087743686039E+01;1.109944536340916E+02;
1.102000000000000E+09;-1.162118619345740E+01;1.120856988858537E+02;
1.103000000000000E+09;-1.202716407775231E+01;1.134724422549722E+02;
1.104000000000000E+09;-1.243739357014381E+01;1.151231499802199E+02;
1.105000000000000E+09;-1.284247504836999E+01;1.170827575801452E+02;
1.106000000000000E+09;-1.324519087648984E+01;1.193918504351112E+02;
1.107000000000000E+09;-1.362002861937459E+01;1.220986136700915E+02;
1.108000000000000E+09;-1.395787234680579E+01;1.250636689011483E+02;
1.109000000000000E+09;-1.426897185105727E+01;1.284129576781800E+02;
1.110000000000000E+09;-1.451668259610153E+01;1.320562156274047E+02;
1.111000000000000E+09;-1.469459133917302E+01;1.360874179651203E+02;
1.112000000000000E+09;-1.479218538265667E+01;1.401613187374845E+02;
1.113000000000000E+09;-1.482752999275249E+01;1.442512526914485E+02;
1.114000000000000E+09;-1.476532908765612E+01;1.482640900070449E+02;
1.115000000000000E+09;-1.463036559252347E+01;1.522957683875266E+02;
1.116000000000000E+09;-1.444105113702194E+01;1.559321831807569E+02;
1.117000000000000E+09;-1.417933097866408E+01;1.593678726572388E+02;
1.118000000000000E+09;-1.386698417962698E+01;1.623839744921799E+02;
1.119000000000000E+09;-1.351894380845302E+01;1.651487074757200E+02;
1.120000000000000E+09;-1.315107315756727E+01;1.673663524516101E+02;
1.121000000000000E+09;-1.276594304721801E+01;1.692969305660995E+02;
1.122000000000000E+09;-1.237636989130367E+01;1.709174353833904E+02;
1.123000000000000E+09;-1.198338981855069E+01;1.721927129988764E+02;
1.124000000000000E+09;-1.159963706468174E+01;1.732259608283840E+02;
1.125000000000000E+09;-1.123207987213792E+01;1.740157675444106E+02;
1.126000000000000E+09;-1.085541305334971E+01;1.745965178941098E+02;
1.127000000000000E+09;-1.050313285217986E+01;1.749696941185219E+02;
1.128000000000000E+09;-1.014782869033641E+01;1.752072108550856E+02;
1.129000000000000E+09;-9.805908775549351E+00;1.752174641248475E+02;
1.130000000000000E+09;-9.470806862305935E+00;1.751232379701517E+02;
1.131000000000000E+09;-9.156499284832410E+00;1.748531654371623E+02;
1.132000000000000E+09;-8.856601663878909E+00;1.744842576553101E+02;
1.133000000000000E+09;-8.569912720590878E+00;1.739835864385531E+02;
1.134000000000000E+09;-8.296581024724162E+00;1.734538063754444E+02;
1.135000000000000E+09;-8.047608671385456E+00;1.728646609098749E+02;
1.136000000000000E+09;-7.808784937612316E+00;1.722273697339973E+02;
1.137000000000000E+09;-7.571686115185344E+00;1.715818711125545E+02;
1.138000000000000E+09;-7.348287131980759E+00;1.709125489441732E+02;
1.139000000000000E+09;-7.138114057612608E+00;1.701820988687289E+02;
1.140000000000000E+09;-6.931595851318900E+00;1.694881630647939E+02;
1.141000000000000E+09;-6.727721093834092E+00;1.687200883862592E+02;
1.142000000000000E+09;-6.533706406960301E+00;1.679255583523806E+02;
1.143000000000000E+09;-6.355874131694299E+00;1.671073638997202E+02;
1.144000000000000E+09;-6.175493988665801E+00;1.663243394340685E+02;
1.145000000000000E+09;-6.006258792868523E+00;1.655462067026256E+02;
1.146000000000000E+09;-5.848522772507216E+00;1.647002866956254E+02;
1.147000000000000E+09;-5.695258535008917E+00;1.639059337300038E+02;
1.148000000000000E+09;-5.541311054682292E+00;1.631843997945805E+02;
1.149000000000000E+09;-5.395734230683819E+00;1.624197863096529E+02;
1.150000000000000E+09;-5.250463585611658E+00;1.616397735702759E+02;
1.151000000000000E+09;-5.112737396358137E+00;1.608764661086667E+02;
1.152000000000000E+09;-4.975930108177298E+00;1.600997057829255E+02;
1.153000000000000E+09;-4.844239229138947E+00;1.593939663935293E+02;
1.154000000000000E+09;-4.711633204564396E+00;1.586106135927120E+02;
1.155000000000000E+09;-4.588628103934552E+00;1.578725801181459E+02;
1.156000000000000E+09;-4.467551277139898E+00;1.571432153122513E+02;
1.157000000000000E+09;-4.350468099574994E+00;1.564204197939406E+02;
1.158000000000000E+09;-4.236829508396919E+00;1.557259394752948E+02;
1.159000000000000E+09;-4.126252577365672E+00;1.549881085744264E+02;
1.160000000000000E+09;-4.020088601552516E+00;1.543078465003197E+02;
1.161000000000000E+09;-3.916780078640019E+00;1.536054130931455E+02;
1.162000000000000E+09;-3.817441479698331E+00;1.529307526795159E+02;
1.163000000000000E+09;-3.726240321949668E+00;1.522742870221163E+02;
1.164000000000000E+09;-3.627111247625159E+00;1.516444426698776E+02;
1.165000000000000E+09;-3.538906315785897E+00;1.509816100518207E+02;
1.166000000000000E+09;-3.453559556338274E+00;1.503620151118915E+02;
1.167000000000000E+09;-3.366649155710091E+00;1.497260738821537E+02;
1.168000000000000E+09;-3.286816535393739E+00;1.491210821805919E+02;
1.169000000000000E+09;-3.206872868993620E+00;1.485098150660362E+02;
1.170000000000000E+09;-3.134443219847996E+00;1.479186817356510E+02;
1.171000000000000E+09;-3.060026056746549E+00;1.473144568815669E+02;
1.172000000000000E+09;-2.994799740984846E+00;1.467263806916369E+02;
1.173000000000000E+09;-2.930188327980214E+00;1.461353720121485E+02;
1.174000000000000E+09;-2.868649350222437E+00;1.455858993316644E+02;
1.175000000000000E+09;-2.811263770468852E+00;1.450385650549397E+02;
1.176000000000000E+09;-2.756830915352594E+00;1.444799743377898E+02;
1.177000000000000E+09;-2.705411041590226E+00;1.439820632827518E+02;
1.178000000000000E+09;-2.654119165751245E+00;1.434585637258851E+02;
1.179000000000000E+09;-2.607069278561513E+00;1.429125982908353E+02;
1.180000000000000E+09;-2.562970214057105E+00;1.424418466246837E+02;
1.181000000000000E+09;-2.521500194570559E+00;1.419380847947758E+02;
1.182000000000000E+09;-2.480015603560897E+00;1.414537449863815E+02;
1.183000000000000E+09;-2.440888670732511E+00;1.409867267147002E+02;
1.184000000000000E+09;-2.406788118786524E+00;1.405124547587869E+02;
1.185000000000000E+09;-2.368442947466985E+00;1.400670295350197E+02;
1.186000000000000E+09;-2.333971203855504E+00;1.395918679914984E+02;
1.187000000000000E+09;-2.299197143669103E+00;1.391184990134344E+02;
1.188000000000000E+09;-2.268237598195243E+00;1.386573160549869E+02;
1.189000000000000E+09;-2.239681249839769E+00;1.381967754742195E+02;
1.190000000000000E+09;-2.213301569139505E+00;1.377213212800698E+02;
1.191000000000000E+09;-2.185871927502490E+00;1.372527664381608E+02;
1.192000000000000E+09;-2.160155778554145E+00;1.367892509533027E+02;
1.193000000000000E+09;-2.138683769657181E+00;1.363481676393535E+02;
1.194000000000000E+09;-2.119558950422306E+00;1.358402903562976E+02;
1.195000000000000E+09;-2.098687827920697E+00;1.353879433410583E+02;
1.196000000000000E+09;-2.077342075886394E+00;1.349035274111846E+02;
1.197000000000000E+09;-2.060484383854976E+00;1.344087918535178E+02;
1.198000000000000E+09;-2.043704497423114E+00;1.338967746978236E+02;
1.199000000000000E+09;-2.030317666604291E+00;1.334286035671522E+02;
1.200000000000000E+09;-2.017286094328286E+00;1.329262398249437E+02;
1.201000000000000E+09;-2.008096152923082E+00;1.324049056794329E+02;
1.202000000000000E+09;-1.994206371954439E+00;1.318990572556269E+02;
1.203000000000000E+09;-1.984961808281999E+00;1.313858914845519E+02;
1.204000000000000E+09;-1.976416878132861E+00;1.308645527773955E+02;
1.205000000000000E+09;-1.969908154359513E+00;1.303615619220173E+02;
1.206000000000000E+09;-1.967045430841751E+00;1.298255990050426E+02;
1.207000000000000E+09;-1.963283743433379E+00;1.292975573650996E+02;
1.208000000000000E+09;-1.958583769246786E+00;1.287621693349173E+02;
1.209000000000000E+09;-1.954151821013521E+00;1.282257161757813E+02;
1.210000000000000E+09;-1.953839700141102E+00;1.277185057515096E+02;
1.211000000000000E+09;-1.948679031706715E+00;1.271840558210695E+02;
1.212000000000000E+09;-1.946049738291152E+00;1.266618183706837E+02;
1.213000000000000E+09;-1.944360595922266E+00;1.260878411478316E+02;
1.214000000000000E+09;-1.941400624592429E+00;1.255706425803129E+02;
1.215000000000000E+09;-1.931507704150761E+00;1.250237213298903E+02;
1.216000000000000E+09;-1.930007986963852E+00;1.244648326620086E+02;
1.217000000000000E+09;-1.924828205417910E+00;1.239206585615689E+02;
1.218000000000000E+09;-1.918440334270485E+00;1.233694290542636E+02;
1.219000000000000E+09;-1.914457865905974E+00;1.228027546208682E+02;
1.220000000000000E+09;-1.906642900148245E+00;1.222431013272491E+02;
1.221000000000000E+09;-1.896059730190195E+00;1.216815776388370E+02;
1.222000000000000E+09;-1.892211598990261E+00;1.210915085478476E+02;
1.223000000000000E+09;-1.881807083372265E+00;1.205281371978790E+02;
1.224000000000000E+09;-1.870741683505201E+00;1.199332570275078E+02;
1.225000000000000E+09;-1.860358964460473E+00;1.193572364470649E+02;
1.226000000000000E+09;-1.849550774101528E+00;1.187635531605046E+02;
1.227000000000000E+09;-1.843837841346800E+00;1.181506493391707E+02;
1.228000000000000E+09;-1.835382228394038E+00;1.175663093250652E+02;
1.229000000000000E+09;-1.823514058818089E+00;1.169707925225713E+02;
1.230000000000000E+09;-1.814322376474580E+00;1.164156255180161E+02;
1.231000000000000E+09;-1.802118514693413E+00;1.158001704990731E+02;
1.232000000000000E+09;-1.789438829193797E+00;1.152409150951540E+02;
1.233000000000000E+09;-1.777849089700241E+00;1.146735592953225E+02;
1.234000000000000E+09;-1.765385047040958E+00;1.140895277970468E+02;
1.235000000000000E+09;-1.751963012941814E+00;1.135148359033676E+02;
1.236000000000000E+09;-1.737872420222395E+00;1.129860567833772E+02;
1.237000000000000E+09;-1.721069848294569E+00;1.124328688594038E+02;
1.238000000000000E+09;-1.704051863147235E+00;1.118622310754780E+02;
1.239000000000000E+09;-1.684730913725768E+00;1.113272765524411E+02;
1.240000000000000E+09;-1.666404641860043E+00;1.107933164810405E+02;
1.241000000000000E+09;-1.649374318901718E+00;1.102549344508443E+02;
1.242000000000000E+09;-1.626183489258839E+00;1.097524662115719E+02;
1.243000000000000E+09;-1.608850601554471E+00;1.092249863391607E+02;
1.244000000000000E+09;-1.583079318490630E+00;1.087288464390697E+02;
1.245000000000000E+09;-1.564043903023994E+00;1.082084195023423E+02;
1.246000000000000E+09;-1.544401101507500E+00;1.076990520997481E+02;
1.247000000000000E+09;-1.519626566120691E+00;1.071916091874582E+02;
1.248000000000000E+09;-1.499357325957091E+00;1.067073441641965E+02;
1.249000000000000E+09;-1.478784926317542E+00;1.062253223505794E+02;
1.250000000000000E+09;-1.458167104482371E+00;1.057381794246870E+02;
1.251000000000000E+09;-1.437909188857033E+00;1.052944463177585E+02;
1.252000000000000E+09;-1.415251377317615E+00;1.048527964216597E+02;
1.253000000000000E+09;-1.394042444515806E+00;1.043960077968770E+02;
1.254000000000000E+09;-1.374908559969890E+00;1.039560233209803E+02;
1.255000000000000E+09;-1.351566949938086E+00;1.034952825445914E+02;
1.256000000000000E+09;-1.332553450892651E+00;1.030745424316452E+02;
1.257000000000000E+09;-1.310803136566812E+00;1.026670975271311E+02;
1.258000000000000E+09;-1.291226594564667E+00;1.022466876727999E+02;
1.259000000000000E+09;-1.272112905127776E+00;1.018011551070517E+02;
1.260000000000000E+09;-1.252778314783628E+00;1.013991842342128E+02;
1.261000000000000E+09;-1.236183742830440E+00;1.010234028106388E+02;
1.262000000000000E+09;-1.220978314510243E+00;1.006223134889344E+02;
1.263000000000000E+09;-1.200707029069126E+00;1.002392474292710E+02;
1.264000000000000E+09;-1.183397044782423E+00;9.980150312434063E+01;
1.265000000000000E+09;-1.168910508812780E+00;9.943699887226582E+01;
1.266000000000000E+09;-1.153999098794954E+00;9.908554589156876E+01;
1.267000000000000E+09;-1.139198686029875E+00;9.868937502705630E+01;
1.268000000000000E+09;-1.123875732096938E+00;9.829950154168151E+01;
1.269000000000000E+09;-1.112216621292450E+00;9.791725187862328E+01;
1.270000000000000E+09;-1.100126929323790E+00;9.753612091513637E+01;
1.271000000000000E+09;-1.089429666075941E+00;9.718383087543705E+01;
1.272000000000000E+09;-1.079812220891730E+00;9.676905643448553E+01;
1.273000000000000E+09;-1.071301692563976E+00;9.640645313362532E+01;
1.274000000000000E+09;-1.061205155992527E+00;9.602084938070901E+01;
1.275000000000000E+09;-1.054569685173298E+00;9.564800926077343E+01;
1.276000000000000E+09;-1.047044223515572E+00;9.526886700470007E+01;
1.277000000000000E+09;-1.042738017035939E+00;9.486754971427914E+01;
1.278000000000000E+09;-1.041683809230683E+00;9.449114366268134E+01;
1.279000000000000E+09;-1.035176002483300E+00;9.409261239351282E+01;
1.280000000000000E+09;-1.033096358720409E+00;9.371116453764698E+01;
1.281000000000000E+09;-1.034448850325273E+00;9.333109201293175E+01;
1.282000000000000E+09;-1.036778235502825E+00;9.291820952180237E+01;
1.283000000000000E+09;-1.032026744735969E+00;9.251141156816517E+01;
1.284000000000000E+09;-1.029952959146611E+00;9.216124179952649E+01;
1.285000000000000E+09;-1.036353921257845E+00;9.171171920453446E+01;
1.286000000000000E+09;-1.040394725753443E+00;9.131149717632050E+01;
1.287000000000000E+09;-1.041770773328073E+00;9.086985561529791E+01;
1.288000000000000E+09;-1.047065648327963E+00;9.048952922152760E+01;
1.289000000000000E+09;-1.049890488061212E+00;9.005806670684238E+01;
1.290000000000000E+09;-1.060801508236669E+00;8.962819812149385E+01;
1.291000000000000E+09;-1.062436534157710E+00;8.918365552920392E+01;
1.292000000000000E+09;-1.074065542615726E+00;8.874333737536851E+01;
