# Version 1.00
#
freq[Hz];db:Trc4_S11;ang:Trc4_S11;
1.000000000000000E+09;-1.322866387294972E+00;1.579473164092499E+02;
1.001000000000000E+09;-1.347070385084606E+00;1.575084224137009E+02;
1.002000000000000E+09;-1.371832432305944E+00;1.570692703549181E+02;
1.003000000000000E+09;-1.397270999717879E+00;1.566124957660784E+02;
1.004000000000000E+09;-1.422848325876626E+00;1.561355439186507E+02;
1.005000000000000E+09;-1.451252897844469E+00;1.557044598638306E+02;
1.006000000000000E+09;-1.480664310877299E+00;1.551724914720808E+02;
1.007000000000000E+09;-1.515769323253329E+00;1.546885491269249E+02;
1.008000000000000E+09;-1.545401300969964E+00;1.542122927143735E+02;
1.009000000000000E+09;-1.577254353034815E+00;1.537019716213392E+02;
1.010000000000000E+09;-1.610402233728081E+00;1.531893153571506E+02;
1.011000000000000E+09;-1.649158882797599E+00;1.526484278688006E+02;
1.012000000000000E+09;-1.684166491387706E+00;1.520902311977300E+02;
1.013000000000000E+09;-1.720818934291244E+00;1.515374498859416E+02;
1.014000000000000E+09;-1.760019084561774E+00;1.509774601352606E+02;
1.015000000000000E+09;-1.802329207791189E+00;1.504134228186770E+02;
1.016000000000000E+09;-1.841913293269286E+00;1.498366133800269E+02;
1.017000000000000E+09;-1.882136505384246E+00;1.492167209103009E+02;
1.018000000000000E+09;-1.927952650210505E+00;1.485871758903925E+02;
1.019000000000000E+09;-1.976155373359489E+00;1.479688056072304E+02;
1.020000000000000E+09;-2.022749171567700E+00;1.473611934015797E+02;
1.021000000000000E+09;-2.069820492397486E+00;1.467090712217080E+02;
1.022000000000000E+09;-2.118094182194272E+00;1.460602575958851E+02;
1.023000000000000E+09;-2.171557431109122E+00;1.454196155055976E+02;
1.024000000000000E+09;-2.223482989165432E+00;1.447593853987783E+02;
1.025000000000000E+09;-2.277234577742906E+00;1.440643341004412E+02;
1.026000000000000E+09;-2.332496823452617E+00;1.434099044189002E+02;
1.027000000000000E+09;-2.382740120474804E+00;1.427499611847823E+02;
1.028000000000000E+09;-2.439890664762494E+00;1.420597577943383E+02;
1.029000000000000E+09;-2.498290623692529E+00;1.413972995561085E+02;
1.030000000000000E+09;-2.552582486935220E+00;1.406944422383831E+02;
1.031000000000000E+09;-2.608674362512529E+00;1.400289710224052E+02;
1.032000000000000E+09;-2.666108399571750E+00;1.393345052756106E+02;
1.033000000000000E+09;-2.721830318849856E+00;1.386370459621948E+02;
1.034000000000000E+09;-2.778138575389374E+00;1.379667508350381E+02;
1.035000000000000E+09;-2.837085774661437E+00;1.373033831816628E+02;
1.036000000000000E+09;-2.894564981464014E+00;1.365736323924403E+02;
1.037000000000000E+09;-2.951093639111025E+00;1.359058429565926E+02;
1.038000000000000E+09;-3.004819083409909E+00;1.352580172873457E+02;
1.039000000000000E+09;-3.060529980701143E+00;1.345979368462217E+02;
1.040000000000000E+09;-3.118028494633169E+00;1.338730129278492E+02;
1.041000000000000E+09;-3.169733814555063E+00;1.332418933085107E+02;
1.042000000000000E+09;-3.224639237414887E+00;1.325742438181385E+02;
1.043000000000000E+09;-3.283479556794338E+00;1.319008494250730E+02;
1.044000000000000E+09;-3.331826101534581E+00;1.312286306837264E+02;
1.045000000000000E+09;-3.387449932943232E+00;1.306209436968342E+02;
1.046000000000000E+09;-3.436994918704952E+00;1.299581230510150E+02;
1.047000000000000E+09;-3.493350165678414E+00;1.293000362324549E+02;
1.048000000000000E+09;-3.543023898294266E+00;1.286999866562218E+02;
1.049000000000000E+09;-3.592847637621548E+00;1.280720492378291E+02;
1.050000000000000E+09;-3.644776181205410E+00;1.274389172849863E+02;
1.051000000000000E+09;-3.697187026192729E+00;1.268430821300931E+02;
1.052000000000000E+09;-3.747031050465600E+00;1.262326526569551E+02;
1.053000000000000E+09;-3.802814849820156E+00;1.256338032909126E+02;
1.054000000000000E+09;-3.854009880998414E+00;1.250066192959586E+02;
1.055000000000000E+09;-3.898039298031279E+00;1.244212530135720E+02;
1.056000000000000E+09;-3.956525256704497E+00;1.238681885575255E+02;
1.057000000000000E+09;-4.007733580564723E+00;1.232890845198870E+02;
1.058000000000000E+09;-4.061708907900204E+00;1.226975770101198E+02;
1.059000000000000E+09;-4.116641037673336E+00;1.221477913443584E+02;
1.060000000000000E+09;-4.171226268859948E+00;1.215734946870107E+02;
1.061000000000000E+09;-4.228261857417798E+00;1.210316825006399E+02;
1.062000000000000E+09;-4.287099806154969E+00;1.204508178912197E+02;
1.063000000000000E+09;-4.345847339207872E+00;1.199434568007883E+02;
1.064000000000000E+09;-4.403908576255911E+00;1.194137062525516E+02;
1.065000000000000E+09;-4.471104552608659E+00;1.188646284661287E+02;
1.066000000000000E+09;-4.536446313839956E+00;1.183194368172674E+02;
1.067000000000000E+09;-4.604165003171529E+00;1.177966756199330E+02;
1.068000000000000E+09;-4.679282692134372E+00;1.172986369270001E+02;
1.069000000000000E+09;-4.751950450851464E+00;1.167287125633069E+02;
1.070000000000000E+09;-4.829289325529294E+00;1.162075711100731E+02;
1.071000000000000E+09;-4.910243074969690E+00;1.157362329996901E+02;
1.072000000000000E+09;-4.994320478377425E+00;1.152320549305168E+02;
1.073000000000000E+09;-5.079475768239014E+00;1.147098961272800E+02;
1.074000000000000E+09;-5.172352563179350E+00;1.142065603568627E+02;
1.075000000000000E+09;-5.265309405326341E+00;1.136735992417299E+02;
1.076000000000000E+09;-5.370169089147242E+00;1.131518139035211E+02;
1.077000000000000E+09;-5.479211793272391E+00;1.125902739825008E+02;
1.078000000000000E+09;-5.593717319526645E+00;1.121022993820474E+02;
1.079000000000000E+09;-5.719655526354242E+00;1.115725372023123E+02;
1.080000000000000E+09;-5.849410573039087E+00;1.110542485623960E+02;
1.081000000000000E+09;-5.992609876453436E+00;1.105533645417417E+02;
1.082000000000000E+09;-6.136734166487713E+00;1.100584846946963E+02;
1.083000000000000E+09;-6.289097394153298E+00;1.095981993189574E+02;
1.084000000000000E+09;-6.461671921616277E+00;1.090783420842245E+02;
1.085000000000000E+09;-6.625930298179137E+00;1.086533005950968E+02;
1.086000000000000E+09;-6.811262407941310E+00;1.082149189477174E+02;
1.087000000000000E+09;-7.007467863500136E+00;1.077912261774430E+02;
1.088000000000000E+09;-7.209557672230007E+00;1.073704257857309E+02;
1.089000000000000E+09;-7.424616726967676E+00;1.069845225221474E+02;
1.090000000000000E+09;-7.652845218763962E+00;1.067241964214169E+02;
1.091000000000000E+09;-7.898348687362970E+00;1.064232039924231E+02;
1.092000000000000E+09;-8.148192572713226E+00;1.061463130980848E+02;
1.093000000000000E+09;-8.414479919185965E+00;1.060049587593366E+02;
1.094000000000000E+09;-8.696679080451041E+00;1.058575985386472E+02;
1.095000000000000E+09;-8.984785577291948E+00;1.057784795369940E+02;
1.096000000000000E+09;-9.288419554365255E+00;1.058307278256719E+02;
1.097000000000000E+09;-9.602119412945330E+00;1.059287046857681E+02;
1.098000000000000E+09;-9.937035315773208E+00;1.060998633400464E+02;
1.099000000000000E+09;-1.028190263913461E+01;1.063774892784252E+02;
1.100000000000000E+09;-1.064324380967277E+01;1.067452577395655E+02;
1.101000000000000E+09;-1.102751129491061E+01;1.073087461993931E+02;
1.102000000000000E+09;-1.142524872435996E+01;1.080028358127394E+02;
1.103000000000000E+09;-1.183089404081502E+01;1.089243699147196E+02;
1.104000000000000E+09;-1.225436851563691E+01;1.100224712120279E+02;
1.105000000000000E+09;-1.268869248102207E+01;1.114086390471627E+02;
1.106000000000000E+09;-1.313822738329360E+01;1.130441895431139E+02;
1.107000000000000E+09;-1.359621973860997E+01;1.151348122116914E+02;
1.108000000000000E+09;-1.403304805288556E+01;1.175924270450061E+02;
1.109000000000000E+09;-1.446258258880308E+01;1.204237394754543E+02;
1.110000000000000E+09;-1.485985113874199E+01;1.237361057190264E+02;
1.111000000000000E+09;-1.518574708762069E+01;1.275700933974153E+02;
1.112000000000000E+09;-1.545217653213666E+01;1.316653935379316E+02;
1.113000000000000E+09;-1.566347861590609E+01;1.360824980188864E+02;
1.114000000000000E+09;-1.575976609660182E+01;1.405962258840727E+02;
1.115000000000000E+09;-1.576472391621082E+01;1.453251206252665E+02;
1.116000000000000E+09;-1.568954976718327E+01;1.499320337862678E+02;
1.117000000000000E+09;-1.551379970439506E+01;1.543292622375774E+02;
1.118000000000000E+09;-1.523963921434326E+01;1.584595029913816E+02;
1.119000000000000E+09;-1.490529546203023E+01;1.621864261326773E+02;
1.120000000000000E+09;-1.452317450732984E+01;1.653497998699583E+02;
1.121000000000000E+09;-1.410381748457130E+01;1.681169455353232E+02;
1.122000000000000E+09;-1.366017294695166E+01;1.704910102781445E+02;
1.123000000000000E+09;-1.320802671765933E+01;1.723353030465811E+02;
1.124000000000000E+09;-1.275911312068207E+01;1.738057089980618E+02;
1.125000000000000E+09;-1.233190226842032E+01;1.749803872725243E+02;
1.126000000000000E+09;-1.189948792862427E+01;1.758693002074990E+02;
1.127000000000000E+09;-1.148237222450704E+01;1.764698177083512E+02;
1.128000000000000E+09;-1.108241823449069E+01;1.768848131077638E+02;
1.129000000000000E+09;-1.069658184341104E+01;1.770910624203775E+02;
1.130000000000000E+09;-1.032396787738117E+01;1.771655689387110E+02;
1.131000000000000E+09;-9.974720592008431E+00;1.770864304727457E+02;
1.132000000000000E+09;-9.632485717914319E+00;1.768453622728569E+02;
1.133000000000000E+09;-9.304693369763713E+00;1.765347089112222E+02;
1.134000000000000E+09;-8.989929322165834E+00;1.761309522543725E+02;
1.135000000000000E+09;-8.696400347317621E+00;1.756511882567395E+02;
1.136000000000000E+09;-8.412263834829103E+00;1.751403792217541E+02;
1.137000000000000E+09;-8.131491395444632E+00;1.745626019514473E+02;
1.138000000000000E+09;-7.864035503003288E+00;1.739188281604383E+02;
1.139000000000000E+09;-7.613652316164220E+00;1.732174690133587E+02;
1.140000000000000E+09;-7.369927382254790E+00;1.725583631139438E+02;
1.141000000000000E+09;-7.125073053951016E+00;1.717744761637480E+02;
1.142000000000000E+09;-6.895434821213184E+00;1.710052944955707E+02;
1.143000000000000E+09;-6.677865648602060E+00;1.702219415748091E+02;
1.144000000000000E+09;-6.460410970324705E+00;1.693759070437879E+02;
1.145000000000000E+09;-6.258203009458132E+00;1.685321626414404E+02;
1.146000000000000E+09;-6.061143412732424E+00;1.676630485179725E+02;
1.147000000000000E+09;-5.876634572640668E+00;1.667892139794147E+02;
1.148000000000000E+09;-5.694968000363988E+00;1.659461375941206E+02;
1.149000000000000E+09;-5.520076872900304E+00;1.651090240387603E+02;
1.150000000000000E+09;-5.356078815688658E+00;1.642088513061479E+02;
1.151000000000000E+09;-5.191351323117106E+00;1.633716622809644E+02;
1.152000000000000E+09;-5.032572643741517E+00;1.625245271894086E+02;
1.153000000000000E+09;-4.886312023757278E+00;1.616893050947025E+02;
1.154000000000000E+09;-4.741201837444587E+00;1.608321280926038E+02;
1.155000000000000E+09;-4.596533391631428E+00;1.600519174163759E+02;
1.156000000000000E+09;-4.460707804976490E+00;1.592171087638129E+02;
1.157000000000000E+09;-4.329719346055927E+00;1.583998341956211E+02;
1.158000000000000E+09;-4.200442336213030E+00;1.576342397680807E+02;
1.159000000000000E+09;-4.075673528575173E+00;1.568405115159747E+02;
1.160000000000000E+09;-3.962712734692131E+00;1.560724114154774E+02;
1.161000000000000E+09;-3.849925792894067E+00;1.553263471730544E+02;
1.162000000000000E+09;-3.737541644855100E+00;1.545834699501575E+02;
1.163000000000000E+09;-3.630388579714103E+00;1.538332913654674E+02;
1.164000000000000E+09;-3.526170885872097E+00;1.531174169036155E+02;
1.165000000000000E+09;-3.426732394142380E+00;1.523960291890987E+02;
1.166000000000000E+09;-3.332472677648254E+00;1.517062367850428E+02;
1.167000000000000E+09;-3.242919537945100E+00;1.510005551658892E+02;
1.168000000000000E+09;-3.157693885530386E+00;1.503349740431553E+02;
1.169000000000000E+09;-3.073204746287124E+00;1.496635972627990E+02;
1.170000000000000E+09;-2.994859924704270E+00;1.490140744146695E+02;
1.171000000000000E+09;-2.917602768786106E+00;1.483553029188336E+02;
1.172000000000000E+09;-2.847691782662058E+00;1.477246519085273E+02;
1.173000000000000E+09;-2.776994300603242E+00;1.470979436654639E+02;
1.174000000000000E+09;-2.708990500441650E+00;1.465030723738197E+02;
1.175000000000000E+09;-2.644615012999370E+00;1.458954265944907E+02;
1.176000000000000E+09;-2.586492506677062E+00;1.452688940329230E+02;
1.177000000000000E+09;-2.529806969283761E+00;1.447011089934877E+02;
1.178000000000000E+09;-2.478038816315671E+00;1.441160609051071E+02;
1.179000000000000E+09;-2.427247039722370E+00;1.435164585033332E+02;
1.180000000000000E+09;-2.382282005722095E+00;1.429811906622741E+02;
1.181000000000000E+09;-2.340365691803229E+00;1.424393556562581E+02;
1.182000000000000E+09;-2.301782486855025E+00;1.418721132074282E+02;
1.183000000000000E+09;-2.261977589492490E+00;1.413485563742881E+02;
1.184000000000000E+09;-2.228452270968492E+00;1.408183644018130E+02;
1.185000000000000E+09;-2.193308430644979E+00;1.403050869849982E+02;
1.186000000000000E+09;-2.163940253402021E+00;1.398048274211937E+02;
1.187000000000000E+09;-2.132809541123871E+00;1.392621746142952E+02;
1.188000000000000E+09;-2.104976991625812E+00;1.387866024929953E+02;
1.189000000000000E+09;-2.076520019789085E+00;1.382640326101703E+02;
1.190000000000000E+09;-2.057904631356438E+00;1.377613889085194E+02;
1.191000000000000E+09;-2.034326528702860E+00;1.372477757443179E+02;
1.192000000000000E+09;-2.012573527518148E+00;1.367584503269244E+02;
1.193000000000000E+09;-1.996531920780586E+00;1.362640076681815E+02;
1.194000000000000E+09;-1.981385751347733E+00;1.357356887439747E+02;
1.195000000000000E+09;-1.968035604458354E+00;1.352535220837331E+02;
1.196000000000000E+09;-1.952968868266411E+00;1.347658182260146E+02;
1.197000000000000E+09;-1.942372448010736E+00;1.342390744862628E+02;
1.198000000000000E+09;-1.931010309945762E+00;1.337097860161599E+02;
1.199000000000000E+09;-1.922754922862561E+00;1.332038178710645E+02;
1.200000000000000E+09;-1.913264853799172E+00;1.327085409787460E+02;
1.201000000000000E+09;-1.909519431934082E+00;1.321645180338315E+02;
1.202000000000000E+09;-1.903330861852399E+00;1.316207333005596E+02;
1.203000000000000E+09;-1.902322938939500E+00;1.311159736090202E+02;
1.204000000000000E+09;-1.895813677452542E+00;1.305800237848386E+02;
1.205000000000000E+09;-1.892649503212410E+00;1.300390087042115E+02;
1.206000000000000E+09;-1.893849669490300E+00;1.295051212918093E+02;
1.207000000000000E+09;-1.894012341577992E+00;1.289691993095139E+02;
1.208000000000000E+09;-1.893852289450357E+00;1.284006117319123E+02;
1.209000000000000E+09;-1.896829609523193E+00;1.278478941980814E+02;
1.210000000000000E+09;-1.898566620205340E+00;1.273140205570987E+02;
1.211000000000000E+09;-1.901212337216778E+00;1.267523937748267E+02;
1.212000000000000E+09;-1.903828214682554E+00;1.262127859476306E+02;
1.213000000000000E+09;-1.906309905040084E+00;1.256089814445214E+02;
1.214000000000000E+09;-1.908062616439155E+00;1.250753799547585E+02;
1.215000000000000E+09;-1.910554744200644E+00;1.244986050795136E+02;
1.216000000000000E+09;-1.911704559917615E+00;1.239079102279467E+02;
1.217000000000000E+09;-1.914915260861975E+00;1.233375557557431E+02;
1.218000000000000E+09;-1.914935432992218E+00;1.227541497477682E+02;
1.219000000000000E+09;-1.919738867055054E+00;1.221731502172248E+02;
1.220000000000000E+09;-1.918537361748706E+00;1.215526920433307E+02;
1.221000000000000E+09;-1.917099399703275E+00;1.209591901772263E+02;
1.222000000000000E+09;-1.920991221046737E+00;1.203670392789779E+02;
1.223000000000000E+09;-1.919614751737477E+00;1.197732883120729E+02;
1.224000000000000E+09;-1.919409988699720E+00;1.191475735366209E+02;
1.225000000000000E+09;-1.919310046901228E+00;1.185462559110165E+02;
1.226000000000000E+09;-1.921106777010827E+00;1.179564665498628E+02;
1.227000000000000E+09;-1.919531076675205E+00;1.173396359228860E+02;
1.228000000000000E+09;-1.917748899367592E+00;1.167576940790274E+02;
1.229000000000000E+09;-1.915210815224292E+00;1.161752709813320E+02;
1.230000000000000E+09;-1.912217953680437E+00;1.155905292265170E+02;
1.231000000000000E+09;-1.905090293716041E+00;1.149923634790514E+02;
1.232000000000000E+09;-1.902640036186193E+00;1.144035932067256E+02;
1.233000000000000E+09;-1.897550085332114E+00;1.138362010321827E+02;
1.234000000000000E+09;-1.888707053546452E+00;1.132325488669396E+02;
1.235000000000000E+09;-1.883794528679843E+00;1.126696798788611E+02;
1.236000000000000E+09;-1.873945572635045E+00;1.121197583240777E+02;
1.237000000000000E+09;-1.866399459031092E+00;1.115620944100554E+02;
1.238000000000000E+09;-1.857888109290835E+00;1.110246468393167E+02;
1.239000000000000E+09;-1.845519139744116E+00;1.104774496928383E+02;
1.240000000000000E+09;-1.832913562240647E+00;1.099609502103393E+02;
1.241000000000000E+09;-1.822806652263693E+00;1.094292943229068E+02;
1.242000000000000E+09;-1.811957303286771E+00;1.089252797043692E+02;
1.243000000000000E+09;-1.797950327955359E+00;1.084157703687650E+02;
1.244000000000000E+09;-1.776871362407971E+00;1.079591068679495E+02;
1.245000000000000E+09;-1.762857092305137E+00;1.074812422540115E+02;
1.246000000000000E+09;-1.747593694196044E+00;1.069732719723177E+02;
1.247000000000000E+09;-1.726624361281248E+00;1.065035746381513E+02;
1.248000000000000E+09;-1.710952194929906E+00;1.060430432142206E+02;
1.249000000000000E+09;-1.688479552089390E+00;1.055680201157923E+02;
1.250000000000000E+09;-1.669960997357043E+00;1.050886282689396E+02;
1.251000000000000E+09;-1.650435055710349E+00;1.046196960334113E+02;
1.252000000000000E+09;-1.633163516797288E+00;1.042172055294433E+02;
1.253000000000000E+09;-1.609242109812367E+00;1.037880650846198E+02;
1.254000000000000E+09;-1.591387414162024E+00;1.033409499885311E+02;
1.255000000000000E+09;-1.570891678615122E+00;1.029175933809742E+02;
1.256000000000000E+09;-1.554736945721817E+00;1.024845401705120E+02;
1.257000000000000E+09;-1.537753607088089E+00;1.021017862982609E+02;
1.258000000000000E+09;-1.516114267039179E+00;1.016903591076320E+02;
1.259000000000000E+09;-1.498160569871337E+00;1.012646549859672E+02;
1.260000000000000E+09;-1.477002302378294E+00;1.008575854894536E+02;
1.261000000000000E+09;-1.464448577317756E+00;1.005108644694038E+02;
1.262000000000000E+09;-1.449429039298807E+00;1.001149296078135E+02;
1.263000000000000E+09;-1.428373653436270E+00;9.974569157731591E+01;
1.264000000000000E+09;-1.413091399872908E+00;9.932281153070308E+01;
1.265000000000000E+09;-1.399381762411543E+00;9.896589440641749E+01;
1.266000000000000E+09;-1.385584956257421E+00;9.861746224916783E+01;
1.267000000000000E+09;-1.373433335116791E+00;9.822458101587736E+01;
1.268000000000000E+09;-1.359286345968098E+00;9.784857607914620E+01;
1.269000000000000E+09;-1.346316940614902E+00;9.748027845268739E+01;
1.270000000000000E+09;-1.336291700266301E+00;9.712802253027084E+01;
1.271000000000000E+09;-1.322735834678630E+00;9.675557086922441E+01;
1.272000000000000E+09;-1.315549991570086E+00;9.637033207799394E+01;
1.273000000000000E+09;-1.308174325210258E+00;9.602461346956547E+01;
1.274000000000000E+09;-1.300633880741133E+00;9.564876489812632E+01;
1.275000000000000E+09;-1.292243836317465E+00;9.530010590420788E+01;
1.276000000000000E+09;-1.286072380846929E+00;9.491742054431094E+01;
1.277000000000000E+09;-1.279882044197888E+00;9.456683673149749E+01;
1.278000000000000E+09;-1.278093117966783E+00;9.417728808493042E+01;
1.279000000000000E+09;-1.270548580563872E+00;9.381065640218186E+01;
1.280000000000000E+09;-1.266715039162281E+00;9.347847213870494E+01;
1.281000000000000E+09;-1.265567633819208E+00;9.306359417546921E+01;
1.282000000000000E+09;-1.266162151726144E+00;9.269519346099565E+01;
1.283000000000000E+09;-1.262460807435346E+00;9.227102963534199E+01;
1.284000000000000E+09;-1.258089005604893E+00;9.190281914529167E+01;
1.285000000000000E+09;-1.262177617115463E+00;9.151805035998996E+01;
1.286000000000000E+09;-1.265412959348243E+00;9.113214250272662E+01;
1.287000000000000E+09;-1.267650968267326E+00;9.069443703006839E+01;
1.288000000000000E+09;-1.270416104951014E+00;9.028431801436270E+01;
1.289000000000000E+09;-1.269348603995038E+00;8.988074519454322E+01;
1.290000000000000E+09;-1.277328281072123E+00;8.948233603251842E+01;
1.291000000000000E+09;-1.279896391611595E+00;8.904468003238890E+01;
1.292000000000000E+09;-1.286331640629185E+00;8.860040485498858E+01;
