# Version 1.00
#
freq[Hz];db:Trc4_S11;ang:Trc4_S11;
1.000000000000000E+09;-1.365639953563059E+00;1.575983514874813E+02;
1.001000000000000E+09;-1.390457605139496E+00;1.571607843965322E+02;
1.002000000000000E+09;-1.414521874411787E+00;1.567213491391194E+02;
1.003000000000000E+09;-1.438916952748356E+00;1.562507866268015E+02;
1.004000000000000E+09;-1.468690299635578E+00;1.557833685406012E+02;
1.005000000000000E+09;-1.494140506803501E+00;1.553608521878612E+02;
1.006000000000000E+09;-1.525063493908837E+00;1.548554893761726E+02;
1.007000000000000E+09;-1.558281061425179E+00;1.543552624598695E+02;
1.008000000000000E+09;-1.586903601659204E+00;1.538860895593612E+02;
1.009000000000000E+09;-1.619828447854506E+00;1.533876231014182E+02;
1.010000000000000E+09;-1.653540818634948E+00;1.528551363108584E+02;
1.011000000000000E+09;-1.695183160698036E+00;1.523098688134818E+02;
1.012000000000000E+09;-1.728445517558217E+00;1.517660385136029E+02;
1.013000000000000E+09;-1.765379025352374E+00;1.512236451293905E+02;
1.014000000000000E+09;-1.804698624000180E+00;1.506437065128990E+02;
1.015000000000000E+09;-1.848933253674934E+00;1.500730205505316E+02;
1.016000000000000E+09;-1.889033338372673E+00;1.494798315734906E+02;
1.017000000000000E+09;-1.929886635276186E+00;1.488663730381152E+02;
1.018000000000000E+09;-1.979428643405202E+00;1.482495314517020E+02;
1.019000000000000E+09;-2.026541236138432E+00;1.476347152479962E+02;
1.020000000000000E+09;-2.075421013882928E+00;1.469994675258750E+02;
1.021000000000000E+09;-2.123262193064315E+00;1.463542705702822E+02;
1.022000000000000E+09;-2.173659210644719E+00;1.457022530343789E+02;
1.023000000000000E+09;-2.228863381049844E+00;1.450404923113953E+02;
1.024000000000000E+09;-2.284489024946193E+00;1.443842831752192E+02;
1.025000000000000E+09;-2.341172396785297E+00;1.437087166637093E+02;
1.026000000000000E+09;-2.396737174873671E+00;1.430243616038924E+02;
1.027000000000000E+09;-2.450374473209980E+00;1.423621060948059E+02;
1.028000000000000E+09;-2.509145903191452E+00;1.416641514359677E+02;
1.029000000000000E+09;-2.567251398138019E+00;1.409914870255029E+02;
1.030000000000000E+09;-2.628181239249653E+00;1.403111106891309E+02;
1.031000000000000E+09;-2.688064991640911E+00;1.396007778051251E+02;
1.032000000000000E+09;-2.746116216002706E+00;1.389329129034183E+02;
1.033000000000000E+09;-2.806671975637507E+00;1.382267921385829E+02;
1.034000000000000E+09;-2.867924785605924E+00;1.375609498430596E+02;
1.035000000000000E+09;-2.926727993043902E+00;1.368731189193239E+02;
1.036000000000000E+09;-2.986760180792141E+00;1.361940285088466E+02;
1.037000000000000E+09;-3.047139415506002E+00;1.354979652637339E+02;
1.038000000000000E+09;-3.103601694329235E+00;1.348713811357790E+02;
1.039000000000000E+09;-3.166205998026633E+00;1.341915168749320E+02;
1.040000000000000E+09;-3.218317051773882E+00;1.335086999084440E+02;
1.041000000000000E+09;-3.281589218502842E+00;1.328590491356424E+02;
1.042000000000000E+09;-3.339335210372758E+00;1.321854365873946E+02;
1.043000000000000E+09;-3.398361349049282E+00;1.315218720416949E+02;
1.044000000000000E+09;-3.451885759091119E+00;1.308493764464114E+02;
1.045000000000000E+09;-3.509235824354418E+00;1.302734748001818E+02;
1.046000000000000E+09;-3.558276190412722E+00;1.295990311781593E+02;
1.047000000000000E+09;-3.613388147782271E+00;1.289613811957831E+02;
1.048000000000000E+09;-3.669545760143002E+00;1.283130446139364E+02;
1.049000000000000E+09;-3.716683543655767E+00;1.277052515606258E+02;
1.050000000000000E+09;-3.775566146129043E+00;1.270937480451114E+02;
1.051000000000000E+09;-3.827543712614399E+00;1.264954275635187E+02;
1.052000000000000E+09;-3.880286230612536E+00;1.258920062028166E+02;
1.053000000000000E+09;-3.930520756971686E+00;1.253206306930861E+02;
1.054000000000000E+09;-3.983949545271310E+00;1.246776782030679E+02;
1.055000000000000E+09;-4.028806698234729E+00;1.241080894902792E+02;
1.056000000000000E+09;-4.087144653499329E+00;1.235352604918327E+02;
1.057000000000000E+09;-4.137302449652004E+00;1.229689429001858E+02;
1.058000000000000E+09;-4.188709025414735E+00;1.223894896623505E+02;
1.059000000000000E+09;-4.243094364492158E+00;1.218332703989588E+02;
1.060000000000000E+09;-4.296490220848931E+00;1.212703770253234E+02;
1.061000000000000E+09;-4.348130490672788E+00;1.207121533242941E+02;
1.062000000000000E+09;-4.405057176123505E+00;1.201301631809441E+02;
1.063000000000000E+09;-4.462111700424575E+00;1.196042069083995E+02;
1.064000000000000E+09;-4.516985367061167E+00;1.190719328636489E+02;
1.065000000000000E+09;-4.581199109984798E+00;1.184975645954950E+02;
1.066000000000000E+09;-4.645604311637152E+00;1.179408524181584E+02;
1.067000000000000E+09;-4.708321162329489E+00;1.174081524178982E+02;
1.068000000000000E+09;-4.777594054445467E+00;1.168772005079511E+02;
1.069000000000000E+09;-4.847502803201056E+00;1.162946256915165E+02;
1.070000000000000E+09;-4.920393461980995E+00;1.157492017736613E+02;
1.071000000000000E+09;-4.997539961335066E+00;1.152214013600317E+02;
1.072000000000000E+09;-5.081475653930669E+00;1.146604013194404E+02;
1.073000000000000E+09;-5.167072451561312E+00;1.141198305241642E+02;
1.074000000000000E+09;-5.252120319704606E+00;1.135914914225781E+02;
1.075000000000000E+09;-5.351654095241948E+00;1.130499721914682E+02;
1.076000000000000E+09;-5.447950360094157E+00;1.124569258950243E+02;
1.077000000000000E+09;-5.555876342916315E+00;1.118718401795592E+02;
1.078000000000000E+09;-5.668978561508604E+00;1.113543753515965E+02;
1.079000000000000E+09;-5.789752813813521E+00;1.107991133885244E+02;
1.080000000000000E+09;-5.916518473655442E+00;1.102489653652472E+02;
1.081000000000000E+09;-6.055055697886225E+00;1.096877524321259E+02;
1.082000000000000E+09;-6.191842024166379E+00;1.091650799097152E+02;
1.083000000000000E+09;-6.342645423620345E+00;1.086546157832240E+02;
1.084000000000000E+09;-6.506440648771247E+00;1.081054683607276E+02;
1.085000000000000E+09;-6.672694907209847E+00;1.075937229202497E+02;
1.086000000000000E+09;-6.856625693427394E+00;1.071497134742564E+02;
1.087000000000000E+09;-7.045403432389722E+00;1.066639402540379E+02;
1.088000000000000E+09;-7.238281068389605E+00;1.061953441748169E+02;
1.089000000000000E+09;-7.457675389169292E+00;1.057839257293319E+02;
1.090000000000000E+09;-7.677789607657887E+00;1.054133952662881E+02;
1.091000000000000E+09;-7.908183282828966E+00;1.050440391370445E+02;
1.092000000000000E+09;-8.157054377579080E+00;1.047363013916485E+02;
1.093000000000000E+09;-8.405978534756036E+00;1.044986345330546E+02;
1.094000000000000E+09;-8.675035255959635E+00;1.042180764249902E+02;
1.095000000000000E+09;-8.960527373078833E+00;1.039599216292836E+02;
1.096000000000000E+09;-9.255530862622876E+00;1.038706837533504E+02;
1.097000000000000E+09;-9.566999835434052E+00;1.037765700808754E+02;
1.098000000000000E+09;-9.896730930241995E+00;1.037889143721155E+02;
1.099000000000000E+09;-1.024734221922359E+01;1.039131889628555E+02;
1.100000000000000E+09;-1.061067767419414E+01;1.041022847836376E+02;
1.101000000000000E+09;-1.099353587110104E+01;1.044639187972251E+02;
1.102000000000000E+09;-1.140101132929630E+01;1.049705758279942E+02;
1.103000000000000E+09;-1.181587957496774E+01;1.056934281805015E+02;
1.104000000000000E+09;-1.225279445401026E+01;1.066373041743602E+02;
1.105000000000000E+09;-1.269519642821299E+01;1.078351279998623E+02;
1.106000000000000E+09;-1.315321599675835E+01;1.093072651719058E+02;
1.107000000000000E+09;-1.361227721476183E+01;1.111061720558508E+02;
1.108000000000000E+09;-1.406032902575640E+01;1.132948028310457E+02;
1.109000000000000E+09;-1.451041707576444E+01;1.157869831834442E+02;
1.110000000000000E+09;-1.493784843882974E+01;1.187857081505257E+02;
1.111000000000000E+09;-1.532321011611128E+01;1.222305576358113E+02;
1.112000000000000E+09;-1.564685855469250E+01;1.260302816396215E+02;
1.113000000000000E+09;-1.594372862626746E+01;1.301232562963423E+02;
1.114000000000000E+09;-1.612932733983230E+01;1.345936895252190E+02;
1.115000000000000E+09;-1.623874035077265E+01;1.393605192831472E+02;
1.116000000000000E+09;-1.625808419485593E+01;1.440702924652391E+02;
1.117000000000000E+09;-1.615957222678490E+01;1.487839561370977E+02;
1.118000000000000E+09;-1.595996269667801E+01;1.533225714884582E+02;
1.119000000000000E+09;-1.568807162608208E+01;1.575556466785071E+02;
1.120000000000000E+09;-1.534913401205070E+01;1.612179611164685E+02;
1.121000000000000E+09;-1.494193581608201E+01;1.644477956997779E+02;
1.122000000000000E+09;-1.451432197551939E+01;1.673264403322883E+02;
1.123000000000000E+09;-1.406323223888448E+01;1.696420762073676E+02;
1.124000000000000E+09;-1.360842613365820E+01;1.715831599430065E+02;
1.125000000000000E+09;-1.315957074993866E+01;1.731635261241824E+02;
1.126000000000000E+09;-1.269837413079070E+01;1.744151661910455E+02;
1.127000000000000E+09;-1.225572063133975E+01;1.753141335358443E+02;
1.128000000000000E+09;-1.181895191389673E+01;1.760649399041502E+02;
1.129000000000000E+09;-1.138773439253101E+01;1.765034615009239E+02;
1.130000000000000E+09;-1.097691001120263E+01;1.767510413681729E+02;
1.131000000000000E+09;-1.058165273020931E+01;1.767746002492245E+02;
1.132000000000000E+09;-1.019833777543292E+01;1.766411133633076E+02;
1.133000000000000E+09;-9.838615602543943E+00;1.763724399331560E+02;
1.134000000000000E+09;-9.490960858450229E+00;1.759903691784502E+02;
1.135000000000000E+09;-9.166323527585112E+00;1.755169141530360E+02;
1.136000000000000E+09;-8.851165986414028E+00;1.749667581145828E+02;
1.137000000000000E+09;-8.555218085046469E+00;1.744131896027449E+02;
1.138000000000000E+09;-8.262884533237237E+00;1.737656096889550E+02;
1.139000000000000E+09;-8.000286293188788E+00;1.730767862829923E+02;
1.140000000000000E+09;-7.734526933109670E+00;1.723828121784429E+02;
1.141000000000000E+09;-7.472918792193822E+00;1.716147865269478E+02;
1.142000000000000E+09;-7.232284062757691E+00;1.708071207172495E+02;
1.143000000000000E+09;-6.995029338836513E+00;1.700308476855783E+02;
1.144000000000000E+09;-6.765003037194766E+00;1.692111164069642E+02;
1.145000000000000E+09;-6.546132046269317E+00;1.683452016754501E+02;
1.146000000000000E+09;-6.335737145676767E+00;1.674688112347219E+02;
1.147000000000000E+09;-6.138082822809502E+00;1.665860105225774E+02;
1.148000000000000E+09;-5.944208027765282E+00;1.657278445999821E+02;
1.149000000000000E+09;-5.757108316042476E+00;1.649128621575149E+02;
1.150000000000000E+09;-5.573372182019720E+00;1.640039652586768E+02;
1.151000000000000E+09;-5.395244467846374E+00;1.631433192437330E+02;
1.152000000000000E+09;-5.228717455097308E+00;1.622944705822906E+02;
1.153000000000000E+09;-5.069865399803936E+00;1.614274762739283E+02;
1.154000000000000E+09;-4.909810257021777E+00;1.605751728562633E+02;
1.155000000000000E+09;-4.761952457053732E+00;1.597482284759632E+02;
1.156000000000000E+09;-4.617225428154877E+00;1.589215425383389E+02;
1.157000000000000E+09;-4.479375754266956E+00;1.580711842183473E+02;
1.158000000000000E+09;-4.345872943341439E+00;1.572718929430744E+02;
1.159000000000000E+09;-4.215538012091661E+00;1.564978169239898E+02;
1.160000000000000E+09;-4.093780391747860E+00;1.557020251280960E+02;
1.161000000000000E+09;-3.974035892323581E+00;1.549186943720275E+02;
1.162000000000000E+09;-3.858035959202523E+00;1.541836639691592E+02;
1.163000000000000E+09;-3.747982440231003E+00;1.534219817111789E+02;
1.164000000000000E+09;-3.641820651698961E+00;1.527082253866195E+02;
1.165000000000000E+09;-3.539996560346769E+00;1.519844898236425E+02;
1.166000000000000E+09;-3.442303863411119E+00;1.512925045673882E+02;
1.167000000000000E+09;-3.347638961472741E+00;1.506107955286804E+02;
1.168000000000000E+09;-3.259097005896525E+00;1.499245469286346E+02;
1.169000000000000E+09;-3.170701157003993E+00;1.492790077928256E+02;
1.170000000000000E+09;-3.088415593458869E+00;1.486353992337243E+02;
1.171000000000000E+09;-3.007765656379278E+00;1.479839092791505E+02;
1.172000000000000E+09;-2.932411229882837E+00;1.473613599704653E+02;
1.173000000000000E+09;-2.861537604930073E+00;1.467426197014821E+02;
1.174000000000000E+09;-2.789939753233635E+00;1.461400075299835E+02;
1.175000000000000E+09;-2.726956840364964E+00;1.455434156545911E+02;
1.176000000000000E+09;-2.665684309761289E+00;1.449376843108774E+02;
1.177000000000000E+09;-2.603370920106292E+00;1.443901860996034E+02;
1.178000000000000E+09;-2.547923462913650E+00;1.438322402945148E+02;
1.179000000000000E+09;-2.493503918237855E+00;1.432463063476432E+02;
1.180000000000000E+09;-2.444379742834240E+00;1.427115471860282E+02;
1.181000000000000E+09;-2.395020640606000E+00;1.421759967461459E+02;
1.182000000000000E+09;-2.351537369118611E+00;1.416346953158535E+02;
1.183000000000000E+09;-2.309764207646369E+00;1.411060970170663E+02;
1.184000000000000E+09;-2.266502220840007E+00;1.405826690844001E+02;
1.185000000000000E+09;-2.233012491655595E+00;1.400664897195583E+02;
1.186000000000000E+09;-2.197540082636280E+00;1.395428602042556E+02;
1.187000000000000E+09;-2.165621413235115E+00;1.390215792476185E+02;
1.188000000000000E+09;-2.134697489991127E+00;1.384939459728295E+02;
1.189000000000000E+09;-2.104491138897883E+00;1.380046934813388E+02;
1.190000000000000E+09;-2.083195338557005E+00;1.374950270622962E+02;
1.191000000000000E+09;-2.056271119154217E+00;1.369962637045734E+02;
1.192000000000000E+09;-2.037077736496240E+00;1.364966796463964E+02;
1.193000000000000E+09;-2.016058269156451E+00;1.360040456601146E+02;
1.194000000000000E+09;-1.999736173863463E+00;1.354795144808637E+02;
1.195000000000000E+09;-1.983137386257487E+00;1.349980874261620E+02;
1.196000000000000E+09;-1.969049556450433E+00;1.344837249713324E+02;
1.197000000000000E+09;-1.958346396213716E+00;1.339567017544283E+02;
1.198000000000000E+09;-1.943828472353772E+00;1.334317629422535E+02;
1.199000000000000E+09;-1.933447269755503E+00;1.329415634327204E+02;
1.200000000000000E+09;-1.922379914852215E+00;1.324178670944121E+02;
1.201000000000000E+09;-1.917959677626778E+00;1.318840239858449E+02;
1.202000000000000E+09;-1.911707849426144E+00;1.313606849116000E+02;
1.203000000000000E+09;-1.909247588861526E+00;1.308312216235367E+02;
1.204000000000000E+09;-1.905717827894241E+00;1.302976859190807E+02;
1.205000000000000E+09;-1.903056458955012E+00;1.297557521186554E+02;
1.206000000000000E+09;-1.905521054341135E+00;1.292241932674675E+02;
1.207000000000000E+09;-1.903155681858457E+00;1.286821316278677E+02;
1.208000000000000E+09;-1.903882237304118E+00;1.281327609233591E+02;
1.209000000000000E+09;-1.904495402457244E+00;1.275709426109645E+02;
1.210000000000000E+09;-1.905417407682325E+00;1.270294778385592E+02;
1.211000000000000E+09;-1.907802768001730E+00;1.264796531188517E+02;
1.212000000000000E+09;-1.910143282138370E+00;1.259238274846402E+02;
1.213000000000000E+09;-1.910120883232039E+00;1.253033936596080E+02;
1.214000000000000E+09;-1.912585923553372E+00;1.247501521061571E+02;
1.215000000000000E+09;-1.911227220836589E+00;1.241616797297482E+02;
1.216000000000000E+09;-1.914818351024877E+00;1.235674525855423E+02;
1.217000000000000E+09;-1.917046796506167E+00;1.229667907556324E+02;
1.218000000000000E+09;-1.920819355455037E+00;1.223675322662929E+02;
1.219000000000000E+09;-1.927910432101049E+00;1.217571627689761E+02;
1.220000000000000E+09;-1.928709662153035E+00;1.211513773233170E+02;
1.221000000000000E+09;-1.930472311955072E+00;1.205490581624153E+02;
1.222000000000000E+09;-1.937732044969596E+00;1.199322138916126E+02;
1.223000000000000E+09;-1.938039041634120E+00;1.193372643109852E+02;
1.224000000000000E+09;-1.940935999758522E+00;1.186814289865393E+02;
1.225000000000000E+09;-1.945374307986343E+00;1.180913059071144E+02;
1.226000000000000E+09;-1.944285437265725E+00;1.174770525570703E+02;
1.227000000000000E+09;-1.947724942568064E+00;1.168379817519666E+02;
1.228000000000000E+09;-1.952024854197631E+00;1.162504993346263E+02;
1.229000000000000E+09;-1.953175892376113E+00;1.156274309814918E+02;
1.230000000000000E+09;-1.958398966067534E+00;1.150589640678523E+02;
1.231000000000000E+09;-1.955313484505604E+00;1.144131685982469E+02;
1.232000000000000E+09;-1.953466864077588E+00;1.138593875024956E+02;
1.233000000000000E+09;-1.954444529969598E+00;1.132772249100362E+02;
1.234000000000000E+09;-1.951306658233504E+00;1.126656122867036E+02;
1.235000000000000E+09;-1.950576487563100E+00;1.121171684824654E+02;
1.236000000000000E+09;-1.946174926816998E+00;1.115525260061056E+02;
1.237000000000000E+09;-1.936923738837512E+00;1.109879695045607E+02;
1.238000000000000E+09;-1.932902358522448E+00;1.104556021096182E+02;
1.239000000000000E+09;-1.925952959893285E+00;1.098836076633832E+02;
1.240000000000000E+09;-1.918924522497762E+00;1.093643594618554E+02;
1.241000000000000E+09;-1.913153292616584E+00;1.088092560733526E+02;
1.242000000000000E+09;-1.907656401862683E+00;1.083015220757830E+02;
1.243000000000000E+09;-1.896682481000920E+00;1.077933664885721E+02;
1.244000000000000E+09;-1.881359360921875E+00;1.072972320490476E+02;
1.245000000000000E+09;-1.871955476575710E+00;1.067874871669817E+02;
1.246000000000000E+09;-1.861309510661129E+00;1.063061958307139E+02;
1.247000000000000E+09;-1.845722708469264E+00;1.058239977892301E+02;
1.248000000000000E+09;-1.836759947860410E+00;1.053506397821347E+02;
1.249000000000000E+09;-1.820896022904942E+00;1.048815836129327E+02;
1.250000000000000E+09;-1.808136961894533E+00;1.044245248632621E+02;
1.251000000000000E+09;-1.794421618392029E+00;1.039825011002254E+02;
1.252000000000000E+09;-1.778217633207577E+00;1.035811667417204E+02;
1.253000000000000E+09;-1.764421147691566E+00;1.031567663671832E+02;
1.254000000000000E+09;-1.748807256697714E+00;1.027171672032237E+02;
1.255000000000000E+09;-1.731721415373583E+00;1.022919137487975E+02;
1.256000000000000E+09;-1.716891469433396E+00;1.018706204825109E+02;
1.257000000000000E+09;-1.702119258326535E+00;1.015090722547272E+02;
1.258000000000000E+09;-1.682386024227893E+00;1.010968072582939E+02;
1.259000000000000E+09;-1.669042367094101E+00;1.006785148271847E+02;
1.260000000000000E+09;-1.652431922242696E+00;1.002746032049254E+02;
1.261000000000000E+09;-1.641228954513144E+00;9.991633857592841E+01;
1.262000000000000E+09;-1.626985345743450E+00;9.953108855530704E+01;
1.263000000000000E+09;-1.608317694512311E+00;9.916592928459140E+01;
1.264000000000000E+09;-1.594034283858198E+00;9.875355384384329E+01;
1.265000000000000E+09;-1.582619311894436E+00;9.838481832926604E+01;
1.266000000000000E+09;-1.571759764347749E+00;9.803418177463794E+01;
1.267000000000000E+09;-1.559195172088414E+00;9.764531247101240E+01;
1.268000000000000E+09;-1.547232047493849E+00;9.727259983690750E+01;
1.269000000000000E+09;-1.536888289588035E+00;9.689207543578598E+01;
1.270000000000000E+09;-1.528500272575042E+00;9.653887490702259E+01;
1.271000000000000E+09;-1.516465434836448E+00;9.619391415643858E+01;
1.272000000000000E+09;-1.510872627213504E+00;9.581000690165553E+01;
1.273000000000000E+09;-1.504131801163286E+00;9.544115406805157E+01;
1.274000000000000E+09;-1.493512140413016E+00;9.506620990491653E+01;
1.275000000000000E+09;-1.487175407498573E+00;9.470574403293134E+01;
1.276000000000000E+09;-1.477740151445361E+00;9.434368790448426E+01;
1.277000000000000E+09;-1.474851574728087E+00;9.396573506731444E+01;
1.278000000000000E+09;-1.473346782602418E+00;9.358883128643576E+01;
1.279000000000000E+09;-1.465828332711371E+00;9.320880944046404E+01;
1.280000000000000E+09;-1.461579314399172E+00;9.285034861791517E+01;
1.281000000000000E+09;-1.461989394327912E+00;9.245827209332266E+01;
1.282000000000000E+09;-1.462989418937027E+00;9.204664171877199E+01;
1.283000000000000E+09;-1.458646706078098E+00;9.163325324343150E+01;
1.284000000000000E+09;-1.458737827344915E+00;9.128538847405555E+01;
1.285000000000000E+09;-1.462221433150471E+00;9.089113370661050E+01;
1.286000000000000E+09;-1.463892489133328E+00;9.045223827228762E+01;
1.287000000000000E+09;-1.464268906867233E+00;9.005397747535976E+01;
1.288000000000000E+09;-1.465091086347205E+00;8.963361591567063E+01;
1.289000000000000E+09;-1.468422872621863E+00;8.921684048555539E+01;
1.290000000000000E+09;-1.472164572845891E+00;8.879702513503614E+01;
1.291000000000000E+09;-1.477503449134448E+00;8.834596366696566E+01;
1.292000000000000E+09;-1.480744694938295E+00;8.793017750932808E+01;
