# Version 1.00
#
freq[Hz];db:Trc4_S11;ang:Trc4_S11;
1.000000000000000E+09;-1.326192268835608E+00;1.576937179331905E+02;
1.001000000000000E+09;-1.351151197792109E+00;1.572442055147571E+02;
1.002000000000000E+09;-1.379821383750135E+00;1.568045421969649E+02;
1.003000000000000E+09;-1.403553603490720E+00;1.563155506695530E+02;
1.004000000000000E+09;-1.433575553018724E+00;1.558415809317863E+02;
1.005000000000000E+09;-1.459442754428281E+00;1.553953165654950E+02;
1.006000000000000E+09;-1.490169145565796E+00;1.549068429869569E+02;
1.007000000000000E+09;-1.521465169021024E+00;1.544028768601218E+02;
1.008000000000000E+09;-1.558025192248057E+00;1.539165318541384E+02;
1.009000000000000E+09;-1.590047788230454E+00;1.534163305491407E+02;
1.010000000000000E+09;-1.621894957443961E+00;1.528802793151372E+02;
1.011000000000000E+09;-1.663457913254194E+00;1.523409879986631E+02;
1.012000000000000E+09;-1.700133560500377E+00;1.517931720022136E+02;
1.013000000000000E+09;-1.734309410854298E+00;1.512564923845184E+02;
1.014000000000000E+09;-1.777849131004425E+00;1.506800013031604E+02;
1.015000000000000E+09;-1.820197303192994E+00;1.501298235599062E+02;
1.016000000000000E+09;-1.861308084697911E+00;1.495459754270855E+02;
1.017000000000000E+09;-1.903321462301182E+00;1.489431932905813E+02;
1.018000000000000E+09;-1.950719992738856E+00;1.483417552167585E+02;
1.019000000000000E+09;-1.996781808496403E+00;1.477396706548987E+02;
1.020000000000000E+09;-2.043191379973816E+00;1.471270602426630E+02;
1.021000000000000E+09;-2.090496688175322E+00;1.464982053568793E+02;
1.022000000000000E+09;-2.138795836594117E+00;1.458650753106601E+02;
1.023000000000000E+09;-2.192147214604115E+00;1.452263344140434E+02;
1.024000000000000E+09;-2.242604415876427E+00;1.445975144131357E+02;
1.025000000000000E+09;-2.295484200360484E+00;1.439256328363226E+02;
1.026000000000000E+09;-2.351969951677761E+00;1.432716658179228E+02;
1.027000000000000E+09;-2.402877785650008E+00;1.426527183474728E+02;
1.028000000000000E+09;-2.456326022045574E+00;1.419425498548494E+02;
1.029000000000000E+09;-2.512894337033884E+00;1.413070671192615E+02;
1.030000000000000E+09;-2.565325991299087E+00;1.406317391950943E+02;
1.031000000000000E+09;-2.625634388660505E+00;1.399487472999107E+02;
1.032000000000000E+09;-2.682070059666693E+00;1.392878779965230E+02;
1.033000000000000E+09;-2.734721684734826E+00;1.386277059702553E+02;
1.034000000000000E+09;-2.792002955808518E+00;1.379725692265062E+02;
1.035000000000000E+09;-2.849414155995520E+00;1.373410245187512E+02;
1.036000000000000E+09;-2.904585397702184E+00;1.366563750606877E+02;
1.037000000000000E+09;-2.961430958889122E+00;1.359825323184373E+02;
1.038000000000000E+09;-3.015606838193590E+00;1.353655862760034E+02;
1.039000000000000E+09;-3.066339129328484E+00;1.347320024010319E+02;
1.040000000000000E+09;-3.119045334443515E+00;1.340745066176432E+02;
1.041000000000000E+09;-3.171859567177898E+00;1.334569837502126E+02;
1.042000000000000E+09;-3.227252849696849E+00;1.328282822302840E+02;
1.043000000000000E+09;-3.279864078996242E+00;1.321853073096246E+02;
1.044000000000000E+09;-3.328170660152105E+00;1.315457077348950E+02;
1.045000000000000E+09;-3.380565969537670E+00;1.309617755348278E+02;
1.046000000000000E+09;-3.425106973461681E+00;1.303500948008747E+02;
1.047000000000000E+09;-3.478072657436033E+00;1.297357186123214E+02;
1.048000000000000E+09;-3.526999704485292E+00;1.291358429762072E+02;
1.049000000000000E+09;-3.574062539899435E+00;1.285545131420675E+02;
1.050000000000000E+09;-3.624495902698498E+00;1.279480723415947E+02;
1.051000000000000E+09;-3.670796466571141E+00;1.274057332545893E+02;
1.052000000000000E+09;-3.719551203496025E+00;1.268368826274302E+02;
1.053000000000000E+09;-3.766832186770477E+00;1.262739451286934E+02;
1.054000000000000E+09;-3.814678804017821E+00;1.256666568268173E+02;
1.055000000000000E+09;-3.853197642393677E+00;1.251315065751616E+02;
1.056000000000000E+09;-3.905240025378958E+00;1.246152614224160E+02;
1.057000000000000E+09;-3.950666242026391E+00;1.240544443925269E+02;
1.058000000000000E+09;-3.998853764703172E+00;1.235033532049616E+02;
1.059000000000000E+09;-4.050997215786448E+00;1.229762370699984E+02;
1.060000000000000E+09;-4.098105663729772E+00;1.224242168035902E+02;
1.061000000000000E+09;-4.152230114712322E+00;1.218960375069742E+02;
1.062000000000000E+09;-4.206270027838017E+00;1.213325933784519E+02;
1.063000000000000E+09;-4.260162723894434E+00;1.208460709694068E+02;
1.064000000000000E+09;-4.312460461097653E+00;1.203456707325824E+02;
1.065000000000000E+09;-4.373081814680244E+00;1.198180105846429E+02;
1.066000000000000E+09;-4.432055253571010E+00;1.192959594096053E+02;
1.067000000000000E+09;-4.492773063411347E+00;1.187700107564782E+02;
1.068000000000000E+09;-4.558974267247483E+00;1.182918462807001E+02;
1.069000000000000E+09;-4.626228175411084E+00;1.177593352804724E+02;
1.070000000000000E+09;-4.696668009272817E+00;1.172351142379349E+02;
1.071000000000000E+09;-4.772407785357641E+00;1.167473052895899E+02;
1.072000000000000E+09;-4.849219269379179E+00;1.162174854355620E+02;
1.073000000000000E+09;-4.933209334196407E+00;1.156715679217348E+02;
1.074000000000000E+09;-5.021868655938192E+00;1.151693142093701E+02;
1.075000000000000E+09;-5.115380163975765E+00;1.146654266839582E+02;
1.076000000000000E+09;-5.214679387178615E+00;1.141734236068462E+02;
1.077000000000000E+09;-5.322960128812983E+00;1.136061136513742E+02;
1.078000000000000E+09;-5.428490095445984E+00;1.131543010847405E+02;
1.079000000000000E+09;-5.547632023851248E+00;1.126301501028622E+02;
1.080000000000000E+09;-5.671933031031614E+00;1.121413558720976E+02;
1.081000000000000E+09;-5.805744390514342E+00;1.116423579460590E+02;
1.082000000000000E+09;-5.941713176675014E+00;1.111967790728994E+02;
1.083000000000000E+09;-6.088829485427805E+00;1.107193847592962E+02;
1.084000000000000E+09;-6.245668974395670E+00;1.102282309056008E+02;
1.085000000000000E+09;-6.402136136598617E+00;1.097684547540498E+02;
1.086000000000000E+09;-6.578688959880983E+00;1.093920541721541E+02;
1.087000000000000E+09;-6.759012637908115E+00;1.089768185588969E+02;
1.088000000000000E+09;-6.944089563517384E+00;1.085539264872326E+02;
1.089000000000000E+09;-7.143342654532724E+00;1.081907077799215E+02;
1.090000000000000E+09;-7.351827590361822E+00;1.078520234775090E+02;
1.091000000000000E+09;-7.568653680996605E+00;1.074948613900838E+02;
1.092000000000000E+09;-7.801290810546842E+00;1.071889318389688E+02;
1.093000000000000E+09;-8.046961372841926E+00;1.069122521258140E+02;
1.094000000000000E+09;-8.308169792722238E+00;1.066705791512263E+02;
1.095000000000000E+09;-8.581615007675472E+00;1.064730054481503E+02;
1.096000000000000E+09;-8.868088617403428E+00;1.063448578365242E+02;
1.097000000000000E+09;-9.168912271572953E+00;1.062995919815139E+02;
1.098000000000000E+09;-9.493116961058158E+00;1.062990706761341E+02;
1.099000000000000E+09;-9.831030787409169E+00;1.064448781362166E+02;
1.100000000000000E+09;-1.018758687030287E+01;1.066779427253733E+02;
1.101000000000000E+09;-1.055363948151813E+01;1.070822874859558E+02;
1.102000000000000E+09;-1.093777901264701E+01;1.075594832845407E+02;
1.103000000000000E+09;-1.133713768429274E+01;1.083198938267927E+02;
1.104000000000000E+09;-1.175689413156327E+01;1.092375946466921E+02;
1.105000000000000E+09;-1.218457508763205E+01;1.103487711449133E+02;
1.106000000000000E+09;-1.262152405436055E+01;1.117974723509605E+02;
1.107000000000000E+09;-1.306451268507436E+01;1.135711879807529E+02;
1.108000000000000E+09;-1.349141502066309E+01;1.156758911461535E+02;
1.109000000000000E+09;-1.392890924988841E+01;1.181117824335537E+02;
1.110000000000000E+09;-1.433855156764293E+01;1.209506022369236E+02;
1.111000000000000E+09;-1.471527265112530E+01;1.243039622492665E+02;
1.112000000000000E+09;-1.503326374166140E+01;1.280343756258834E+02;
1.113000000000000E+09;-1.530024912624478E+01;1.320593119874873E+02;
1.114000000000000E+09;-1.547006281639506E+01;1.363616383100597E+02;
1.115000000000000E+09;-1.554789251380269E+01;1.409311764598937E+02;
1.116000000000000E+09;-1.554635313994448E+01;1.454380380241583E+02;
1.117000000000000E+09;-1.544411549323947E+01;1.498410944436614E+02;
1.118000000000000E+09;-1.525307140478618E+01;1.540293639785072E+02;
1.119000000000000E+09;-1.498283331410416E+01;1.579118618978736E+02;
1.120000000000000E+09;-1.466872151141532E+01;1.613164080892051E+02;
1.121000000000000E+09;-1.429398019325824E+01;1.643593561767404E+02;
1.122000000000000E+09;-1.390024610936247E+01;1.670027737108904E+02;
1.123000000000000E+09;-1.347835361491443E+01;1.691416855057867E+02;
1.124000000000000E+09;-1.306187731786444E+01;1.709550501941371E+02;
1.125000000000000E+09;-1.264586050422749E+01;1.724450681569018E+02;
1.126000000000000E+09;-1.221200838741069E+01;1.736864031039748E+02;
1.127000000000000E+09;-1.180175929333482E+01;1.746103835462726E+02;
1.128000000000000E+09;-1.138950993335650E+01;1.752959946040392E+02;
1.129000000000000E+09;-1.099581235485752E+01;1.757329405036527E+02;
1.130000000000000E+09;-1.060542687548212E+01;1.759809009551630E+02;
1.131000000000000E+09;-1.023890780481251E+01;1.760035493739319E+02;
1.132000000000000E+09;-9.885476375262769E+00;1.759091181930947E+02;
1.133000000000000E+09;-9.550245860528095E+00;1.756641199868587E+02;
1.134000000000000E+09;-9.225165402007576E+00;1.753430932969808E+02;
1.135000000000000E+09;-8.926631786101529E+00;1.750267077802134E+02;
1.136000000000000E+09;-8.628821709360109E+00;1.745345047560774E+02;
1.137000000000000E+09;-8.338196127604954E+00;1.740517753250608E+02;
1.138000000000000E+09;-8.058719589216940E+00;1.734736566303354E+02;
1.139000000000000E+09;-7.799316408661795E+00;1.728652871622656E+02;
1.140000000000000E+09;-7.537788149781130E+00;1.722028766987433E+02;
1.141000000000000E+09;-7.287753388255918E+00;1.714989211752207E+02;
1.142000000000000E+09;-7.050327831152030E+00;1.707035815904412E+02;
1.143000000000000E+09;-6.821457566647950E+00;1.699349399481234E+02;
1.144000000000000E+09;-6.596302972398480E+00;1.691264593409159E+02;
1.145000000000000E+09;-6.384932322417443E+00;1.683505959780085E+02;
1.146000000000000E+09;-6.182750422687434E+00;1.674898073492717E+02;
1.147000000000000E+09;-5.986044437322480E+00;1.666236241280641E+02;
1.148000000000000E+09;-5.796339684954360E+00;1.657858313264173E+02;
1.149000000000000E+09;-5.618133780539953E+00;1.649484366476162E+02;
1.150000000000000E+09;-5.440630323197054E+00;1.640559973046173E+02;
1.151000000000000E+09;-5.271090724639911E+00;1.632127794188926E+02;
1.152000000000000E+09;-5.113001669059880E+00;1.623312971193660E+02;
1.153000000000000E+09;-4.957883629518781E+00;1.614927360103839E+02;
1.154000000000000E+09;-4.806255460091458E+00;1.606671036672562E+02;
1.155000000000000E+09;-4.663176479617134E+00;1.598366471923277E+02;
1.156000000000000E+09;-4.523618603105609E+00;1.590125410263120E+02;
1.157000000000000E+09;-4.388023365893395E+00;1.581840679107508E+02;
1.158000000000000E+09;-4.260251660720197E+00;1.573921809536864E+02;
1.159000000000000E+09;-4.138120580765555E+00;1.566191930757659E+02;
1.160000000000000E+09;-4.019557131785249E+00;1.558491656301115E+02;
1.161000000000000E+09;-3.906415293367329E+00;1.550951070555299E+02;
1.162000000000000E+09;-3.797042580236571E+00;1.543512688163014E+02;
1.163000000000000E+09;-3.692768409232059E+00;1.536287005684887E+02;
1.164000000000000E+09;-3.586713418695058E+00;1.529325207440631E+02;
1.165000000000000E+09;-3.487813256114587E+00;1.522133247896300E+02;
1.166000000000000E+09;-3.392121452371248E+00;1.515474362783245E+02;
1.167000000000000E+09;-3.297795210693440E+00;1.508593485750298E+02;
1.168000000000000E+09;-3.209530629250359E+00;1.502050317973315E+02;
1.169000000000000E+09;-3.122701927262417E+00;1.495441774693780E+02;
1.170000000000000E+09;-3.044124069742476E+00;1.489140290729897E+02;
1.171000000000000E+09;-2.962838922892704E+00;1.482666830827906E+02;
1.172000000000000E+09;-2.888271057355707E+00;1.476371285890847E+02;
1.173000000000000E+09;-2.816592808042342E+00;1.470170813159612E+02;
1.174000000000000E+09;-2.747290097337330E+00;1.464294433440089E+02;
1.175000000000000E+09;-2.683404356480393E+00;1.458281040336648E+02;
1.176000000000000E+09;-2.621446939110837E+00;1.452121024220093E+02;
1.177000000000000E+09;-2.564088012295145E+00;1.446514950996915E+02;
1.178000000000000E+09;-2.506978209297032E+00;1.440808723578087E+02;
1.179000000000000E+09;-2.457236514911626E+00;1.434824449480617E+02;
1.180000000000000E+09;-2.409580608414409E+00;1.429513331346963E+02;
1.181000000000000E+09;-2.360321791066706E+00;1.423996703196150E+02;
1.182000000000000E+09;-2.316180927645338E+00;1.418766719039754E+02;
1.183000000000000E+09;-2.275546738537555E+00;1.413206916650175E+02;
1.184000000000000E+09;-2.233476525314914E+00;1.407990498273304E+02;
1.185000000000000E+09;-2.198412772278236E+00;1.402927409732566E+02;
1.186000000000000E+09;-2.161327494374176E+00;1.397494432369095E+02;
1.187000000000000E+09;-2.127502849174893E+00;1.392023756793791E+02;
1.188000000000000E+09;-2.097337578888365E+00;1.386958367585553E+02;
1.189000000000000E+09;-2.069188848898492E+00;1.381538772064909E+02;
1.190000000000000E+09;-2.046029203248796E+00;1.376294655913823E+02;
1.191000000000000E+09;-2.021241431565165E+00;1.370885407438710E+02;
1.192000000000000E+09;-1.998588637686887E+00;1.365749122749728E+02;
1.193000000000000E+09;-1.982060757421506E+00;1.360825837855892E+02;
1.194000000000000E+09;-1.963731488286326E+00;1.355254084935791E+02;
1.195000000000000E+09;-1.946241637178785E+00;1.350277226845047E+02;
1.196000000000000E+09;-1.936489566584873E+00;1.344983746186702E+02;
1.197000000000000E+09;-1.924036454499545E+00;1.339405965503587E+02;
1.198000000000000E+09;-1.912658579694758E+00;1.334033465128425E+02;
1.199000000000000E+09;-1.904059036395842E+00;1.329213002168950E+02;
1.200000000000000E+09;-1.898392655613569E+00;1.323709855133665E+02;
1.201000000000000E+09;-1.891636397918329E+00;1.318259742058019E+02;
1.202000000000000E+09;-1.887466430947262E+00;1.312714395510754E+02;
1.203000000000000E+09;-1.882259284527623E+00;1.307231017835569E+02;
1.204000000000000E+09;-1.881604159740442E+00;1.301711014049675E+02;
1.205000000000000E+09;-1.879073749742184E+00;1.296445583867053E+02;
1.206000000000000E+09;-1.882182006901735E+00;1.290723964819224E+02;
1.207000000000000E+09;-1.884728814815140E+00;1.285448903912346E+02;
1.208000000000000E+09;-1.885253393284787E+00;1.279832330711206E+02;
1.209000000000000E+09;-1.888758075982952E+00;1.274264159636195E+02;
1.210000000000000E+09;-1.890563972589758E+00;1.268766216974193E+02;
1.211000000000000E+09;-1.895896119962295E+00;1.263025914192716E+02;
1.212000000000000E+09;-1.897928466332521E+00;1.257418403245878E+02;
1.213000000000000E+09;-1.902794128388226E+00;1.251441928083779E+02;
1.214000000000000E+09;-1.904538715026725E+00;1.246062012522293E+02;
1.215000000000000E+09;-1.907520029149120E+00;1.240298788665959E+02;
1.216000000000000E+09;-1.912064442279114E+00;1.234279258025681E+02;
1.217000000000000E+09;-1.914161899568845E+00;1.228553401093314E+02;
1.218000000000000E+09;-1.914645523885437E+00;1.222752516344523E+02;
1.219000000000000E+09;-1.921768323796379E+00;1.216872077821478E+02;
1.220000000000000E+09;-1.919380799826742E+00;1.210795501619469E+02;
1.221000000000000E+09;-1.924640916423923E+00;1.205018707460587E+02;
1.222000000000000E+09;-1.925305262262746E+00;1.199193420083698E+02;
1.223000000000000E+09;-1.921841077846031E+00;1.193229934969165E+02;
1.224000000000000E+09;-1.922538964275760E+00;1.187061577808373E+02;
1.225000000000000E+09;-1.923881185253656E+00;1.181326795636563E+02;
1.226000000000000E+09;-1.920776892460664E+00;1.175385365824572E+02;
1.227000000000000E+09;-1.920563338105414E+00;1.169212373103224E+02;
1.228000000000000E+09;-1.916731932213982E+00;1.163562902437923E+02;
1.229000000000000E+09;-1.913175555311593E+00;1.157629871476010E+02;
1.230000000000000E+09;-1.912162847862314E+00;1.151810268506672E+02;
1.231000000000000E+09;-1.905321974266414E+00;1.145756729088533E+02;
1.232000000000000E+09;-1.902015833645029E+00;1.140011086232465E+02;
1.233000000000000E+09;-1.896906831652509E+00;1.134563110966051E+02;
1.234000000000000E+09;-1.891093874371606E+00;1.128724403085761E+02;
1.235000000000000E+09;-1.883047821265173E+00;1.123109908017079E+02;
1.236000000000000E+09;-1.870255058943916E+00;1.117672180244785E+02;
1.237000000000000E+09;-1.858339587874799E+00;1.112352306446776E+02;
1.238000000000000E+09;-1.851986393848871E+00;1.107075256654810E+02;
1.239000000000000E+09;-1.836022167315299E+00;1.101771355600766E+02;
1.240000000000000E+09;-1.822204679756397E+00;1.096416700303970E+02;
1.241000000000000E+09;-1.813263356414700E+00;1.091178764700546E+02;
1.242000000000000E+09;-1.799830411573443E+00;1.086279711510618E+02;
1.243000000000000E+09;-1.781961977876141E+00;1.080977585583895E+02;
1.244000000000000E+09;-1.760831797855278E+00;1.076579812279220E+02;
1.245000000000000E+09;-1.746663485977523E+00;1.071661640039217E+02;
1.246000000000000E+09;-1.728776885830270E+00;1.066921136607610E+02;
1.247000000000000E+09;-1.704893466743763E+00;1.062344955069160E+02;
1.248000000000000E+09;-1.688904239596297E+00;1.057531658728774E+02;
1.249000000000000E+09;-1.667249683816686E+00;1.053054542798068E+02;
1.250000000000000E+09;-1.647581364613548E+00;1.048475713111446E+02;
1.251000000000000E+09;-1.627916130584894E+00;1.044121837872600E+02;
1.252000000000000E+09;-1.606724016865568E+00;1.040086538990217E+02;
1.253000000000000E+09;-1.586398733408036E+00;1.035996110680482E+02;
1.254000000000000E+09;-1.566757064438133E+00;1.031492223066870E+02;
1.255000000000000E+09;-1.543095464236895E+00;1.027190822194742E+02;
1.256000000000000E+09;-1.523138540751348E+00;1.023256224396603E+02;
1.257000000000000E+09;-1.501195242902081E+00;1.019425579385256E+02;
1.258000000000000E+09;-1.479790996161843E+00;1.015473552985390E+02;
1.259000000000000E+09;-1.458347913115022E+00;1.011323988723740E+02;
1.260000000000000E+09;-1.437603471989923E+00;1.007351890549125E+02;
1.261000000000000E+09;-1.420019511003774E+00;1.003687315746976E+02;
1.262000000000000E+09;-1.403393525071108E+00;9.998294221997928E+01;
1.263000000000000E+09;-1.380896350994353E+00;9.961072899531155E+01;
1.264000000000000E+09;-1.363949563738734E+00;9.919596106317846E+01;
1.265000000000000E+09;-1.346625463724395E+00;9.884268334054387E+01;
1.266000000000000E+09;-1.330948977833335E+00;9.849698622996539E+01;
1.267000000000000E+09;-1.314525122722902E+00;9.809534854288380E+01;
1.268000000000000E+09;-1.300420996533989E+00;9.773593963465197E+01;
1.269000000000000E+09;-1.288254620821163E+00;9.734291030632895E+01;
1.270000000000000E+09;-1.273330441029774E+00;9.699597604029074E+01;
1.271000000000000E+09;-1.262739323136568E+00;9.663429311895692E+01;
1.272000000000000E+09;-1.250717253322123E+00;9.624100899374069E+01;
1.273000000000000E+09;-1.242326650778521E+00;9.587332575823176E+01;
1.274000000000000E+09;-1.232660201393847E+00;9.550772041388332E+01;
1.275000000000000E+09;-1.229411057030010E+00;9.514899406217901E+01;
1.276000000000000E+09;-1.219381442646124E+00;9.477029934955262E+01;
1.277000000000000E+09;-1.213566301618423E+00;9.438788471356074E+01;
1.278000000000000E+09;-1.209896683572580E+00;9.403304051087565E+01;
1.279000000000000E+09;-1.203593001470131E+00;9.364965411839658E+01;
1.280000000000000E+09;-1.201914940071948E+00;9.330228104196193E+01;
1.281000000000000E+09;-1.197206117650369E+00;9.291374358299421E+01;
1.282000000000000E+09;-1.199496472128484E+00;9.251990737051855E+01;
1.283000000000000E+09;-1.197967610252764E+00;9.212617435881651E+01;
1.284000000000000E+09;-1.192413065028271E+00;9.175174639384129E+01;
1.285000000000000E+09;-1.197862496736643E+00;9.136664055332643E+01;
1.286000000000000E+09;-1.198254964882088E+00;9.095174404770214E+01;
1.287000000000000E+09;-1.200594830402137E+00;9.055586733408259E+01;
1.288000000000000E+09;-1.200841425177432E+00;9.011646126353155E+01;
1.289000000000000E+09;-1.202110735129918E+00;8.971162316320012E+01;
1.290000000000000E+09;-1.211804148859069E+00;8.929279399411604E+01;
1.291000000000000E+09;-1.211711763162302E+00;8.887273441069686E+01;
1.292000000000000E+09;-1.216935010281779E+00;8.843008159089929E+01;
