# Version 1.00
#
freq[Hz];db:Trc4_S11;ang:Trc4_S11;
1.000000000000000E+09;-1.329237779162636E+00;1.579884393190426E+02;
1.001000000000000E+09;-1.352128985935426E+00;1.575668929799088E+02;
1.002000000000000E+09;-1.380071762619967E+00;1.571349603207761E+02;
1.003000000000000E+09;-1.403272937793741E+00;1.566575363988723E+02;
1.004000000000000E+09;-1.431208002708423E+00;1.561981276477260E+02;
1.005000000000000E+09;-1.458416635868579E+00;1.557581827770694E+02;
1.006000000000000E+09;-1.485497499012560E+00;1.552595964852250E+02;
1.007000000000000E+09;-1.518289505285470E+00;1.547606805581953E+02;
1.008000000000000E+09;-1.552812850920384E+00;1.542870865129943E+02;
1.009000000000000E+09;-1.583957205343752E+00;1.537956673096561E+02;
1.010000000000000E+09;-1.615793262179888E+00;1.532724906881178E+02;
1.011000000000000E+09;-1.654202827164745E+00;1.527134609890424E+02;
1.012000000000000E+09;-1.691113334348604E+00;1.521842514252731E+02;
1.013000000000000E+09;-1.726958603402675E+00;1.516307635832772E+02;
1.014000000000000E+09;-1.767436870799293E+00;1.510563671857810E+02;
1.015000000000000E+09;-1.809119593777614E+00;1.504853291661430E+02;
1.016000000000000E+09;-1.851133652434224E+00;1.499049145042141E+02;
1.017000000000000E+09;-1.892981101987992E+00;1.492822825165768E+02;
1.018000000000000E+09;-1.937876159776265E+00;1.486603111023647E+02;
1.019000000000000E+09;-1.989328854482002E+00;1.480401746855124E+02;
1.020000000000000E+09;-2.034927977101626E+00;1.474331139228028E+02;
1.021000000000000E+09;-2.081792118371252E+00;1.467697697253130E+02;
1.022000000000000E+09;-2.131802562110204E+00;1.461240553028461E+02;
1.023000000000000E+09;-2.188239642763730E+00;1.454579557859585E+02;
1.024000000000000E+09;-2.241493911779256E+00;1.448003713438926E+02;
1.025000000000000E+09;-2.298032017236252E+00;1.441390481661340E+02;
1.026000000000000E+09;-2.353079414428689E+00;1.434403088806187E+02;
1.027000000000000E+09;-2.408023091293187E+00;1.427949011120236E+02;
1.028000000000000E+09;-2.466389970774272E+00;1.420929569096040E+02;
1.029000000000000E+09;-2.522470275006143E+00;1.414296023127314E+02;
1.030000000000000E+09;-2.580792263921809E+00;1.407364437272380E+02;
1.031000000000000E+09;-2.640268856587762E+00;1.400600031253150E+02;
1.032000000000000E+09;-2.701591270048143E+00;1.393672516111017E+02;
1.033000000000000E+09;-2.756709635732224E+00;1.386709251753256E+02;
1.034000000000000E+09;-2.816584092247800E+00;1.379935391028289E+02;
1.035000000000000E+09;-2.873486977799339E+00;1.373329736817735E+02;
1.036000000000000E+09;-2.932257756010444E+00;1.366546641999268E+02;
1.037000000000000E+09;-2.987247129021169E+00;1.359533106604746E+02;
1.038000000000000E+09;-3.043301888416623E+00;1.352918638026209E+02;
1.039000000000000E+09;-3.101659436591378E+00;1.346129246455077E+02;
1.040000000000000E+09;-3.154804228263060E+00;1.339341248649584E+02;
1.041000000000000E+09;-3.215973973664012E+00;1.332905684349947E+02;
1.042000000000000E+09;-3.265887414438196E+00;1.326130036102281E+02;
1.043000000000000E+09;-3.325392846873302E+00;1.319295676980123E+02;
1.044000000000000E+09;-3.381182308846688E+00;1.312835027836966E+02;
1.045000000000000E+09;-3.436441736673288E+00;1.306563659673563E+02;
1.046000000000000E+09;-3.487394454589174E+00;1.300340590331834E+02;
1.047000000000000E+09;-3.540116042355011E+00;1.293714637948707E+02;
1.048000000000000E+09;-3.592517177067073E+00;1.287408557777998E+02;
1.049000000000000E+09;-3.642344754375351E+00;1.281429059313791E+02;
1.050000000000000E+09;-3.696962668765029E+00;1.275315784194337E+02;
1.051000000000000E+09;-3.745636779192432E+00;1.269389002636357E+02;
1.052000000000000E+09;-3.797384878649550E+00;1.263405423405737E+02;
1.053000000000000E+09;-3.847603848264516E+00;1.257405559265741E+02;
1.054000000000000E+09;-3.898434643624386E+00;1.251245251203034E+02;
1.055000000000000E+09;-3.939770685983060E+00;1.245420661519270E+02;
1.056000000000000E+09;-3.992993729245787E+00;1.239792887477437E+02;
1.057000000000000E+09;-4.040973326468699E+00;1.234112630803808E+02;
1.058000000000000E+09;-4.094641212191642E+00;1.228039819248456E+02;
1.059000000000000E+09;-4.148646361612784E+00;1.222552348741399E+02;
1.060000000000000E+09;-4.199374962892438E+00;1.216845800483565E+02;
1.061000000000000E+09;-4.252053688739752E+00;1.211336416689328E+02;
1.062000000000000E+09;-4.305603205926544E+00;1.205463477361151E+02;
1.063000000000000E+09;-4.360387705288062E+00;1.200282445346703E+02;
1.064000000000000E+09;-4.415507619068496E+00;1.194725967968188E+02;
1.065000000000000E+09;-4.478309890187447E+00;1.189123969234081E+02;
1.066000000000000E+09;-4.538600422120473E+00;1.183515851827253E+02;
1.067000000000000E+09;-4.602243804964107E+00;1.178058965657329E+02;
1.068000000000000E+09;-4.673368824629594E+00;1.172824996273737E+02;
1.069000000000000E+09;-4.743373872979814E+00;1.166980559350231E+02;
1.070000000000000E+09;-4.819545928882805E+00;1.161387793113764E+02;
1.071000000000000E+09;-4.896632603836062E+00;1.156050245832853E+02;
1.072000000000000E+09;-4.978830750266427E+00;1.150930492992131E+02;
1.073000000000000E+09;-5.067533744212267E+00;1.145415162492480E+02;
1.074000000000000E+09;-5.161177440552418E+00;1.140371452087469E+02;
1.075000000000000E+09;-5.256372245797665E+00;1.135082689026514E+02;
1.076000000000000E+09;-5.357750502609568E+00;1.130046140841575E+02;
1.077000000000000E+09;-5.461732007995401E+00;1.124440232649346E+02;
1.078000000000000E+09;-5.572776650033681E+00;1.119559492477630E+02;
1.079000000000000E+09;-5.687076874760423E+00;1.114225634062579E+02;
1.080000000000000E+09;-5.812109725814580E+00;1.109145384587826E+02;
1.081000000000000E+09;-5.940119888314865E+00;1.103825797650734E+02;
1.082000000000000E+09;-6.079979807831966E+00;1.098813903021797E+02;
1.083000000000000E+09;-6.223405853628428E+00;1.093897518314722E+02;
1.084000000000000E+09;-6.389114033784563E+00;1.088811935333671E+02;
1.085000000000000E+09;-6.541429097637442E+00;1.083623711867958E+02;
1.086000000000000E+09;-6.714121783374877E+00;1.079610438903211E+02;
1.087000000000000E+09;-6.895717552614766E+00;1.075312698117970E+02;
1.088000000000000E+09;-7.085487592524007E+00;1.070505854122033E+02;
1.089000000000000E+09;-7.281880687868940E+00;1.066614067095061E+02;
1.090000000000000E+09;-7.487713260912862E+00;1.062092167869171E+02;
1.091000000000000E+09;-7.712764739514702E+00;1.057943756213336E+02;
1.092000000000000E+09;-7.943668528283247E+00;1.054293421477175E+02;
1.093000000000000E+09;-8.187050496142440E+00;1.051071910493196E+02;
1.094000000000000E+09;-8.456114392678751E+00;1.047354059419831E+02;
1.095000000000000E+09;-8.738946676679845E+00;1.044298969315438E+02;
1.096000000000000E+09;-9.034982009998386E+00;1.042415640575818E+02;
1.097000000000000E+09;-9.355465797045342E+00;1.040970040781267E+02;
1.098000000000000E+09;-9.690345586559703E+00;1.040129981220439E+02;
1.099000000000000E+09;-1.005310218236705E+01;1.040986648350468E+02;
1.100000000000000E+09;-1.041861807424504E+01;1.042822102365155E+02;
1.101000000000000E+09;-1.081278500345784E+01;1.046326682551355E+02;
1.102000000000000E+09;-1.121752765257662E+01;1.051381294772005E+02;
1.103000000000000E+09;-1.163240125209841E+01;1.058707187772763E+02;
1.104000000000000E+09;-1.207409952390069E+01;1.067878949999955E+02;
1.105000000000000E+09;-1.252217536844494E+01;1.079286876379593E+02;
1.106000000000000E+09;-1.299604442017912E+01;1.093261048741241E+02;
1.107000000000000E+09;-1.345736134422696E+01;1.111578899065635E+02;
1.108000000000000E+09;-1.392898427854813E+01;1.132794894800289E+02;
1.109000000000000E+09;-1.440110297749758E+01;1.158346429356087E+02;
1.110000000000000E+09;-1.484486503506549E+01;1.188639854023754E+02;
1.111000000000000E+09;-1.525001251216324E+01;1.224198163027863E+02;
1.112000000000000E+09;-1.559054229392266E+01;1.264132763608015E+02;
1.113000000000000E+09;-1.587806620458960E+01;1.307453400576970E+02;
1.114000000000000E+09;-1.605690394794179E+01;1.354054590471984E+02;
1.115000000000000E+09;-1.612013682036917E+01;1.403346009603397E+02;
1.116000000000000E+09;-1.610337714764097E+01;1.449894988999788E+02;
1.117000000000000E+09;-1.598996400245354E+01;1.496053475766011E+02;
1.118000000000000E+09;-1.579230599200665E+01;1.539880218701712E+02;
1.119000000000000E+09;-1.550990006280773E+01;1.580501948889722E+02;
1.120000000000000E+09;-1.517167572251977E+01;1.616381011381978E+02;
1.121000000000000E+09;-1.478692069369528E+01;1.648554606559990E+02;
1.122000000000000E+09;-1.436476090260894E+01;1.677282604904522E+02;
1.123000000000000E+09;-1.392080135116345E+01;1.700092082582015E+02;
1.124000000000000E+09;-1.346968779665329E+01;1.719331975937360E+02;
1.125000000000000E+09;-1.302497337484766E+01;1.734992010230761E+02;
1.126000000000000E+09;-1.257316607410629E+01;1.747628605891123E+02;
1.127000000000000E+09;-1.214004538174194E+01;1.757274971171284E+02;
1.128000000000000E+09;-1.170651648532167E+01;1.764310875756474E+02;
1.129000000000000E+09;-1.128997470584571E+01;1.769156176843809E+02;
1.130000000000000E+09;-1.088380208723452E+01;1.772360690572760E+02;
1.131000000000000E+09;-1.049006905240380E+01;1.772996322915837E+02;
1.132000000000000E+09;-1.011074098619865E+01;1.772100713777688E+02;
1.133000000000000E+09;-9.749786200874059E+00;1.769879567420637E+02;
1.134000000000000E+09;-9.403004113434408E+00;1.766605087511238E+02;
1.135000000000000E+09;-9.073690644046694E+00;1.761958083499940E+02;
1.136000000000000E+09;-8.757885397602761E+00;1.756516835888352E+02;
1.137000000000000E+09;-8.455658416042818E+00;1.750642473958395E+02;
1.138000000000000E+09;-8.163768411248169E+00;1.743859134890417E+02;
1.139000000000000E+09;-7.896804819449523E+00;1.736845492411559E+02;
1.140000000000000E+09;-7.639558543862320E+00;1.729567519592551E+02;
1.141000000000000E+09;-7.389452728441524E+00;1.721927348052899E+02;
1.142000000000000E+09;-7.154598611654336E+00;1.713874350905141E+02;
1.143000000000000E+09;-6.921330915263864E+00;1.706170202331171E+02;
1.144000000000000E+09;-6.697947375720672E+00;1.698172526409877E+02;
1.145000000000000E+09;-6.480294621736395E+00;1.690136400788023E+02;
1.146000000000000E+09;-6.276368466844086E+00;1.681415249140811E+02;
1.147000000000000E+09;-6.073849274580599E+00;1.672969165021859E+02;
1.148000000000000E+09;-5.880634614740925E+00;1.664600824600711E+02;
1.149000000000000E+09;-5.690337455984800E+00;1.656016488670305E+02;
1.150000000000000E+09;-5.514159687761023E+00;1.646979489277295E+02;
1.151000000000000E+09;-5.335805442133185E+00;1.638581843831929E+02;
1.152000000000000E+09;-5.175714506734732E+00;1.629601283402556E+02;
1.153000000000000E+09;-5.021291441396885E+00;1.621023416716065E+02;
1.154000000000000E+09;-4.865860843842974E+00;1.612601218922569E+02;
1.155000000000000E+09;-4.722876509063211E+00;1.604202751468867E+02;
1.156000000000000E+09;-4.579305640881651E+00;1.596236024286438E+02;
1.157000000000000E+09;-4.446776355380945E+00;1.587866711870100E+02;
1.158000000000000E+09;-4.313505954710552E+00;1.580377902242980E+02;
1.159000000000000E+09;-4.185069190481955E+00;1.572271137770156E+02;
1.160000000000000E+09;-4.064344344519299E+00;1.564839965179342E+02;
1.161000000000000E+09;-3.945844030860234E+00;1.557210281049351E+02;
1.162000000000000E+09;-3.830826994288032E+00;1.549937530758972E+02;
1.163000000000000E+09;-3.719425579405601E+00;1.542470774879556E+02;
1.164000000000000E+09;-3.611860445012348E+00;1.535388866318535E+02;
1.165000000000000E+09;-3.507668914564167E+00;1.528227260509843E+02;
1.166000000000000E+09;-3.411160788831565E+00;1.521370265722205E+02;
1.167000000000000E+09;-3.313976151220974E+00;1.514369350945104E+02;
1.168000000000000E+09;-3.223900103819615E+00;1.507756821900893E+02;
1.169000000000000E+09;-3.137384218378090E+00;1.501085663217734E+02;
1.170000000000000E+09;-3.053987505947703E+00;1.494742776138669E+02;
1.171000000000000E+09;-2.973205487503599E+00;1.488225853581086E+02;
1.172000000000000E+09;-2.898365122845606E+00;1.481880851755475E+02;
1.173000000000000E+09;-2.827341078988571E+00;1.475607959520243E+02;
1.174000000000000E+09;-2.754693507983114E+00;1.469535989914156E+02;
1.175000000000000E+09;-2.688176773533055E+00;1.463630766729844E+02;
1.176000000000000E+09;-2.626223613700915E+00;1.457544768284527E+02;
1.177000000000000E+09;-2.566656051516824E+00;1.451815276054208E+02;
1.178000000000000E+09;-2.509133653887194E+00;1.446092457124490E+02;
1.179000000000000E+09;-2.456153833383683E+00;1.440134107080605E+02;
1.180000000000000E+09;-2.405915851893197E+00;1.434554592648982E+02;
1.181000000000000E+09;-2.357883244290012E+00;1.429262547022368E+02;
1.182000000000000E+09;-2.316763472027259E+00;1.423663217320469E+02;
1.183000000000000E+09;-2.273207059288541E+00;1.418155282552430E+02;
1.184000000000000E+09;-2.235456160803122E+00;1.412696401851523E+02;
1.185000000000000E+09;-2.201138998737843E+00;1.407531321665650E+02;
1.186000000000000E+09;-2.169706226949882E+00;1.402113617027567E+02;
1.187000000000000E+09;-2.139493759718126E+00;1.397083269888202E+02;
1.188000000000000E+09;-2.108724634366943E+00;1.392194880680023E+02;
1.189000000000000E+09;-2.082278926801359E+00;1.386994955988976E+02;
1.190000000000000E+09;-2.059138359094137E+00;1.381893380969292E+02;
1.191000000000000E+09;-2.032629959897004E+00;1.376787764262116E+02;
1.192000000000000E+09;-2.010821021531872E+00;1.371807486070060E+02;
1.193000000000000E+09;-1.995458543343474E+00;1.366978319716857E+02;
1.194000000000000E+09;-1.974361995817200E+00;1.361595095550852E+02;
1.195000000000000E+09;-1.959108069939180E+00;1.356623195042984E+02;
1.196000000000000E+09;-1.944881585581489E+00;1.351632345461976E+02;
1.197000000000000E+09;-1.932625157734728E+00;1.346171963482343E+02;
1.198000000000000E+09;-1.922587825767618E+00;1.340691196285527E+02;
1.199000000000000E+09;-1.915777270861482E+00;1.336000150179674E+02;
1.200000000000000E+09;-1.902582144791436E+00;1.330564312842034E+02;
1.201000000000000E+09;-1.902389135174598E+00;1.325206201674326E+02;
1.202000000000000E+09;-1.895924516924560E+00;1.319824981713958E+02;
1.203000000000000E+09;-1.893521923058687E+00;1.314735349216247E+02;
1.204000000000000E+09;-1.894377018147980E+00;1.309218237721269E+02;
1.205000000000000E+09;-1.891002533190772E+00;1.303848694095768E+02;
1.206000000000000E+09;-1.895297860310408E+00;1.298586995033680E+02;
1.207000000000000E+09;-1.895336047555249E+00;1.293247889201371E+02;
1.208000000000000E+09;-1.897565267139669E+00;1.287808006501935E+02;
1.209000000000000E+09;-1.897166435177806E+00;1.282421151555616E+02;
1.210000000000000E+09;-1.898403528473182E+00;1.277047431495349E+02;
1.211000000000000E+09;-1.899966411737831E+00;1.271554255343608E+02;
1.212000000000000E+09;-1.901028926976421E+00;1.266064289539933E+02;
1.213000000000000E+09;-1.901767772844428E+00;1.260042543172792E+02;
1.214000000000000E+09;-1.902527196761005E+00;1.254513445485482E+02;
1.215000000000000E+09;-1.902293342208333E+00;1.248752107278237E+02;
1.216000000000000E+09;-1.905720404204420E+00;1.242642756408073E+02;
1.217000000000000E+09;-1.909513501146314E+00;1.236725235887097E+02;
1.218000000000000E+09;-1.911053829539650E+00;1.230684298803465E+02;
1.219000000000000E+09;-1.915996702628743E+00;1.224810493957353E+02;
1.220000000000000E+09;-1.918578994867578E+00;1.218517106334159E+02;
1.221000000000000E+09;-1.920370347936146E+00;1.212604249838752E+02;
1.222000000000000E+09;-1.925271848896316E+00;1.206582956174972E+02;
1.223000000000000E+09;-1.922614009976304E+00;1.200551371482776E+02;
1.224000000000000E+09;-1.923126662511830E+00;1.194129026842370E+02;
1.225000000000000E+09;-1.927629659664430E+00;1.188258115975718E+02;
1.226000000000000E+09;-1.929574669965430E+00;1.182043403835582E+02;
1.227000000000000E+09;-1.928636620055552E+00;1.175850164574414E+02;
1.228000000000000E+09;-1.931479021080452E+00;1.169809858292732E+02;
1.229000000000000E+09;-1.930272953159679E+00;1.163734691179929E+02;
1.230000000000000E+09;-1.932443797566802E+00;1.157987131469361E+02;
1.231000000000000E+09;-1.929781794176676E+00;1.151920286503859E+02;
1.232000000000000E+09;-1.924446563160855E+00;1.145996990170429E+02;
1.233000000000000E+09;-1.921713054812976E+00;1.140422509922580E+02;
1.234000000000000E+09;-1.917821131457252E+00;1.134408224648655E+02;
1.235000000000000E+09;-1.916068685557324E+00;1.128843634699807E+02;
1.236000000000000E+09;-1.907175393530580E+00;1.123463874171803E+02;
1.237000000000000E+09;-1.898198092569254E+00;1.117321784825204E+02;
1.238000000000000E+09;-1.892657513412390E+00;1.112032640932245E+02;
1.239000000000000E+09;-1.882853156898258E+00;1.106567929667220E+02;
1.240000000000000E+09;-1.870382429517729E+00;1.100957797175550E+02;
1.241000000000000E+09;-1.860569274455900E+00;1.095467694133676E+02;
1.242000000000000E+09;-1.849513245914804E+00;1.090573961905057E+02;
1.243000000000000E+09;-1.837334808919193E+00;1.084937912373286E+02;
1.244000000000000E+09;-1.823508848046862E+00;1.080346298373728E+02;
1.245000000000000E+09;-1.811523596875670E+00;1.075148565845158E+02;
1.246000000000000E+09;-1.796445945493189E+00;1.070392675500726E+02;
1.247000000000000E+09;-1.778382459116506E+00;1.065286184502713E+02;
1.248000000000000E+09;-1.760722993506302E+00;1.060409443603975E+02;
1.249000000000000E+09;-1.743975561539608E+00;1.055974764768586E+02;
1.250000000000000E+09;-1.727042115284345E+00;1.051259833111179E+02;
1.251000000000000E+09;-1.711138380318652E+00;1.046555482827378E+02;
1.252000000000000E+09;-1.697452214254492E+00;1.042328891889352E+02;
1.253000000000000E+09;-1.678617735708238E+00;1.038100588341930E+02;
1.254000000000000E+09;-1.662783161964735E+00;1.033587005740549E+02;
1.255000000000000E+09;-1.639801288522223E+00;1.029246708295021E+02;
1.256000000000000E+09;-1.623151778360294E+00;1.025056010156059E+02;
1.257000000000000E+09;-1.609037017304200E+00;1.021029656495106E+02;
1.258000000000000E+09;-1.591676829853704E+00;1.016908669431812E+02;
1.259000000000000E+09;-1.573837688382692E+00;1.012620134025687E+02;
1.260000000000000E+09;-1.556488468807989E+00;1.008562651155419E+02;
1.261000000000000E+09;-1.542387916043106E+00;1.004853301336332E+02;
1.262000000000000E+09;-1.528710841594457E+00;1.000972337916700E+02;
1.263000000000000E+09;-1.510022958111522E+00;9.972015108029854E+01;
1.264000000000000E+09;-1.496796447018077E+00;9.930123985425706E+01;
1.265000000000000E+09;-1.482699469300913E+00;9.894124696447425E+01;
1.266000000000000E+09;-1.470176923198401E+00;9.859513308213126E+01;
1.267000000000000E+09;-1.458382782729669E+00;9.820972988944217E+01;
1.268000000000000E+09;-1.444813648100761E+00;9.782719849682135E+01;
1.269000000000000E+09;-1.432787218142220E+00;9.747082637017995E+01;
1.270000000000000E+09;-1.421918640659356E+00;9.711865334648211E+01;
1.271000000000000E+09;-1.413144132737052E+00;9.675709813603338E+01;
1.272000000000000E+09;-1.403057255271372E+00;9.637158647371871E+01;
1.273000000000000E+09;-1.395006869363179E+00;9.601573709608495E+01;
1.274000000000000E+09;-1.383024527700503E+00;9.563024567522943E+01;
1.275000000000000E+09;-1.382340246603261E+00;9.530423896573353E+01;
1.276000000000000E+09;-1.371885488746500E+00;9.491146140694086E+01;
1.277000000000000E+09;-1.365463491341379E+00;9.455288403132832E+01;
1.278000000000000E+09;-1.363963489040496E+00;9.416720853072596E+01;
1.279000000000000E+09;-1.356088567135285E+00;9.382681950225053E+01;
1.280000000000000E+09;-1.350986768506322E+00;9.346727032529881E+01;
1.281000000000000E+09;-1.349530728417564E+00;9.309451691500092E+01;
1.282000000000000E+09;-1.345754923025898E+00;9.268796903220078E+01;
1.283000000000000E+09;-1.344042704909261E+00;9.228545774523873E+01;
1.284000000000000E+09;-1.345024217103440E+00;9.191464329758783E+01;
1.285000000000000E+09;-1.343002409182017E+00;9.152680390470782E+01;
1.286000000000000E+09;-1.339283177265529E+00;9.111239181324392E+01;
1.287000000000000E+09;-1.339950117604025E+00;9.070276003573046E+01;
1.288000000000000E+09;-1.343576239511777E+00;9.027465126176590E+01;
1.289000000000000E+09;-1.342715703899513E+00;8.986878387791333E+01;
1.290000000000000E+09;-1.348857020206724E+00;8.945829507785666E+01;
1.291000000000000E+09;-1.347489734651390E+00;8.900872308004342E+01;
1.292000000000000E+09;-1.354612496839096E+00;8.857248778643331E+01;
