# Version 1.00
#
freq[Hz];db:Trc4_S11;ang:Trc4_S11;
1.000000000000000E+09;-1.304874342589708E+00;1.582332684326689E+02;
1.001000000000000E+09;-1.330295845187020E+00;1.577785221603242E+02;
1.002000000000000E+09;-1.355673660975319E+00;1.573302130844895E+02;
1.003000000000000E+09;-1.381765491278907E+00;1.568700969419985E+02;
1.004000000000000E+09;-1.406682662278934E+00;1.563878176108456E+02;
1.005000000000000E+09;-1.436030080405088E+00;1.559340447205124E+02;
1.006000000000000E+09;-1.464645927893601E+00;1.554518595056477E+02;
1.007000000000000E+09;-1.496235374343599E+00;1.549389255692712E+02;
1.008000000000000E+09;-1.529288340000550E+00;1.544693260332660E+02;
1.009000000000000E+09;-1.563662573001249E+00;1.539671195723402E+02;
1.010000000000000E+09;-1.594442580136566E+00;1.534174148963153E+02;
1.011000000000000E+09;-1.633786110695776E+00;1.528762098991562E+02;
1.012000000000000E+09;-1.667952093819264E+00;1.523374624899430E+02;
1.013000000000000E+09;-1.703794617954651E+00;1.518024715188377E+02;
1.014000000000000E+09;-1.743935197707611E+00;1.512149940511915E+02;
1.015000000000000E+09;-1.785773079011376E+00;1.506455184824175E+02;
1.016000000000000E+09;-1.827173764953081E+00;1.500460518516673E+02;
1.017000000000000E+09;-1.868277460025294E+00;1.494463062299733E+02;
1.018000000000000E+09;-1.914687604261467E+00;1.488195713688241E+02;
1.019000000000000E+09;-1.960628840145067E+00;1.481981948998964E+02;
1.020000000000000E+09;-2.006868448477787E+00;1.475813479390929E+02;
1.021000000000000E+09;-2.053886608772336E+00;1.469319858141218E+02;
1.022000000000000E+09;-2.100133862836270E+00;1.462675859916633E+02;
1.023000000000000E+09;-2.154161343185643E+00;1.456126036640354E+02;
1.024000000000000E+09;-2.206383398203487E+00;1.449612271873986E+02;
1.025000000000000E+09;-2.262604381902761E+00;1.442668943415136E+02;
1.026000000000000E+09;-2.314883055980224E+00;1.436227126161633E+02;
1.027000000000000E+09;-2.365897264320869E+00;1.429497622952786E+02;
1.028000000000000E+09;-2.421321220968065E+00;1.422406287480246E+02;
1.029000000000000E+09;-2.472404006224762E+00;1.415642582590322E+02;
1.030000000000000E+09;-2.533802040395241E+00;1.408651115048858E+02;
1.031000000000000E+09;-2.588744241185605E+00;1.401828336364798E+02;
1.032000000000000E+09;-2.646163922647300E+00;1.394793205595503E+02;
1.033000000000000E+09;-2.701233521244833E+00;1.388071935379772E+02;
1.034000000000000E+09;-2.755419962360411E+00;1.381145072769583E+02;
1.035000000000000E+09;-2.808589066807929E+00;1.374204227153924E+02;
1.036000000000000E+09;-2.864966508169930E+00;1.367360773564218E+02;
1.037000000000000E+09;-2.922726611693304E+00;1.360432569009542E+02;
1.038000000000000E+09;-2.977224740253226E+00;1.353607566474687E+02;
1.039000000000000E+09;-3.031640164416411E+00;1.346730204128282E+02;
1.040000000000000E+09;-3.087279648007406E+00;1.339755654036250E+02;
1.041000000000000E+09;-3.141688863512631E+00;1.333328241246304E+02;
1.042000000000000E+09;-3.193137526994991E+00;1.326594968247666E+02;
1.043000000000000E+09;-3.247727200900026E+00;1.319844491682289E+02;
1.044000000000000E+09;-3.296658924055037E+00;1.312931180742685E+02;
1.045000000000000E+09;-3.352488518942081E+00;1.306802986475163E+02;
1.046000000000000E+09;-3.405572855922606E+00;1.300216649785397E+02;
1.047000000000000E+09;-3.456181602890926E+00;1.293459699014856E+02;
1.048000000000000E+09;-3.504133304367248E+00;1.287063681653700E+02;
1.049000000000000E+09;-3.556199008650685E+00;1.280663052750220E+02;
1.050000000000000E+09;-3.603546770936945E+00;1.274273921547978E+02;
1.051000000000000E+09;-3.654771008496225E+00;1.267932141846736E+02;
1.052000000000000E+09;-3.704420052463738E+00;1.261769110965537E+02;
1.053000000000000E+09;-3.754557880161626E+00;1.255828880946492E+02;
1.054000000000000E+09;-3.808456786868846E+00;1.249213237156298E+02;
1.055000000000000E+09;-3.852695563242741E+00;1.243070988413943E+02;
1.056000000000000E+09;-3.908790481650190E+00;1.237321561027465E+02;
1.057000000000000E+09;-3.960149791744687E+00;1.231289723043119E+02;
1.058000000000000E+09;-4.013354450640501E+00;1.225132479852056E+02;
1.059000000000000E+09;-4.069151565129337E+00;1.219392337318836E+02;
1.060000000000000E+09;-4.126189237626667E+00;1.213475435802434E+02;
1.061000000000000E+09;-4.180015197719595E+00;1.207693328140430E+02;
1.062000000000000E+09;-4.238868050870506E+00;1.201577581150133E+02;
1.063000000000000E+09;-4.301468708888484E+00;1.196218363866931E+02;
1.064000000000000E+09;-4.359646835390905E+00;1.190635028681938E+02;
1.065000000000000E+09;-4.428016633939259E+00;1.184772273397477E+02;
1.066000000000000E+09;-4.494874456686453E+00;1.179117783637649E+02;
1.067000000000000E+09;-4.564225114688925E+00;1.173274604728857E+02;
1.068000000000000E+09;-4.641190766385423E+00;1.167774811292696E+02;
1.069000000000000E+09;-4.720210692260870E+00;1.162055790263689E+02;
1.070000000000000E+09;-4.800916494514874E+00;1.156272126841407E+02;
1.071000000000000E+09;-4.889064372824155E+00;1.150732398433815E+02;
1.072000000000000E+09;-4.979517979237830E+00;1.145494200758095E+02;
1.073000000000000E+09;-5.074096433636059E+00;1.139584397369888E+02;
1.074000000000000E+09;-5.182833450398655E+00;1.134140035472645E+02;
1.075000000000000E+09;-5.290226215151835E+00;1.128631691274841E+02;
1.076000000000000E+09;-5.402052186005742E+00;1.123724892133507E+02;
1.077000000000000E+09;-5.523519709754636E+00;1.117992163841936E+02;
1.078000000000000E+09;-5.651950720593880E+00;1.113192624604443E+02;
1.079000000000000E+09;-5.785615001132549E+00;1.108045989049660E+02;
1.080000000000000E+09;-5.930207580096722E+00;1.103360826497391E+02;
1.081000000000000E+09;-6.077825752133442E+00;1.098307396641640E+02;
1.082000000000000E+09;-6.229708010002598E+00;1.093969496394801E+02;
1.083000000000000E+09;-6.392591595724638E+00;1.089438025347738E+02;
1.084000000000000E+09;-6.568365720804072E+00;1.084571341108811E+02;
1.085000000000000E+09;-6.751106891102868E+00;1.080432142529751E+02;
1.086000000000000E+09;-6.943698139697469E+00;1.076639320496610E+02;
1.087000000000000E+09;-7.150039265459319E+00;1.072717494118332E+02;
1.088000000000000E+09;-7.367048253301779E+00;1.068515478725093E+02;
1.089000000000000E+09;-7.593017070472380E+00;1.065366247862164E+02;
1.090000000000000E+09;-7.838479896234830E+00;1.062637990990640E+02;
1.091000000000000E+09;-8.091023995734567E+00;1.060046008233734E+02;
1.092000000000000E+09;-8.358575068120675E+00;1.058618384499598E+02;
1.093000000000000E+09;-8.630991541607202E+00;1.057396467991902E+02;
1.094000000000000E+09;-8.924542843078170E+00;1.056718623724262E+02;
1.095000000000000E+09;-9.229866441681839E+00;1.056475525937681E+02;
1.096000000000000E+09;-9.551462302454196E+00;1.057760922273176E+02;
1.097000000000000E+09;-9.887397286966005E+00;1.059902867654777E+02;
1.098000000000000E+09;-1.024058071035095E+01;1.062852667009211E+02;
1.099000000000000E+09;-1.061562917622989E+01;1.067765523697577E+02;
1.100000000000000E+09;-1.099530717135463E+01;1.073951189269330E+02;
1.101000000000000E+09;-1.139222188553339E+01;1.081778408448964E+02;
1.102000000000000E+09;-1.180124572199244E+01;1.091680083336458E+02;
1.103000000000000E+09;-1.221763662874261E+01;1.104418687044211E+02;
1.104000000000000E+09;-1.265193129557573E+01;1.119197619897163E+02;
1.105000000000000E+09;-1.308479669665774E+01;1.137383748137694E+02;
1.106000000000000E+09;-1.351620235403280E+01;1.158387520692223E+02;
1.107000000000000E+09;-1.393958673891229E+01;1.184423034602962E+02;
1.108000000000000E+09;-1.432540683225404E+01;1.214259466647644E+02;
1.109000000000000E+09;-1.469250499482607E+01;1.247419578059830E+02;
1.110000000000000E+09;-1.500495914379106E+01;1.284179362774433E+02;
1.111000000000000E+09;-1.524399853364446E+01;1.325244351333858E+02;
1.112000000000000E+09;-1.540457543407214E+01;1.368280039742663E+02;
1.113000000000000E+09;-1.548924264395975E+01;1.412809082918222E+02;
1.114000000000000E+09;-1.547663676904870E+01;1.458109863863882E+02;
1.115000000000000E+09;-1.535056168598125E+01;1.503419203895550E+02;
1.116000000000000E+09;-1.515840131160781E+01;1.544638705494498E+02;
1.117000000000000E+09;-1.488431452292879E+01;1.583121713873360E+02;
1.118000000000000E+09;-1.453480379716258E+01;1.616900673199241E+02;
1.119000000000000E+09;-1.415438590526597E+01;1.646703220282928E+02;
1.120000000000000E+09;-1.375505263101103E+01;1.670534121933121E+02;
1.121000000000000E+09;-1.334104407384882E+01;1.691025464750459E+02;
1.122000000000000E+09;-1.292368838110691E+01;1.707657286716881E+02;
1.123000000000000E+09;-1.251008467680476E+01;1.721501267883801E+02;
1.124000000000000E+09;-1.209547444401901E+01;1.731934239015243E+02;
1.125000000000000E+09;-1.170391801205056E+01;1.739934621526320E+02;
1.126000000000000E+09;-1.131177884564104E+01;1.745996930004856E+02;
1.127000000000000E+09;-1.094374319973286E+01;1.750055750206201E+02;
1.128000000000000E+09;-1.058302829151650E+01;1.752172158742616E+02;
1.129000000000000E+09;-1.023663526639648E+01;1.752559404961936E+02;
1.130000000000000E+09;-9.905072367603072E+00;1.752274181928153E+02;
1.131000000000000E+09;-9.585579611702324E+00;1.749829343100091E+02;
1.132000000000000E+09;-9.282789672231367E+00;1.747212281376426E+02;
1.133000000000000E+09;-8.983738866621408E+00;1.743390082536694E+02;
1.134000000000000E+09;-8.693273493696571E+00;1.739346541156686E+02;
1.135000000000000E+09;-8.424305903807184E+00;1.734366744313590E+02;
1.136000000000000E+09;-8.161820948264033E+00;1.728408261867186E+02;
1.137000000000000E+09;-7.904945143529676E+00;1.722797935416814E+02;
1.138000000000000E+09;-7.659319216843054E+00;1.716035819191112E+02;
1.139000000000000E+09;-7.431875614973969E+00;1.709067754857200E+02;
1.140000000000000E+09;-7.203174305146418E+00;1.702508529710466E+02;
1.141000000000000E+09;-6.976520989793541E+00;1.694889324528397E+02;
1.142000000000000E+09;-6.763666592855225E+00;1.686823683773145E+02;
1.143000000000000E+09;-6.562251112435825E+00;1.679028071319503E+02;
1.144000000000000E+09;-6.360033498703917E+00;1.670702487332300E+02;
1.145000000000000E+09;-6.176853263170093E+00;1.662255277040445E+02;
1.146000000000000E+09;-5.997366524568719E+00;1.653787050139203E+02;
1.147000000000000E+09;-5.821563727203587E+00;1.645286302734332E+02;
1.148000000000000E+09;-5.659887007697808E+00;1.636853360609266E+02;
1.149000000000000E+09;-5.499724208278276E+00;1.628687732508774E+02;
1.150000000000000E+09;-5.343480307320940E+00;1.620240552912697E+02;
1.151000000000000E+09;-5.193449853606403E+00;1.612165367948550E+02;
1.152000000000000E+09;-5.050599920154408E+00;1.603539441051211E+02;
1.153000000000000E+09;-4.917850165798136E+00;1.595610505618764E+02;
1.154000000000000E+09;-4.784631574969296E+00;1.587420444195216E+02;
1.155000000000000E+09;-4.654390322245002E+00;1.579741342344479E+02;
1.156000000000000E+09;-4.526319804579462E+00;1.572033508274544E+02;
1.157000000000000E+09;-4.410327094750992E+00;1.564323771987493E+02;
1.158000000000000E+09;-4.294618123169747E+00;1.557194447575324E+02;
1.159000000000000E+09;-4.183801327003843E+00;1.549402185738535E+02;
1.160000000000000E+09;-4.076744691668128E+00;1.542437807012796E+02;
1.161000000000000E+09;-3.976117753476372E+00;1.535311115464958E+02;
1.162000000000000E+09;-3.874658460609681E+00;1.528709598622074E+02;
1.163000000000000E+09;-3.780626828696303E+00;1.522002963820873E+02;
1.164000000000000E+09;-3.684905563085539E+00;1.515390960771301E+02;
1.165000000000000E+09;-3.595361960894911E+00;1.509036289179918E+02;
1.166000000000000E+09;-3.510456141152088E+00;1.502884573019641E+02;
1.167000000000000E+09;-3.422895815977087E+00;1.496738407806366E+02;
1.168000000000000E+09;-3.341762237777175E+00;1.490536348869148E+02;
1.169000000000000E+09;-3.263725620194937E+00;1.484583994137864E+02;
1.170000000000000E+09;-3.190366560397306E+00;1.478713924754281E+02;
1.171000000000000E+09;-3.116483488321124E+00;1.472899454641037E+02;
1.172000000000000E+09;-3.049228469197599E+00;1.467176899512058E+02;
1.173000000000000E+09;-2.984887817021355E+00;1.461584221477242E+02;
1.174000000000000E+09;-2.919303458878612E+00;1.456130756755322E+02;
1.175000000000000E+09;-2.860381957410580E+00;1.450631618803722E+02;
1.176000000000000E+09;-2.805250886474131E+00;1.445045494689283E+02;
1.177000000000000E+09;-2.753842287549950E+00;1.439885683302547E+02;
1.178000000000000E+09;-2.702137510940113E+00;1.434586363663062E+02;
1.179000000000000E+09;-2.655881275225588E+00;1.429298036432504E+02;
1.180000000000000E+09;-2.614997455696624E+00;1.424303784568260E+02;
1.181000000000000E+09;-2.575530121278754E+00;1.419625822835373E+02;
1.182000000000000E+09;-2.539018247297359E+00;1.414798462026761E+02;
1.183000000000000E+09;-2.502213404361942E+00;1.410029897519397E+02;
1.184000000000000E+09;-2.470530480066467E+00;1.405386449493019E+02;
1.185000000000000E+09;-2.438719322990339E+00;1.401007738382979E+02;
1.186000000000000E+09;-2.406336064161918E+00;1.396376316989673E+02;
1.187000000000000E+09;-2.378833451063682E+00;1.391748886747502E+02;
1.188000000000000E+09;-2.351245611699803E+00;1.387360122981581E+02;
1.189000000000000E+09;-2.327876771336983E+00;1.382720242173223E+02;
1.190000000000000E+09;-2.306088130831372E+00;1.378061189612602E+02;
1.191000000000000E+09;-2.285938539559951E+00;1.373425198052702E+02;
1.192000000000000E+09;-2.267753374556122E+00;1.369030277637177E+02;
1.193000000000000E+09;-2.255935139038217E+00;1.364870545301191E+02;
1.194000000000000E+09;-2.245026395524226E+00;1.360086615628814E+02;
1.195000000000000E+09;-2.233692919252666E+00;1.355866688292076E+02;
1.196000000000000E+09;-2.223801948582657E+00;1.351730172039365E+02;
1.197000000000000E+09;-2.217950680095854E+00;1.347313795692737E+02;
1.198000000000000E+09;-2.206562037746566E+00;1.342893726677697E+02;
1.199000000000000E+09;-2.199848416464641E+00;1.339003637122925E+02;
1.200000000000000E+09;-2.190133524075100E+00;1.334775634997214E+02;
1.201000000000000E+09;-2.186658915385934E+00;1.330447959063180E+02;
1.202000000000000E+09;-2.173999903515628E+00;1.326025687124131E+02;
1.203000000000000E+09;-2.169005897734458E+00;1.321696457952219E+02;
1.204000000000000E+09;-2.163514049499654E+00;1.317263005912593E+02;
1.205000000000000E+09;-2.157135628213612E+00;1.312912669708380E+02;
1.206000000000000E+09;-2.151518644331895E+00;1.308538433727828E+02;
1.207000000000000E+09;-2.145121262474793E+00;1.303997083644000E+02;
1.208000000000000E+09;-2.138222556879594E+00;1.299271830117242E+02;
1.209000000000000E+09;-2.129535627887527E+00;1.294601886337437E+02;
1.210000000000000E+09;-2.125166525284802E+00;1.290008296670162E+02;
1.211000000000000E+09;-2.115583364787019E+00;1.285155206514195E+02;
1.212000000000000E+09;-2.106295418164064E+00;1.280446884693280E+02;
1.213000000000000E+09;-2.098005699511228E+00;1.274835859579535E+02;
1.214000000000000E+09;-2.087038303333830E+00;1.270080217466434E+02;
1.215000000000000E+09;-2.073884641483363E+00;1.264883573571740E+02;
1.216000000000000E+09;-2.064691570609411E+00;1.259458107635173E+02;
1.217000000000000E+09;-2.051181441253819E+00;1.254141139455012E+02;
1.218000000000000E+09;-2.038560174648017E+00;1.248747151275071E+02;
1.219000000000000E+09;-2.029211626057583E+00;1.242994779717246E+02;
1.220000000000000E+09;-2.012338211733564E+00;1.237164594907078E+02;
1.221000000000000E+09;-1.996423300585426E+00;1.231453245985390E+02;
1.222000000000000E+09;-1.985512361229720E+00;1.225603717112933E+02;
1.223000000000000E+09;-1.968271577884123E+00;1.219438686006134E+02;
1.224000000000000E+09;-1.951376776247411E+00;1.213166610856506E+02;
1.225000000000000E+09;-1.936770015360741E+00;1.207223516896162E+02;
1.226000000000000E+09;-1.921661565813380E+00;1.200828542595371E+02;
1.227000000000000E+09;-1.906078440352137E+00;1.194321835922683E+02;
1.228000000000000E+09;-1.894334978629888E+00;1.187933648520256E+02;
1.229000000000000E+09;-1.878634197871522E+00;1.181434895099933E+02;
1.230000000000000E+09;-1.867340828017879E+00;1.175362630576621E+02;
1.231000000000000E+09;-1.850813199974134E+00;1.168593354940706E+02;
1.232000000000000E+09;-1.836764023272749E+00;1.162494967921304E+02;
1.233000000000000E+09;-1.827450350540615E+00;1.156088017667801E+02;
1.234000000000000E+09;-1.807844049599158E+00;1.149422300862281E+02;
1.235000000000000E+09;-1.797281629257135E+00;1.143629894446218E+02;
1.236000000000000E+09;-1.778708757900988E+00;1.137506004436242E+02;
1.237000000000000E+09;-1.762117098733031E+00;1.131269068610828E+02;
1.238000000000000E+09;-1.750753156765421E+00;1.125337416017877E+02;
1.239000000000000E+09;-1.729852687848414E+00;1.119280419328252E+02;
1.240000000000000E+09;-1.710395506789828E+00;1.113393239174941E+02;
1.241000000000000E+09;-1.692591798490218E+00;1.107458147331109E+02;
1.242000000000000E+09;-1.677610662456215E+00;1.101649399070364E+02;
1.243000000000000E+09;-1.655973311060967E+00;1.095864190957542E+02;
1.244000000000000E+09;-1.636652582424044E+00;1.090550642451042E+02;
1.245000000000000E+09;-1.617783776014274E+00;1.084960039889713E+02;
1.246000000000000E+09;-1.598840438683997E+00;1.079379313603164E+02;
1.247000000000000E+09;-1.578403264058662E+00;1.073825459568048E+02;
1.248000000000000E+09;-1.556273759607313E+00;1.068339749794558E+02;
1.249000000000000E+09;-1.539356534560711E+00;1.063102671445100E+02;
1.250000000000000E+09;-1.523278186537364E+00;1.057639455247701E+02;
1.251000000000000E+09;-1.504491878315231E+00;1.052789122267317E+02;
1.252000000000000E+09;-1.487758627995693E+00;1.047921106550166E+02;
1.253000000000000E+09;-1.470438132648400E+00;1.043180412274957E+02;
1.254000000000000E+09;-1.451849141105179E+00;1.038135949816326E+02;
1.255000000000000E+09;-1.436041434386090E+00;1.033244926402397E+02;
1.256000000000000E+09;-1.422014178540781E+00;1.028724811715963E+02;
1.257000000000000E+09;-1.405146741937246E+00;1.024285429006673E+02;
1.258000000000000E+09;-1.388870671245794E+00;1.019829688389607E+02;
1.259000000000000E+09;-1.374082238656321E+00;1.015311160285198E+02;
1.260000000000000E+09;-1.357082438601620E+00;1.011103921130301E+02;
1.261000000000000E+09;-1.346936829114320E+00;1.007043641029767E+02;
1.262000000000000E+09;-1.332790950750440E+00;1.002862295364557E+02;
1.263000000000000E+09;-1.316180793638048E+00;9.989429051884271E+01;
1.264000000000000E+09;-1.304293384259014E+00;9.946032043791965E+01;
1.265000000000000E+09;-1.291381171507153E+00;9.907714448491345E+01;
1.266000000000000E+09;-1.281832520991828E+00;9.871617239377220E+01;
1.267000000000000E+09;-1.269499355470046E+00;9.830142167541371E+01;
1.268000000000000E+09;-1.260722190346053E+00;9.790382401846894E+01;
1.269000000000000E+09;-1.249667560780390E+00;9.752178555978678E+01;
1.270000000000000E+09;-1.242189168300066E+00;9.714020414586156E+01;
1.271000000000000E+09;-1.233501416417992E+00;9.677791110322582E+01;
1.272000000000000E+09;-1.224899493717550E+00;9.638187755202725E+01;
1.273000000000000E+09;-1.220704698058248E+00;9.600083051601281E+01;
1.274000000000000E+09;-1.216608212431514E+00;9.560631097858808E+01;
1.275000000000000E+09;-1.209718345297528E+00;9.525487507680346E+01;
1.276000000000000E+09;-1.204576764208981E+00;9.486406783587336E+01;
1.277000000000000E+09;-1.201667772126175E+00;9.449406941094686E+01;
1.278000000000000E+09;-1.202177561874558E+00;9.410060978284913E+01;
1.279000000000000E+09;-1.201182756548716E+00;9.373227746449459E+01;
1.280000000000000E+09;-1.199960051696501E+00;9.337860727414058E+01;
1.281000000000000E+09;-1.199779086507834E+00;9.298277840812517E+01;
1.282000000000000E+09;-1.200737538870798E+00;9.258664939649611E+01;
1.283000000000000E+09;-1.201705729341734E+00;9.217958928112125E+01;
1.284000000000000E+09;-1.196250128749684E+00;9.182388724124986E+01;
1.285000000000000E+09;-1.207365236096448E+00;9.141328242232508E+01;
1.286000000000000E+09;-1.205044126131795E+00;9.100613270819601E+01;
1.287000000000000E+09;-1.210837175861630E+00;9.058038986041441E+01;
1.288000000000000E+09;-1.218169605564718E+00;9.016803483885803E+01;
1.289000000000000E+09;-1.219451829231979E+00;8.977816795928881E+01;
1.290000000000000E+09;-1.226795649731244E+00;8.936754319771998E+01;
1.291000000000000E+09;-1.235392428119570E+00;8.890761093527034E+01;
1.292000000000000E+09;-1.243096695861656E+00;8.848840435933450E+01;
