# Version 1.00
#
freq[Hz];db:Trc4_S11;ang:Trc4_S11;
1.000000000000000E+09;-1.319120741019374E+00;1.580755832240182E+02;
1.001000000000000E+09;-1.346166622818605E+00;1.576265818152551E+02;
1.002000000000000E+09;-1.369410137080596E+00;1.571840126013649E+02;
1.003000000000000E+09;-1.396329145740387E+00;1.567134687334088E+02;
1.004000000000000E+09;-1.422060113372190E+00;1.562392177501257E+02;
1.005000000000000E+09;-1.449371819906308E+00;1.557901642346601E+02;
1.006000000000000E+09;-1.478623137482851E+00;1.552643454611653E+02;
1.007000000000000E+09;-1.514082830725624E+00;1.547778005813792E+02;
1.008000000000000E+09;-1.544474664981949E+00;1.542817946811191E+02;
1.009000000000000E+09;-1.575780799651793E+00;1.537748821399942E+02;
1.010000000000000E+09;-1.611582081860362E+00;1.532573136272902E+02;
1.011000000000000E+09;-1.650298528711387E+00;1.527056134905022E+02;
1.012000000000000E+09;-1.685560361310226E+00;1.521634693458847E+02;
1.013000000000000E+09;-1.722572643116929E+00;1.516199849179471E+02;
1.014000000000000E+09;-1.760801813372497E+00;1.510373265666460E+02;
1.015000000000000E+09;-1.803467249532458E+00;1.504601798892393E+02;
1.016000000000000E+09;-1.844540860250024E+00;1.498918330472614E+02;
1.017000000000000E+09;-1.886691125449896E+00;1.492747314946905E+02;
1.018000000000000E+09;-1.932996133757534E+00;1.486666661446409E+02;
1.019000000000000E+09;-1.981403773031583E+00;1.480456511573780E+02;
1.020000000000000E+09;-2.026974453310523E+00;1.474296807974671E+02;
1.021000000000000E+09;-2.074217510066414E+00;1.467741477798919E+02;
1.022000000000000E+09;-2.123491439112459E+00;1.461121121950104E+02;
1.023000000000000E+09;-2.178576856706841E+00;1.454943985414709E+02;
1.024000000000000E+09;-2.229729053494715E+00;1.448325860846207E+02;
1.025000000000000E+09;-2.284101037092976E+00;1.441554377960028E+02;
1.026000000000000E+09;-2.339395472867312E+00;1.434806862853611E+02;
1.027000000000000E+09;-2.392198395559521E+00;1.428313469155368E+02;
1.028000000000000E+09;-2.446023663467099E+00;1.421488155083657E+02;
1.029000000000000E+09;-2.500440255608694E+00;1.414891139952937E+02;
1.030000000000000E+09;-2.560791881492391E+00;1.408015539324270E+02;
1.031000000000000E+09;-2.619625788174702E+00;1.401193772736468E+02;
1.032000000000000E+09;-2.675713012777981E+00;1.394323075526600E+02;
1.033000000000000E+09;-2.729997780858684E+00;1.387664591258830E+02;
1.034000000000000E+09;-2.788372029203515E+00;1.381053731582078E+02;
1.035000000000000E+09;-2.846237086086025E+00;1.374477891956534E+02;
1.036000000000000E+09;-2.904576087235756E+00;1.367804594681025E+02;
1.037000000000000E+09;-2.959511672977809E+00;1.360858045624039E+02;
1.038000000000000E+09;-3.016350511527138E+00;1.354463004569340E+02;
1.039000000000000E+09;-3.068954661663557E+00;1.347964882956911E+02;
1.040000000000000E+09;-3.122467835978817E+00;1.341309807967185E+02;
1.041000000000000E+09;-3.176517778173814E+00;1.335067504686915E+02;
1.042000000000000E+09;-3.230782658083174E+00;1.328459826413328E+02;
1.043000000000000E+09;-3.285007661063940E+00;1.321701865768340E+02;
1.044000000000000E+09;-3.339947905363865E+00;1.315255602635673E+02;
1.045000000000000E+09;-3.391371756283792E+00;1.309461483480612E+02;
1.046000000000000E+09;-3.437950264742423E+00;1.302712985815174E+02;
1.047000000000000E+09;-3.493026492650712E+00;1.296413047528761E+02;
1.048000000000000E+09;-3.542731469451038E+00;1.290379631645579E+02;
1.049000000000000E+09;-3.588792050986990E+00;1.284299857085742E+02;
1.050000000000000E+09;-3.639084876665102E+00;1.278192487377831E+02;
1.051000000000000E+09;-3.688301023102573E+00;1.272460290663986E+02;
1.052000000000000E+09;-3.735019037709968E+00;1.266624302231597E+02;
1.053000000000000E+09;-3.785687444908445E+00;1.260733721850601E+02;
1.054000000000000E+09;-3.831409527644876E+00;1.254576234918791E+02;
1.055000000000000E+09;-3.873291017215004E+00;1.248519326548095E+02;
1.056000000000000E+09;-3.927254769054177E+00;1.243045343240868E+02;
1.057000000000000E+09;-3.974691400871416E+00;1.237278668539725E+02;
1.058000000000000E+09;-4.025247213590523E+00;1.231293704195247E+02;
1.059000000000000E+09;-4.076483880516654E+00;1.225760324779265E+02;
1.060000000000000E+09;-4.128963292756763E+00;1.219903259552463E+02;
1.061000000000000E+09;-4.178314927923162E+00;1.214179475914861E+02;
1.062000000000000E+09;-4.235123701994657E+00;1.208243840768121E+02;
1.063000000000000E+09;-4.291204435095050E+00;1.202939796576715E+02;
1.064000000000000E+09;-4.345575947626554E+00;1.197550789381899E+02;
1.065000000000000E+09;-4.410166331300162E+00;1.191926669025708E+02;
1.066000000000000E+09;-4.473226641125924E+00;1.186195429217191E+02;
1.067000000000000E+09;-4.537485007297141E+00;1.180788339809899E+02;
1.068000000000000E+09;-4.609311881220196E+00;1.175686079212748E+02;
1.069000000000000E+09;-4.681385219623444E+00;1.170139312935227E+02;
1.070000000000000E+09;-4.755115433580125E+00;1.164776713587761E+02;
1.071000000000000E+09;-4.834893396099852E+00;1.159548146995142E+02;
1.072000000000000E+09;-4.908614578328522E+00;1.154471186447178E+02;
1.073000000000000E+09;-4.994469947335610E+00;1.148858931727573E+02;
1.074000000000000E+09;-5.084128446776694E+00;1.143588108484787E+02;
1.075000000000000E+09;-5.174115567943668E+00;1.137899471218341E+02;
1.076000000000000E+09;-5.270749062119898E+00;1.132395105346081E+02;
1.077000000000000E+09;-5.374848138681605E+00;1.126482986426438E+02;
1.078000000000000E+09;-5.484842412521224E+00;1.121387285369709E+02;
1.079000000000000E+09;-5.602536606058451E+00;1.115557436626160E+02;
1.080000000000000E+09;-5.728595541388892E+00;1.109842444945092E+02;
1.081000000000000E+09;-5.866234222552620E+00;1.103832254988868E+02;
1.082000000000000E+09;-6.009022971706282E+00;1.098800897971164E+02;
1.083000000000000E+09;-6.157563796874434E+00;1.093318630612653E+02;
1.084000000000000E+09;-6.326701506035684E+00;1.087568116405806E+02;
1.085000000000000E+09;-6.493480155920839E+00;1.082474216212101E+02;
1.086000000000000E+09;-6.675621423149714E+00;1.077977762724188E+02;
1.087000000000000E+09;-6.865306199101122E+00;1.072781101768812E+02;
1.088000000000000E+09;-7.066650582115752E+00;1.067977968393460E+02;
1.089000000000000E+09;-7.278160974837377E+00;1.063722744899794E+02;
1.090000000000000E+09;-7.502133424259101E+00;1.059435901005298E+02;
1.091000000000000E+09;-7.734762257490427E+00;1.055577164793864E+02;
1.092000000000000E+09;-7.987375291748173E+00;1.052312962977676E+02;
1.093000000000000E+09;-8.249775906991573E+00;1.048983797743619E+02;
1.094000000000000E+09;-8.531636920610898E+00;1.046220487001648E+02;
1.095000000000000E+09;-8.827100797928400E+00;1.043736072270143E+02;
1.096000000000000E+09;-9.139394573819091E+00;1.042896093616277E+02;
1.097000000000000E+09;-9.462645060805325E+00;1.042497668265115E+02;
1.098000000000000E+09;-9.806229457289744E+00;1.042757974177948E+02;
1.099000000000000E+09;-1.016335797597332E+01;1.044791548924127E+02;
1.100000000000000E+09;-1.053032129821075E+01;1.047135823183245E+02;
1.101000000000000E+09;-1.092239435830030E+01;1.050742000585252E+02;
1.102000000000000E+09;-1.132786813629447E+01;1.056240525208357E+02;
1.103000000000000E+09;-1.175671552745044E+01;1.063535794927230E+02;
1.104000000000000E+09;-1.220358827643103E+01;1.072535048209758E+02;
1.105000000000000E+09;-1.267142983276570E+01;1.084453296453807E+02;
1.106000000000000E+09;-1.315173458141307E+01;1.098940842757491E+02;
1.107000000000000E+09;-1.363771041912562E+01;1.118041440428593E+02;
1.108000000000000E+09;-1.413222603416671E+01;1.140533203988097E+02;
1.109000000000000E+09;-1.461436757846771E+01;1.167700026144704E+02;
1.110000000000000E+09;-1.507794180151656E+01;1.199344865246587E+02;
1.111000000000000E+09;-1.550074200533434E+01;1.238252508208523E+02;
1.112000000000000E+09;-1.584682885384583E+01;1.280592781297714E+02;
1.113000000000000E+09;-1.613373669291374E+01;1.327113303474509E+02;
1.114000000000000E+09;-1.630810069709225E+01;1.377559306512993E+02;
1.115000000000000E+09;-1.636415701034675E+01;1.429850562648088E+02;
1.116000000000000E+09;-1.631649576013278E+01;1.481655130903667E+02;
1.117000000000000E+09;-1.614363740228886E+01;1.531427806227286E+02;
1.118000000000000E+09;-1.587371587216472E+01;1.577331778810091E+02;
1.119000000000000E+09;-1.551411238295816E+01;1.619872703442974E+02;
1.120000000000000E+09;-1.510576831499018E+01;1.655234475869124E+02;
1.121000000000000E+09;-1.465371589142439E+01;1.686925744606014E+02;
1.122000000000000E+09;-1.416566552805892E+01;1.712932868138337E+02;
1.123000000000000E+09;-1.367983566181868E+01;1.733502323191651E+02;
1.124000000000000E+09;-1.318790258635391E+01;1.749977453258890E+02;
1.125000000000000E+09;-1.272412423108785E+01;1.762832822010682E+02;
1.126000000000000E+09;-1.225651002163242E+01;1.772154089116945E+02;
1.127000000000000E+09;-1.181278982162810E+01;1.779584173564523E+02;
1.128000000000000E+09;-1.138313116202917E+01;1.783894613483392E+02;
1.129000000000000E+09;-1.097126648095350E+01;1.786905163769994E+02;
1.130000000000000E+09;-1.057084551364255E+01;1.787967147596655E+02;
1.131000000000000E+09;-1.019552633506007E+01;1.787415534282444E+02;
1.132000000000000E+09;-9.828963701975219E+00;1.785554761437624E+02;
1.133000000000000E+09;-9.474508621049857E+00;1.782124137836948E+02;
1.134000000000000E+09;-9.132844773010095E+00;1.778609622002077E+02;
1.135000000000000E+09;-8.812508532302143E+00;1.773704822076806E+02;
1.136000000000000E+09;-8.504806132507731E+00;1.767982240428081E+02;
1.137000000000000E+09;-8.204741080560522E+00;1.761548171112854E+02;
1.138000000000000E+09;-7.919835927439152E+00;1.754508945058619E+02;
1.139000000000000E+09;-7.646966862858674E+00;1.747028831194752E+02;
1.140000000000000E+09;-7.387757086006665E+00;1.739244330654916E+02;
1.141000000000000E+09;-7.138004271624784E+00;1.730413636964268E+02;
1.142000000000000E+09;-6.902182975588013E+00;1.721666390843582E+02;
1.143000000000000E+09;-6.679346301166969E+00;1.713088956642228E+02;
1.144000000000000E+09;-6.463834822179017E+00;1.704310839465302E+02;
1.145000000000000E+09;-6.255121125276457E+00;1.695744683918248E+02;
1.146000000000000E+09;-6.062419675733799E+00;1.686530616246386E+02;
1.147000000000000E+09;-5.869916821225118E+00;1.677749352469320E+02;
1.148000000000000E+09;-5.685413886412327E+00;1.669449430254849E+02;
1.149000000000000E+09;-5.508281721361149E+00;1.660746500286400E+02;
1.150000000000000E+09;-5.334592922628371E+00;1.651547843846479E+02;
1.151000000000000E+09;-5.163597687471089E+00;1.643201512494300E+02;
1.152000000000000E+09;-5.005090854154842E+00;1.634065210414177E+02;
1.153000000000000E+09;-4.856638859927228E+00;1.625571912528127E+02;
1.154000000000000E+09;-4.706172935617468E+00;1.616702620914922E+02;
1.155000000000000E+09;-4.562918770517767E+00;1.608609479952092E+02;
1.156000000000000E+09;-4.424658427260701E+00;1.600089254721944E+02;
1.157000000000000E+09;-4.288949014758169E+00;1.591488699334864E+02;
1.158000000000000E+09;-4.161074044729430E+00;1.583666385585110E+02;
1.159000000000000E+09;-4.037720590516385E+00;1.575477513658979E+02;
1.160000000000000E+09;-3.920096600487040E+00;1.567490908353730E+02;
1.161000000000000E+09;-3.805092548144287E+00;1.559930679468858E+02;
1.162000000000000E+09;-3.697123251925527E+00;1.552497311885167E+02;
1.163000000000000E+09;-3.592112427203231E+00;1.544953651020837E+02;
1.164000000000000E+09;-3.487064676228623E+00;1.537487135974345E+02;
1.165000000000000E+09;-3.387281003652648E+00;1.530076647604679E+02;
1.166000000000000E+09;-3.294366220222896E+00;1.523016366851184E+02;
1.167000000000000E+09;-3.202724552010939E+00;1.515925421625152E+02;
1.168000000000000E+09;-3.117524363156487E+00;1.508989609359477E+02;
1.169000000000000E+09;-3.036975000964979E+00;1.502217644718226E+02;
1.170000000000000E+09;-2.961874961571759E+00;1.495628383553676E+02;
1.171000000000000E+09;-2.886160948283816E+00;1.489075770728198E+02;
1.172000000000000E+09;-2.815580528898289E+00;1.482912432808086E+02;
1.173000000000000E+09;-2.746803804159337E+00;1.476616420915508E+02;
1.174000000000000E+09;-2.679251556728958E+00;1.470691074666630E+02;
1.175000000000000E+09;-2.616915347525206E+00;1.464632433834134E+02;
1.176000000000000E+09;-2.558639827863434E+00;1.458651890283105E+02;
1.177000000000000E+09;-2.499988663971396E+00;1.453020835118080E+02;
1.178000000000000E+09;-2.445653381959334E+00;1.447156523283765E+02;
1.179000000000000E+09;-2.395097121637138E+00;1.441302981826378E+02;
1.180000000000000E+09;-2.346556788107602E+00;1.435817508397826E+02;
1.181000000000000E+09;-2.300689414316726E+00;1.430444984106757E+02;
1.182000000000000E+09;-2.261775567178677E+00;1.424934835006800E+02;
1.183000000000000E+09;-2.221592475843298E+00;1.419626050717619E+02;
1.184000000000000E+09;-2.178853329313144E+00;1.414367544990579E+02;
1.185000000000000E+09;-2.146886248400599E+00;1.409106406592415E+02;
1.186000000000000E+09;-2.109042214629444E+00;1.403814706220368E+02;
1.187000000000000E+09;-2.074281499210921E+00;1.398595421848647E+02;
1.188000000000000E+09;-2.049436701347360E+00;1.393363535907971E+02;
1.189000000000000E+09;-2.022261843221368E+00;1.388050376779674E+02;
1.190000000000000E+09;-2.000495808614656E+00;1.382904524092809E+02;
1.191000000000000E+09;-1.972449380081602E+00;1.377772663753963E+02;
1.192000000000000E+09;-1.951348113404733E+00;1.372575751335217E+02;
1.193000000000000E+09;-1.935309543276308E+00;1.367528595088912E+02;
1.194000000000000E+09;-1.915630127111127E+00;1.362158583950567E+02;
1.195000000000000E+09;-1.900978244016576E+00;1.357186735776100E+02;
1.196000000000000E+09;-1.884379654934225E+00;1.351870800407795E+02;
1.197000000000000E+09;-1.874245557210922E+00;1.346478772614469E+02;
1.198000000000000E+09;-1.865097125674557E+00;1.341198490793117E+02;
1.199000000000000E+09;-1.854690336287441E+00;1.336237774787359E+02;
1.200000000000000E+09;-1.847238780355198E+00;1.330727289754014E+02;
1.201000000000000E+09;-1.841498259913374E+00;1.325248299909942E+02;
1.202000000000000E+09;-1.836321620181709E+00;1.319666377000293E+02;
1.203000000000000E+09;-1.835120307426047E+00;1.314667301861054E+02;
1.204000000000000E+09;-1.832664151127960E+00;1.308969333672978E+02;
1.205000000000000E+09;-1.831043228463042E+00;1.303629211423746E+02;
1.206000000000000E+09;-1.831761038063547E+00;1.298091827828456E+02;
1.207000000000000E+09;-1.833713187363597E+00;1.292722331899540E+02;
1.208000000000000E+09;-1.833004910700783E+00;1.286867838658775E+02;
1.209000000000000E+09;-1.834543336505281E+00;1.281237375052372E+02;
1.210000000000000E+09;-1.839438177293666E+00;1.275912946665592E+02;
1.211000000000000E+09;-1.840867487782855E+00;1.270191131882803E+02;
1.212000000000000E+09;-1.846972475543628E+00;1.264695705451589E+02;
1.213000000000000E+09;-1.849427777499475E+00;1.258602683372791E+02;
1.214000000000000E+09;-1.851390706872858E+00;1.253163896340089E+02;
1.215000000000000E+09;-1.854247412067242E+00;1.247341403571162E+02;
1.216000000000000E+09;-1.857858211702318E+00;1.241435710380479E+02;
1.217000000000000E+09;-1.858800139283210E+00;1.235647855862122E+02;
1.218000000000000E+09;-1.860291535989191E+00;1.229835634421734E+02;
1.219000000000000E+09;-1.863757949258421E+00;1.223882556037177E+02;
1.220000000000000E+09;-1.864548948793059E+00;1.217661319991100E+02;
1.221000000000000E+09;-1.867812033209873E+00;1.211656160994108E+02;
1.222000000000000E+09;-1.871398668756549E+00;1.205650159150659E+02;
1.223000000000000E+09;-1.872434727327465E+00;1.199773601968654E+02;
1.224000000000000E+09;-1.871303991130125E+00;1.193400422780861E+02;
1.225000000000000E+09;-1.875028007437286E+00;1.187713301537894E+02;
1.226000000000000E+09;-1.874518162204013E+00;1.181465029727460E+02;
1.227000000000000E+09;-1.873642549921104E+00;1.175304800387231E+02;
1.228000000000000E+09;-1.875137703324916E+00;1.169357917698538E+02;
1.229000000000000E+09;-1.874645938753404E+00;1.163264895868988E+02;
1.230000000000000E+09;-1.875373263955259E+00;1.157709918983265E+02;
1.231000000000000E+09;-1.870574109519969E+00;1.151463848333110E+02;
1.232000000000000E+09;-1.868336037515464E+00;1.145622653976509E+02;
1.233000000000000E+09;-1.865694305743703E+00;1.139911805017723E+02;
1.234000000000000E+09;-1.860318049155155E+00;1.134035948690355E+02;
1.235000000000000E+09;-1.855939098575756E+00;1.128477557549001E+02;
1.236000000000000E+09;-1.847475257974644E+00;1.123047718282549E+02;
1.237000000000000E+09;-1.838091907155406E+00;1.117330441971966E+02;
1.238000000000000E+09;-1.832949146102828E+00;1.111978337255561E+02;
1.239000000000000E+09;-1.821270113092537E+00;1.106586509389275E+02;
1.240000000000000E+09;-1.804789502794776E+00;1.101252431452970E+02;
1.241000000000000E+09;-1.801637920509170E+00;1.095892937473561E+02;
1.242000000000000E+09;-1.787280073264096E+00;1.090826809194711E+02;
1.243000000000000E+09;-1.774199579327221E+00;1.085633443706335E+02;
1.244000000000000E+09;-1.758011689005858E+00;1.080822800323749E+02;
1.245000000000000E+09;-1.745545574022945E+00;1.075677564369223E+02;
1.246000000000000E+09;-1.734383286377303E+00;1.071049905059753E+02;
1.247000000000000E+09;-1.712643730118653E+00;1.066073008224296E+02;
1.248000000000000E+09;-1.695359831216397E+00;1.061370045374641E+02;
1.249000000000000E+09;-1.680209917612032E+00;1.056743687955436E+02;
1.250000000000000E+09;-1.663746259065941E+00;1.051995432235534E+02;
1.251000000000000E+09;-1.648110460690106E+00;1.047567770697851E+02;
1.252000000000000E+09;-1.627606195204458E+00;1.043493648491057E+02;
1.253000000000000E+09;-1.609428543380344E+00;1.039072412825154E+02;
1.254000000000000E+09;-1.591268327537269E+00;1.034727662779280E+02;
1.255000000000000E+09;-1.572252898634111E+00;1.030432710473154E+02;
1.256000000000000E+09;-1.556950197771751E+00;1.026238008497707E+02;
1.257000000000000E+09;-1.540028106371929E+00;1.022249897073374E+02;
1.258000000000000E+09;-1.520589218711199E+00;1.018291671063981E+02;
1.259000000000000E+09;-1.506005647800802E+00;1.013951716354931E+02;
1.260000000000000E+09;-1.485881919488607E+00;1.010003731346540E+02;
1.261000000000000E+09;-1.474703223343546E+00;1.006302763747827E+02;
1.262000000000000E+09;-1.457694458293603E+00;1.002324244996760E+02;
1.263000000000000E+09;-1.439230348004405E+00;9.988100338781182E+01;
1.264000000000000E+09;-1.426306175071487E+00;9.946908082996521E+01;
1.265000000000000E+09;-1.412075079699456E+00;9.910957268326402E+01;
1.266000000000000E+09;-1.395232473041545E+00;9.877346318280262E+01;
1.267000000000000E+09;-1.383831715120153E+00;9.837549226336962E+01;
1.268000000000000E+09;-1.369424936782686E+00;9.801100140168774E+01;
1.269000000000000E+09;-1.357573715753971E+00;9.762616123285635E+01;
1.270000000000000E+09;-1.344913505617087E+00;9.728980403837205E+01;
1.271000000000000E+09;-1.332889171549789E+00;9.692499770678694E+01;
1.272000000000000E+09;-1.323798532954807E+00;9.651303265983179E+01;
1.273000000000000E+09;-1.315625074133362E+00;9.617003830226079E+01;
1.274000000000000E+09;-1.308731914371717E+00;9.579656589844052E+01;
1.275000000000000E+09;-1.301651125543868E+00;9.543804185444921E+01;
1.276000000000000E+09;-1.294980575599426E+00;9.505546559421667E+01;
1.277000000000000E+09;-1.290086306431484E+00;9.471685792020860E+01;
1.278000000000000E+09;-1.287456878148309E+00;9.433359767893324E+01;
1.279000000000000E+09;-1.281493327195339E+00;9.394417649494338E+01;
1.280000000000000E+09;-1.274869451769293E+00;9.360396490730017E+01;
1.281000000000000E+09;-1.272898093083613E+00;9.319972802285537E+01;
1.282000000000000E+09;-1.273356679598677E+00;9.281784090562022E+01;
1.283000000000000E+09;-1.273350794685979E+00;9.239179119036478E+01;
1.284000000000000E+09;-1.269372752952844E+00;9.205058701813364E+01;
1.285000000000000E+09;-1.274942937145691E+00;9.165291790365545E+01;
1.286000000000000E+09;-1.271456695183430E+00;9.125746309142811E+01;
1.287000000000000E+09;-1.273939853554687E+00;9.083985264439549E+01;
1.288000000000000E+09;-1.277348143276919E+00;9.042651927418554E+01;
1.289000000000000E+09;-1.278628206642362E+00;9.002686198564294E+01;
1.290000000000000E+09;-1.287835677367278E+00;8.959596730993420E+01;
1.291000000000000E+09;-1.290823595622783E+00;8.917852783804067E+01;
1.292000000000000E+09;-1.295787709546889E+00;8.875427677989654E+01;
