# Version 1.00
#
freq[Hz];db:Trc4_S11;ang:Trc4_S11;
1.000000000000000E+09;-1.357689822498356E+00;1.577167134756542E+02;
1.001000000000000E+09;-1.380795950578145E+00;1.572771770024935E+02;
1.002000000000000E+09;-1.407128169611811E+00;1.568342201043114E+02;
1.003000000000000E+09;-1.434242477428633E+00;1.563716516667187E+02;
1.004000000000000E+09;-1.462956170366303E+00;1.558917033611662E+02;
1.005000000000000E+09;-1.490129913086799E+00;1.554547902287611E+02;
1.006000000000000E+09;-1.521454176920307E+00;1.549634505641336E+02;
1.007000000000000E+09;-1.555181439653629E+00;1.544373347529431E+02;
1.008000000000000E+09;-1.589907358336664E+00;1.539772607345992E+02;
1.009000000000000E+09;-1.620024968228872E+00;1.534686243480000E+02;
1.010000000000000E+09;-1.657490605904141E+00;1.529398308198881E+02;
1.011000000000000E+09;-1.696669274721684E+00;1.523832851914225E+02;
1.012000000000000E+09;-1.732519402424940E+00;1.518477756562703E+02;
1.013000000000000E+09;-1.770172695666425E+00;1.513060555774458E+02;
1.014000000000000E+09;-1.812350447098728E+00;1.507280981015395E+02;
1.015000000000000E+09;-1.855089275779205E+00;1.501528921473474E+02;
1.016000000000000E+09;-1.900166195305790E+00;1.495745962484715E+02;
1.017000000000000E+09;-1.942362978963932E+00;1.489546339080711E+02;
1.018000000000000E+09;-1.992135302922561E+00;1.483427930834766E+02;
1.019000000000000E+09;-2.041664010248606E+00;1.477373303933311E+02;
1.020000000000000E+09;-2.091635150841559E+00;1.471163977645440E+02;
1.021000000000000E+09;-2.142290617110930E+00;1.464780791842760E+02;
1.022000000000000E+09;-2.194995481301836E+00;1.458351239485230E+02;
1.023000000000000E+09;-2.250592566900707E+00;1.452148472703471E+02;
1.024000000000000E+09;-2.305228376985516E+00;1.445634799264565E+02;
1.025000000000000E+09;-2.362814665600243E+00;1.438912104814462E+02;
1.026000000000000E+09;-2.420667851894546E+00;1.432521487336687E+02;
1.027000000000000E+09;-2.477413124024055E+00;1.425959314361773E+02;
1.028000000000000E+09;-2.534683676641649E+00;1.419031472798010E+02;
1.029000000000000E+09;-2.587411458279156E+00;1.412647301411877E+02;
1.030000000000000E+09;-2.648835984742787E+00;1.405932901157777E+02;
1.031000000000000E+09;-2.707112994716471E+00;1.399236434839735E+02;
1.032000000000000E+09;-2.769265834931144E+00;1.392625383221496E+02;
1.033000000000000E+09;-2.823003364326586E+00;1.385702473519337E+02;
1.034000000000000E+09;-2.883647893557060E+00;1.379230415180442E+02;
1.035000000000000E+09;-2.941933425186746E+00;1.372895192280257E+02;
1.036000000000000E+09;-3.003333270097424E+00;1.366003312037224E+02;
1.037000000000000E+09;-3.058268468008884E+00;1.359343538695337E+02;
1.038000000000000E+09;-3.115534017653216E+00;1.352997615569730E+02;
1.039000000000000E+09;-3.174164243636176E+00;1.346913770418694E+02;
1.040000000000000E+09;-3.229139406547569E+00;1.339834662755190E+02;
1.041000000000000E+09;-3.287343930992055E+00;1.333702626648239E+02;
1.042000000000000E+09;-3.343379521362543E+00;1.327313660177322E+02;
1.043000000000000E+09;-3.401235732739431E+00;1.320922339879103E+02;
1.044000000000000E+09;-3.455602618571167E+00;1.314577337943188E+02;
1.045000000000000E+09;-3.509336372526239E+00;1.308610756267371E+02;
1.046000000000000E+09;-3.561538187536044E+00;1.302634668090451E+02;
1.047000000000000E+09;-3.613667378415805E+00;1.296460400811613E+02;
1.048000000000000E+09;-3.666420888107492E+00;1.290448243763852E+02;
1.049000000000000E+09;-3.714915474796647E+00;1.284581597960797E+02;
1.050000000000000E+09;-3.767597329009027E+00;1.278783126907437E+02;
1.051000000000000E+09;-3.815512429153214E+00;1.273082336353177E+02;
1.052000000000000E+09;-3.866618693911375E+00;1.267528329895780E+02;
1.053000000000000E+09;-3.916520662755067E+00;1.261742324298106E+02;
1.054000000000000E+09;-3.966078727381703E+00;1.256041002754570E+02;
1.055000000000000E+09;-4.008663032620555E+00;1.250334177239679E+02;
1.056000000000000E+09;-4.062368691838828E+00;1.244966109500971E+02;
1.057000000000000E+09;-4.109777686374304E+00;1.239615356081420E+02;
1.058000000000000E+09;-4.158528635002031E+00;1.233971622115946E+02;
1.059000000000000E+09;-4.211263547064280E+00;1.228565114049318E+02;
1.060000000000000E+09;-4.261484014385205E+00;1.223135410010311E+02;
1.061000000000000E+09;-4.313637780750518E+00;1.217707848984970E+02;
1.062000000000000E+09;-4.367543868541658E+00;1.212129899622855E+02;
1.063000000000000E+09;-4.426658528902839E+00;1.207150481004881E+02;
1.064000000000000E+09;-4.482474144405263E+00;1.202124791921611E+02;
1.065000000000000E+09;-4.544045182915852E+00;1.196715593159103E+02;
1.066000000000000E+09;-4.605204516495424E+00;1.191507126865651E+02;
1.067000000000000E+09;-4.668027733517665E+00;1.186419580045139E+02;
1.068000000000000E+09;-4.739740787713156E+00;1.181599061413440E+02;
1.069000000000000E+09;-4.807912245009712E+00;1.176346976004177E+02;
1.070000000000000E+09;-4.881762245699755E+00;1.171053055067108E+02;
1.071000000000000E+09;-4.957773015745540E+00;1.166564715894020E+02;
1.072000000000000E+09;-5.038225929997003E+00;1.161570862455062E+02;
1.073000000000000E+09;-5.122908885767940E+00;1.156136142338706E+02;
1.074000000000000E+09;-5.211832872142970E+00;1.151174512557089E+02;
1.075000000000000E+09;-5.306714116038633E+00;1.146061669312070E+02;
1.076000000000000E+09;-5.401713322510111E+00;1.141271928551225E+02;
1.077000000000000E+09;-5.511142195156551E+00;1.135962859448724E+02;
1.078000000000000E+09;-5.623429527423776E+00;1.131342440437702E+02;
1.079000000000000E+09;-5.736245927396965E+00;1.126405198837279E+02;
1.080000000000000E+09;-5.866056785058876E+00;1.121645925810583E+02;
1.081000000000000E+09;-5.995885428570853E+00;1.116588598234209E+02;
1.082000000000000E+09;-6.130630139511583E+00;1.112224015302790E+02;
1.083000000000000E+09;-6.273827851881718E+00;1.107368902709590E+02;
1.084000000000000E+09;-6.430256648008328E+00;1.102677023859136E+02;
1.085000000000000E+09;-6.593930821083481E+00;1.097977251751859E+02;
1.086000000000000E+09;-6.768242064949689E+00;1.093762374880842E+02;
1.087000000000000E+09;-6.956048358832340E+00;1.089390194959479E+02;
1.088000000000000E+09;-7.149576482832286E+00;1.085400287597266E+02;
1.089000000000000E+09;-7.356387677694631E+00;1.081724614046900E+02;
1.090000000000000E+09;-7.569915446014218E+00;1.078669485261930E+02;
1.091000000000000E+09;-7.798620906180625E+00;1.075725199701377E+02;
1.092000000000000E+09;-8.035940615310249E+00;1.073195177433284E+02;
1.093000000000000E+09;-8.285550929986128E+00;1.071091692646085E+02;
1.094000000000000E+09;-8.557322817834018E+00;1.068765494237562E+02;
1.095000000000000E+09;-8.831144787445858E+00;1.067679457183714E+02;
1.096000000000000E+09;-9.132174453884165E+00;1.067522636790743E+02;
1.097000000000000E+09;-9.441969123616754E+00;1.067921176062868E+02;
1.098000000000000E+09;-9.769598948687696E+00;1.069253130527581E+02;
1.099000000000000E+09;-1.011520322511368E+01;1.072181402758163E+02;
1.100000000000000E+09;-1.046735029166972E+01;1.076654191397213E+02;
1.101000000000000E+09;-1.083823339775901E+01;1.082104633548212E+02;
1.102000000000000E+09;-1.122022800047370E+01;1.089940369745814E+02;
1.103000000000000E+09;-1.160509272815423E+01;1.099102191539797E+02;
1.104000000000000E+09;-1.200665729317328E+01;1.110653644974748E+02;
1.105000000000000E+09;-1.241035573496177E+01;1.124953687456849E+02;
1.106000000000000E+09;-1.281308168234246E+01;1.141178468353878E+02;
1.107000000000000E+09;-1.321408059563093E+01;1.161229103807756E+02;
1.108000000000000E+09;-1.359929516926769E+01;1.184469049028502E+02;
1.109000000000000E+09;-1.398673660783530E+01;1.210563217227458E+02;
1.110000000000000E+09;-1.432766975481760E+01;1.240546684231825E+02;
1.111000000000000E+09;-1.462159902817756E+01;1.274388595668397E+02;
1.112000000000000E+09;-1.485664309891813E+01;1.311315497192452E+02;
1.113000000000000E+09;-1.504858052745426E+01;1.349846146487039E+02;
1.114000000000000E+09;-1.515009098547498E+01;1.390042167493280E+02;
1.115000000000000E+09;-1.516455020686352E+01;1.431360633202713E+02;
1.116000000000000E+09;-1.511615201935386E+01;1.471500450789934E+02;
1.117000000000000E+09;-1.498829448363911E+01;1.510553849675005E+02;
1.118000000000000E+09;-1.479300105913984E+01;1.547827727105973E+02;
1.119000000000000E+09;-1.453116207838926E+01;1.581847990471798E+02;
1.120000000000000E+09;-1.422591042474223E+01;1.612353972051081E+02;
1.121000000000000E+09;-1.388017738087875E+01;1.640224528840182E+02;
1.122000000000000E+09;-1.350307723769893E+01;1.664303868864707E+02;
1.123000000000000E+09;-1.310961252775578E+01;1.684022126700435E+02;
1.124000000000000E+09;-1.270479975713416E+01;1.700648060528956E+02;
1.125000000000000E+09;-1.230786908701511E+01;1.713826860705944E+02;
1.126000000000000E+09;-1.190269416194747E+01;1.724489201721819E+02;
1.127000000000000E+09;-1.150266800245661E+01;1.732433982645765E+02;
1.128000000000000E+09;-1.111425836259774E+01;1.738373528864515E+02;
1.129000000000000E+09;-1.073685873188413E+01;1.741716203733791E+02;
1.130000000000000E+09;-1.036835256767351E+01;1.743569063480103E+02;
1.131000000000000E+09;-1.001841609890002E+01;1.743379904961175E+02;
1.132000000000000E+09;-9.677748266634458E+00;1.742050471028574E+02;
1.133000000000000E+09;-9.356789477549150E+00;1.739023241048834E+02;
1.134000000000000E+09;-9.046166774924526E+00;1.735580407758324E+02;
1.135000000000000E+09;-8.755358829604944E+00;1.731551987284349E+02;
1.136000000000000E+09;-8.480146230774629E+00;1.726337658990662E+02;
1.137000000000000E+09;-8.204484393805659E+00;1.721059445813607E+02;
1.138000000000000E+09;-7.944516992738368E+00;1.715307896824490E+02;
1.139000000000000E+09;-7.701610487303332E+00;1.708716080543792E+02;
1.140000000000000E+09;-7.460748467745686E+00;1.702496963983091E+02;
1.141000000000000E+09;-7.227442122183826E+00;1.695564405790209E+02;
1.142000000000000E+09;-7.002968728252529E+00;1.688441998916622E+02;
1.143000000000000E+09;-6.794033868591351E+00;1.681116828241942E+02;
1.144000000000000E+09;-6.587017434282018E+00;1.673742433116407E+02;
1.145000000000000E+09;-6.381443058307590E+00;1.666443901254653E+02;
1.146000000000000E+09;-6.190971236258907E+00;1.658715177959679E+02;
1.147000000000000E+09;-6.000389485728464E+00;1.651008609611320E+02;
1.148000000000000E+09;-5.816707579029346E+00;1.643347926471086E+02;
1.149000000000000E+09;-5.637383640332376E+00;1.635888711286144E+02;
1.150000000000000E+09;-5.464078961713362E+00;1.627627130192241E+02;
1.151000000000000E+09;-5.297083484486331E+00;1.619916991294414E+02;
1.152000000000000E+09;-5.135128897455633E+00;1.611908700652166E+02;
1.153000000000000E+09;-4.978525875375671E+00;1.603729362989380E+02;
1.154000000000000E+09;-4.826058224608174E+00;1.595747998937755E+02;
1.155000000000000E+09;-4.681057830673395E+00;1.587976766624313E+02;
1.156000000000000E+09;-4.537790670434275E+00;1.580068781164103E+02;
1.157000000000000E+09;-4.403559143362639E+00;1.572185087911086E+02;
1.158000000000000E+09;-4.274870220579586E+00;1.564742584890066E+02;
1.159000000000000E+09;-4.148299423310169E+00;1.556896167595086E+02;
1.160000000000000E+09;-4.029013961319806E+00;1.549586768956547E+02;
1.161000000000000E+09;-3.912198464051484E+00;1.542230814477977E+02;
1.162000000000000E+09;-3.802903598040632E+00;1.534854436118193E+02;
1.163000000000000E+09;-3.694479522909899E+00;1.527620925715164E+02;
1.164000000000000E+09;-3.589107552729925E+00;1.520768483057698E+02;
1.165000000000000E+09;-3.494752569290222E+00;1.513652567198195E+02;
1.166000000000000E+09;-3.398797138012887E+00;1.506933974137980E+02;
1.167000000000000E+09;-3.306713026904386E+00;1.500320450879887E+02;
1.168000000000000E+09;-3.220509133330975E+00;1.493847439525834E+02;
1.169000000000000E+09;-3.138122898353930E+00;1.487460827050057E+02;
1.170000000000000E+09;-3.058446034806315E+00;1.481265835863680E+02;
1.171000000000000E+09;-2.981984241228826E+00;1.475057475326350E+02;
1.172000000000000E+09;-2.909776598808942E+00;1.468972153915173E+02;
1.173000000000000E+09;-2.838828075644408E+00;1.463004707728978E+02;
1.174000000000000E+09;-2.769219222156754E+00;1.457322717779687E+02;
1.175000000000000E+09;-2.705009312500275E+00;1.451616996218264E+02;
1.176000000000000E+09;-2.644968894443982E+00;1.445793160336956E+02;
1.177000000000000E+09;-2.584432267434150E+00;1.440187336619562E+02;
1.178000000000000E+09;-2.529844360165418E+00;1.434591110570792E+02;
1.179000000000000E+09;-2.476353269511183E+00;1.428781687585700E+02;
1.180000000000000E+09;-2.428459656430138E+00;1.423514718895780E+02;
1.181000000000000E+09;-2.383159254986722E+00;1.418242637888588E+02;
1.182000000000000E+09;-2.343256956749310E+00;1.412728077276237E+02;
1.183000000000000E+09;-2.303073338953233E+00;1.407439131897834E+02;
1.184000000000000E+09;-2.264512554644190E+00;1.402419568476322E+02;
1.185000000000000E+09;-2.230397816670785E+00;1.397201167451970E+02;
1.186000000000000E+09;-2.197578176086870E+00;1.392128748438455E+02;
1.187000000000000E+09;-2.168039137095598E+00;1.387120223595596E+02;
1.188000000000000E+09;-2.137548473644787E+00;1.382062550507475E+02;
1.189000000000000E+09;-2.110138028515513E+00;1.376910125734129E+02;
1.190000000000000E+09;-2.087670369219269E+00;1.372136104418090E+02;
1.191000000000000E+09;-2.066179262489617E+00;1.366797515394228E+02;
1.192000000000000E+09;-2.047412622398750E+00;1.361870037758070E+02;
1.193000000000000E+09;-2.031160761907080E+00;1.356979487875726E+02;
1.194000000000000E+09;-2.015303844464518E+00;1.351882493519953E+02;
1.195000000000000E+09;-2.000338227721186E+00;1.347011608840012E+02;
1.196000000000000E+09;-1.987474559006034E+00;1.342075159002612E+02;
1.197000000000000E+09;-1.974794637586676E+00;1.337074165174636E+02;
1.198000000000000E+09;-1.964976698027406E+00;1.331834216877710E+02;
1.199000000000000E+09;-1.959684957445639E+00;1.327172972812868E+02;
1.200000000000000E+09;-1.947176885861077E+00;1.321939882920145E+02;
1.201000000000000E+09;-1.940350240426245E+00;1.316628037474439E+02;
1.202000000000000E+09;-1.936126052744864E+00;1.311472654642315E+02;
1.203000000000000E+09;-1.934513512180699E+00;1.306154155472861E+02;
1.204000000000000E+09;-1.930317533995090E+00;1.300769720927877E+02;
1.205000000000000E+09;-1.928657546884011E+00;1.295442230299419E+02;
1.206000000000000E+09;-1.928227644082188E+00;1.289991635177507E+02;
1.207000000000000E+09;-1.927671036522178E+00;1.284783599879275E+02;
1.208000000000000E+09;-1.929408406175746E+00;1.279234411724311E+02;
1.209000000000000E+09;-1.928453783582604E+00;1.273746881562465E+02;
1.210000000000000E+09;-1.929528272737758E+00;1.268340720123069E+02;
1.211000000000000E+09;-1.934234467683376E+00;1.262680384684011E+02;
1.212000000000000E+09;-1.937429087638137E+00;1.257096504015586E+02;
1.213000000000000E+09;-1.938957087994128E+00;1.251058145887901E+02;
1.214000000000000E+09;-1.942974974966891E+00;1.245613006083619E+02;
1.215000000000000E+09;-1.945547783550053E+00;1.239625021338124E+02;
1.216000000000000E+09;-1.950178604006541E+00;1.233706181882724E+02;
1.217000000000000E+09;-1.951562218519518E+00;1.227971223936888E+02;
1.218000000000000E+09;-1.953979154685895E+00;1.222283522305312E+02;
1.219000000000000E+09;-1.960947200329328E+00;1.216288984091024E+02;
1.220000000000000E+09;-1.961168069486547E+00;1.210200023367616E+02;
1.221000000000000E+09;-1.961531518305460E+00;1.204258154062117E+02;
1.222000000000000E+09;-1.965568100134648E+00;1.198313370608126E+02;
1.223000000000000E+09;-1.966114115507331E+00;1.192486551194179E+02;
1.224000000000000E+09;-1.968876062225660E+00;1.186163224494995E+02;
1.225000000000000E+09;-1.969540336235901E+00;1.180195928253874E+02;
1.226000000000000E+09;-1.966938855752728E+00;1.174078883554744E+02;
1.227000000000000E+09;-1.972016957306434E+00;1.167977704288865E+02;
1.228000000000000E+09;-1.973804392553220E+00;1.161983739220181E+02;
1.229000000000000E+09;-1.971491272975357E+00;1.156082040353280E+02;
1.230000000000000E+09;-1.973251914227923E+00;1.150619608183603E+02;
1.231000000000000E+09;-1.968935474457176E+00;1.144283355013486E+02;
1.232000000000000E+09;-1.964368492104256E+00;1.138758754634133E+02;
1.233000000000000E+09;-1.962286997423790E+00;1.133003475821777E+02;
1.234000000000000E+09;-1.956875350832591E+00;1.127443226265992E+02;
1.235000000000000E+09;-1.953392666145090E+00;1.121875546854879E+02;
1.236000000000000E+09;-1.946621335514384E+00;1.116531608936684E+02;
1.237000000000000E+09;-1.940487459331824E+00;1.110815443261140E+02;
1.238000000000000E+09;-1.930377900317377E+00;1.105812339941823E+02;
1.239000000000000E+09;-1.918865475661179E+00;1.100281783141792E+02;
1.240000000000000E+09;-1.903886827112672E+00;1.095059478304586E+02;
1.241000000000000E+09;-1.894572700665387E+00;1.090091142836062E+02;
1.242000000000000E+09;-1.882806729540408E+00;1.085081325965241E+02;
1.243000000000000E+09;-1.863784908751899E+00;1.079785412183389E+02;
1.244000000000000E+09;-1.847178389202100E+00;1.075136951278504E+02;
1.245000000000000E+09;-1.832985332847438E+00;1.070229745464963E+02;
1.246000000000000E+09;-1.819212256414990E+00;1.065407936258491E+02;
1.247000000000000E+09;-1.796172333971519E+00;1.060633286246499E+02;
1.248000000000000E+09;-1.782146333632947E+00;1.055936821235095E+02;
1.249000000000000E+09;-1.760074935741644E+00;1.051368650969463E+02;
1.250000000000000E+09;-1.739639696495043E+00;1.046920431502401E+02;
1.251000000000000E+09;-1.724530876446951E+00;1.042221300740609E+02;
1.252000000000000E+09;-1.703044123981009E+00;1.038161706339225E+02;
1.253000000000000E+09;-1.685236889091124E+00;1.033911158595298E+02;
1.254000000000000E+09;-1.666718910499255E+00;1.029439449393368E+02;
1.255000000000000E+09;-1.644808799099599E+00;1.025175294541511E+02;
1.256000000000000E+09;-1.627962642196041E+00;1.021089953149482E+02;
1.257000000000000E+09;-1.609232114700307E+00;1.017298629499027E+02;
1.258000000000000E+09;-1.590464786269699E+00;1.013266004082709E+02;
1.259000000000000E+09;-1.571252188344450E+00;1.009192999725450E+02;
1.260000000000000E+09;-1.552814068783184E+00;1.005142652127778E+02;
1.261000000000000E+09;-1.537091970637559E+00;1.001508174524740E+02;
1.262000000000000E+09;-1.519481445087576E+00;9.976463430222726E+01;
1.263000000000000E+09;-1.500180938491485E+00;9.939308249578443E+01;
1.264000000000000E+09;-1.486019059256078E+00;9.898576385780538E+01;
1.265000000000000E+09;-1.470530942907413E+00;9.863016423039572E+01;
1.266000000000000E+09;-1.455026351143327E+00;9.828521175945608E+01;
1.267000000000000E+09;-1.441046283089861E+00;9.790193990416326E+01;
1.268000000000000E+09;-1.427071493808689E+00;9.753424819751682E+01;
1.269000000000000E+09;-1.412812105772314E+00;9.716436420664660E+01;
1.270000000000000E+09;-1.399150573743658E+00;9.682892330570250E+01;
1.271000000000000E+09;-1.390216180748188E+00;9.644642760382554E+01;
1.272000000000000E+09;-1.379436377798710E+00;9.606470692762991E+01;
1.273000000000000E+09;-1.371380407462320E+00;9.569061099861784E+01;
1.274000000000000E+09;-1.363277874149133E+00;9.532408385164506E+01;
1.275000000000000E+09;-1.353866419584963E+00;9.498424908190816E+01;
1.276000000000000E+09;-1.347148896294365E+00;9.460032191522680E+01;
1.277000000000000E+09;-1.340069936397933E+00;9.424096076973107E+01;
1.278000000000000E+09;-1.338847989625915E+00;9.385329865871243E+01;
1.279000000000000E+09;-1.332830463961863E+00;9.349597563542896E+01;
1.280000000000000E+09;-1.327039204155679E+00;9.312152156681637E+01;
1.281000000000000E+09;-1.325967072843281E+00;9.272731254379818E+01;
1.282000000000000E+09;-1.324641265153445E+00;9.233416872966609E+01;
1.283000000000000E+09;-1.322597505736725E+00;9.191379121215954E+01;
1.284000000000000E+09;-1.320751603397445E+00;9.157983531857734E+01;
1.285000000000000E+09;-1.325504949822730E+00;9.117492373933567E+01;
1.286000000000000E+09;-1.326476763060329E+00;9.075777305677003E+01;
1.287000000000000E+09;-1.324472378985402E+00;9.035682636586942E+01;
1.288000000000000E+09;-1.325677506963265E+00;8.993300126907729E+01;
1.289000000000000E+09;-1.330906088871304E+00;8.953343927127008E+01;
1.290000000000000E+09;-1.337135132498523E+00;8.911758729205687E+01;
1.291000000000000E+09;-1.339206327876659E+00;8.867179050767382E+01;
1.292000000000000E+09;-1.344456187473762E+00;8.827791528972307E+01;
