# Version 1.00
#
freq[Hz];db:Trc4_S11;ang:Trc4_S11;
1.000000000000000E+09;-1.342142090162308E+00;1.581879446184091E+02;
1.001000000000000E+09;-1.367759816939846E+00;1.577331192463562E+02;
1.002000000000000E+09;-1.393500760840652E+00;1.573052635506598E+02;
1.003000000000000E+09;-1.418440922564527E+00;1.568568012671037E+02;
1.004000000000000E+09;-1.448889477372818E+00;1.564012090042492E+02;
1.005000000000000E+09;-1.476297751514191E+00;1.559404632597072E+02;
1.006000000000000E+09;-1.504331900590625E+00;1.554540213795315E+02;
1.007000000000000E+09;-1.535212832798489E+00;1.549490433345744E+02;
1.008000000000000E+09;-1.570400880355197E+00;1.544796227648878E+02;
1.009000000000000E+09;-1.604051348999645E+00;1.539682887268964E+02;
1.010000000000000E+09;-1.636666878712953E+00;1.534758560235496E+02;
1.011000000000000E+09;-1.673674835402000E+00;1.529285919453673E+02;
1.012000000000000E+09;-1.710809711647217E+00;1.523794418892747E+02;
1.013000000000000E+09;-1.749095851951208E+00;1.518191143355269E+02;
1.014000000000000E+09;-1.788537230900284E+00;1.512450630315493E+02;
1.015000000000000E+09;-1.831183513989037E+00;1.506794583533966E+02;
1.016000000000000E+09;-1.876315664937465E+00;1.500858633196054E+02;
1.017000000000000E+09;-1.919606068462948E+00;1.494501140754886E+02;
1.018000000000000E+09;-1.966734218474571E+00;1.488356810386879E+02;
1.019000000000000E+09;-2.017098880074465E+00;1.481984432679123E+02;
1.020000000000000E+09;-2.065521142380841E+00;1.475747656522487E+02;
1.021000000000000E+09;-2.115672446820490E+00;1.469146541092052E+02;
1.022000000000000E+09;-2.169194301433318E+00;1.462439603858820E+02;
1.023000000000000E+09;-2.225803361547514E+00;1.455863274136678E+02;
1.024000000000000E+09;-2.281247968974617E+00;1.449222549357586E+02;
1.025000000000000E+09;-2.340547450565653E+00;1.442206359422189E+02;
1.026000000000000E+09;-2.401458886487821E+00;1.435363654586135E+02;
1.027000000000000E+09;-2.455118647547270E+00;1.428638186650941E+02;
1.028000000000000E+09;-2.518980413930398E+00;1.421514532483752E+02;
1.029000000000000E+09;-2.578518433138712E+00;1.414969581709053E+02;
1.030000000000000E+09;-2.641651293853565E+00;1.407961047858492E+02;
1.031000000000000E+09;-2.708570627848470E+00;1.400887678190882E+02;
1.032000000000000E+09;-2.767141198274335E+00;1.393583243750240E+02;
1.033000000000000E+09;-2.828846568752363E+00;1.386768733128052E+02;
1.034000000000000E+09;-2.893680378511132E+00;1.379776824505774E+02;
1.035000000000000E+09;-2.956037953052530E+00;1.373311870837909E+02;
1.036000000000000E+09;-3.021930499441525E+00;1.366344148905492E+02;
1.037000000000000E+09;-3.085105316339070E+00;1.359178492374071E+02;
1.038000000000000E+09;-3.143596477758713E+00;1.352807104901380E+02;
1.039000000000000E+09;-3.208849436893716E+00;1.346026173847089E+02;
1.040000000000000E+09;-3.269928238145942E+00;1.339204233819376E+02;
1.041000000000000E+09;-3.328799213348685E+00;1.332856936831601E+02;
1.042000000000000E+09;-3.389613525304252E+00;1.326408820228721E+02;
1.043000000000000E+09;-3.448104550861982E+00;1.319602230151826E+02;
1.044000000000000E+09;-3.504680935400464E+00;1.313269534418115E+02;
1.045000000000000E+09;-3.562552142112411E+00;1.307068539457069E+02;
1.046000000000000E+09;-3.613939516698163E+00;1.300739178847748E+02;
1.047000000000000E+09;-3.673341473521055E+00;1.294066996347340E+02;
1.048000000000000E+09;-3.725638579872685E+00;1.287769183576365E+02;
1.049000000000000E+09;-3.778735235405932E+00;1.282027442703620E+02;
1.050000000000000E+09;-3.833442521416489E+00;1.275574557379351E+02;
1.051000000000000E+09;-3.884484335161162E+00;1.269476205755958E+02;
1.052000000000000E+09;-3.939631138600046E+00;1.263521394174460E+02;
1.053000000000000E+09;-3.990446335273240E+00;1.257403508837484E+02;
1.054000000000000E+09;-4.045686485016962E+00;1.251186286390102E+02;
1.055000000000000E+09;-4.092798354893631E+00;1.245212252386460E+02;
1.056000000000000E+09;-4.148453214235498E+00;1.239850268092327E+02;
1.057000000000000E+09;-4.198533564473213E+00;1.233980894636527E+02;
1.058000000000000E+09;-4.253086286034145E+00;1.228059430396454E+02;
1.059000000000000E+09;-4.308381042205742E+00;1.222621755721542E+02;
1.060000000000000E+09;-4.359782821699623E+00;1.216737319815696E+02;
1.061000000000000E+09;-4.414700295854454E+00;1.211277717288996E+02;
1.062000000000000E+09;-4.469491274784752E+00;1.205334135735139E+02;
1.063000000000000E+09;-4.530023170430659E+00;1.200151248598377E+02;
1.064000000000000E+09;-4.587080148719344E+00;1.194798634630583E+02;
1.065000000000000E+09;-4.650481963600100E+00;1.189292191763750E+02;
1.066000000000000E+09;-4.714884586455844E+00;1.183838807199233E+02;
1.067000000000000E+09;-4.777328790390997E+00;1.178473989536528E+02;
1.068000000000000E+09;-4.845912189743843E+00;1.173341708513820E+02;
1.069000000000000E+09;-4.917266679732393E+00;1.167623614105274E+02;
1.070000000000000E+09;-4.992091377264465E+00;1.162252970322027E+02;
1.071000000000000E+09;-5.068919865981020E+00;1.157485734130967E+02;
1.072000000000000E+09;-5.148654108547886E+00;1.151920117290620E+02;
1.073000000000000E+09;-5.232568483089005E+00;1.146646397916207E+02;
1.074000000000000E+09;-5.320786615717386E+00;1.141851355989218E+02;
1.075000000000000E+09;-5.405677562743808E+00;1.136218241035159E+02;
1.076000000000000E+09;-5.501197105088273E+00;1.130973618029213E+02;
1.077000000000000E+09;-5.603749419217506E+00;1.125108572007824E+02;
1.078000000000000E+09;-5.711846971069230E+00;1.120049863600425E+02;
1.079000000000000E+09;-5.824119394470767E+00;1.114612861279987E+02;
1.080000000000000E+09;-5.949161798468765E+00;1.109050986788657E+02;
1.081000000000000E+09;-6.077886152387752E+00;1.103604416662219E+02;
1.082000000000000E+09;-6.213853131810016E+00;1.098462822641399E+02;
1.083000000000000E+09;-6.357871276525251E+00;1.092983155032863E+02;
1.084000000000000E+09;-6.515727277972113E+00;1.088023746409668E+02;
1.085000000000000E+09;-6.669445901655426E+00;1.082783223420591E+02;
1.086000000000000E+09;-6.844633766992773E+00;1.078134742143763E+02;
1.087000000000000E+09;-7.021100530518708E+00;1.073272544802020E+02;
1.088000000000000E+09;-7.213542527073168E+00;1.068324799434929E+02;
1.089000000000000E+09;-7.413823513094064E+00;1.063906975927047E+02;
1.090000000000000E+09;-7.632868243896142E+00;1.059964617343467E+02;
1.091000000000000E+09;-7.859997871687855E+00;1.056012322261229E+02;
1.092000000000000E+09;-8.102709205864793E+00;1.052379436288204E+02;
1.093000000000000E+09;-8.349471106318195E+00;1.049512943038206E+02;
1.094000000000000E+09;-8.620659053970153E+00;1.046779021428860E+02;
1.095000000000000E+09;-8.897543047583142E+00;1.044775177883452E+02;
1.096000000000000E+09;-9.192002982984008E+00;1.043930776006666E+02;
1.097000000000000E+09;-9.495605072739762E+00;1.043695937735027E+02;
1.098000000000000E+09;-9.813659753989977E+00;1.044050019977249E+02;
1.099000000000000E+09;-1.014294403318099E+01;1.045630625557138E+02;
1.100000000000000E+09;-1.048687196644093E+01;1.047542437759284E+02;
1.101000000000000E+09;-1.085040464311669E+01;1.050862615897965E+02;
1.102000000000000E+09;-1.122540807105233E+01;1.055707022253596E+02;
1.103000000000000E+09;-1.161348912839762E+01;1.061295019912009E+02;
1.104000000000000E+09;-1.202553054238871E+01;1.069343310408322E+02;
1.105000000000000E+09;-1.244358682819999E+01;1.079442702343877E+02;
1.106000000000000E+09;-1.289006337169816E+01;1.091439432657061E+02;
1.107000000000000E+09;-1.333787585897839E+01;1.107118192565058E+02;
1.108000000000000E+09;-1.378853616870284E+01;1.126005235534162E+02;
1.109000000000000E+09;-1.425606324094710E+01;1.148503133068778E+02;
1.110000000000000E+09;-1.470500983436649E+01;1.174735814334393E+02;
1.111000000000000E+09;-1.512013789871763E+01;1.207242548366531E+02;
1.112000000000000E+09;-1.549140279275746E+01;1.242980640066108E+02;
1.113000000000000E+09;-1.581188745064718E+01;1.283138948438552E+02;
1.114000000000000E+09;-1.605344384174723E+01;1.326952175911642E+02;
1.115000000000000E+09;-1.620366712933640E+01;1.374196129501266E+02;
1.116000000000000E+09;-1.626636328178314E+01;1.422696523416123E+02;
1.117000000000000E+09;-1.622071911175137E+01;1.471249163474448E+02;
1.118000000000000E+09;-1.605686088233370E+01;1.519200921893351E+02;
1.119000000000000E+09;-1.579874148174137E+01;1.564071997865945E+02;
1.120000000000000E+09;-1.545700295673872E+01;1.603351892802808E+02;
1.121000000000000E+09;-1.505480297942551E+01;1.638392170381813E+02;
1.122000000000000E+09;-1.461002830490818E+01;1.668909765745430E+02;
1.123000000000000E+09;-1.414433993885311E+01;1.693601077815937E+02;
1.124000000000000E+09;-1.366341466834374E+01;1.714000025327973E+02;
1.125000000000000E+09;-1.319713822349923E+01;1.729869144640028E+02;
1.126000000000000E+09;-1.271717964380131E+01;1.742454394233150E+02;
1.127000000000000E+09;-1.226119733470628E+01;1.750774608849090E+02;
1.128000000000000E+09;-1.182379875156095E+01;1.757696161594246E+02;
1.129000000000000E+09;-1.139390993186529E+01;1.761584679815033E+02;
1.130000000000000E+09;-1.098820712217358E+01;1.764324773944230E+02;
1.131000000000000E+09;-1.059323031776787E+01;1.764032518484001E+02;
1.132000000000000E+09;-1.022516655055771E+01;1.763191944063084E+02;
1.133000000000000E+09;-9.865295809493308E+00;1.760796921472360E+02;
1.134000000000000E+09;-9.525770518984574E+00;1.757346799388644E+02;
1.135000000000000E+09;-9.202082555491973E+00;1.753585154388204E+02;
1.136000000000000E+09;-8.888902152662695E+00;1.748237635903848E+02;
1.137000000000000E+09;-8.580512388081324E+00;1.743195416820070E+02;
1.138000000000000E+09;-8.290508143031994E+00;1.736832597696615E+02;
1.139000000000000E+09;-8.028059468486529E+00;1.729755223123906E+02;
1.140000000000000E+09;-7.766519170806882E+00;1.723442543979838E+02;
1.141000000000000E+09;-7.507696001258645E+00;1.716305654991765E+02;
1.142000000000000E+09;-7.263564033656710E+00;1.708881127779138E+02;
1.143000000000000E+09;-7.027106846909184E+00;1.701414072888194E+02;
1.144000000000000E+09;-6.800853875782632E+00;1.693721107344851E+02;
1.145000000000000E+09;-6.576783981826581E+00;1.685794240352542E+02;
1.146000000000000E+09;-6.360449473602996E+00;1.677321264027319E+02;
1.147000000000000E+09;-6.153949888579278E+00;1.668819764692848E+02;
1.148000000000000E+09;-5.954210659438589E+00;1.660507950451006E+02;
1.149000000000000E+09;-5.766271270626907E+00;1.651975968347619E+02;
1.150000000000000E+09;-5.582971792280460E+00;1.642870259961503E+02;
1.151000000000000E+09;-5.409663130866173E+00;1.634695607165908E+02;
1.152000000000000E+09;-5.240620021004271E+00;1.625981949658100E+02;
1.153000000000000E+09;-5.087558269110809E+00;1.617752959873836E+02;
1.154000000000000E+09;-4.930234433236692E+00;1.609642818113918E+02;
1.155000000000000E+09;-4.778971857989422E+00;1.601545230328654E+02;
1.156000000000000E+09;-4.629594315725660E+00;1.593393202508872E+02;
1.157000000000000E+09;-4.490073963241302E+00;1.585525269084480E+02;
1.158000000000000E+09;-4.354301688132977E+00;1.577681454421679E+02;
1.159000000000000E+09;-4.223446395424973E+00;1.569757689197561E+02;
1.160000000000000E+09;-4.097043472216912E+00;1.562232141768174E+02;
1.161000000000000E+09;-3.978920306226403E+00;1.554836454199086E+02;
1.162000000000000E+09;-3.861937982630207E+00;1.547457111861860E+02;
1.163000000000000E+09;-3.749742665751452E+00;1.540325824883942E+02;
1.164000000000000E+09;-3.638613967654651E+00;1.533119929594002E+02;
1.165000000000000E+09;-3.535090259305493E+00;1.526057766745308E+02;
1.166000000000000E+09;-3.435432371419116E+00;1.519375219798170E+02;
1.167000000000000E+09;-3.336755933852191E+00;1.512395354083256E+02;
1.168000000000000E+09;-3.242948812233640E+00;1.505826018621896E+02;
1.169000000000000E+09;-3.155506352834518E+00;1.499282108520749E+02;
1.170000000000000E+09;-3.071607015066711E+00;1.492810635732130E+02;
1.171000000000000E+09;-2.991740133593597E+00;1.486470726192948E+02;
1.172000000000000E+09;-2.916108761083216E+00;1.480355329122587E+02;
1.173000000000000E+09;-2.843045273061422E+00;1.474065472090384E+02;
1.174000000000000E+09;-2.769385088457608E+00;1.468198631156281E+02;
1.175000000000000E+09;-2.704940882862066E+00;1.462331025143860E+02;
1.176000000000000E+09;-2.640752376635407E+00;1.456224499547747E+02;
1.177000000000000E+09;-2.577859872099747E+00;1.450648256093663E+02;
1.178000000000000E+09;-2.519831360697938E+00;1.444932021775015E+02;
1.179000000000000E+09;-2.467951134509951E+00;1.438885059755215E+02;
1.180000000000000E+09;-2.419953596049732E+00;1.433493762055581E+02;
1.181000000000000E+09;-2.374508217468446E+00;1.428181487654114E+02;
1.182000000000000E+09;-2.332684208728395E+00;1.422686558639770E+02;
1.183000000000000E+09;-2.291832321833360E+00;1.417588047378234E+02;
1.184000000000000E+09;-2.253239761814751E+00;1.412246540290792E+02;
1.185000000000000E+09;-2.215918764975168E+00;1.407214725679111E+02;
1.186000000000000E+09;-2.182127639221580E+00;1.402357189027719E+02;
1.187000000000000E+09;-2.150104914079808E+00;1.397098160676993E+02;
1.188000000000000E+09;-2.118496838776044E+00;1.392008896648415E+02;
1.189000000000000E+09;-2.091076878476759E+00;1.387151948406798E+02;
1.190000000000000E+09;-2.065123051001870E+00;1.382039713906760E+02;
1.191000000000000E+09;-2.040724171412478E+00;1.376994346684083E+02;
1.192000000000000E+09;-2.023350925330472E+00;1.371940151345941E+02;
1.193000000000000E+09;-2.003098123776349E+00;1.367127600822191E+02;
1.194000000000000E+09;-1.988160652197035E+00;1.361919103523506E+02;
1.195000000000000E+09;-1.976917969423430E+00;1.357103997342759E+02;
1.196000000000000E+09;-1.961164492908722E+00;1.351990905053761E+02;
1.197000000000000E+09;-1.947653081662339E+00;1.346928072557403E+02;
1.198000000000000E+09;-1.938565271094488E+00;1.341766426466143E+02;
1.199000000000000E+09;-1.928605644794827E+00;1.336996989184382E+02;
1.200000000000000E+09;-1.917282979111187E+00;1.331804578437593E+02;
1.201000000000000E+09;-1.913702156682274E+00;1.326618905816480E+02;
1.202000000000000E+09;-1.908959328793011E+00;1.321213082911097E+02;
1.203000000000000E+09;-1.908673879959365E+00;1.316122806711332E+02;
1.204000000000000E+09;-1.909327096283405E+00;1.310794839732989E+02;
1.205000000000000E+09;-1.903820451295037E+00;1.305509423149383E+02;
1.206000000000000E+09;-1.907592832094201E+00;1.300217023805936E+02;
1.207000000000000E+09;-1.906196166976569E+00;1.294910429853176E+02;
1.208000000000000E+09;-1.906784581086007E+00;1.289597173966770E+02;
1.209000000000000E+09;-1.908840718595040E+00;1.284127145359290E+02;
1.210000000000000E+09;-1.911821529359814E+00;1.278716193300173E+02;
1.211000000000000E+09;-1.914991693668255E+00;1.273067400101505E+02;
1.212000000000000E+09;-1.919796930743780E+00;1.267602859822985E+02;
1.213000000000000E+09;-1.922065843785612E+00;1.261679224920330E+02;
1.214000000000000E+09;-1.925982571710827E+00;1.256303182280836E+02;
1.215000000000000E+09;-1.926120938146462E+00;1.250478385012051E+02;
1.216000000000000E+09;-1.930649328965977E+00;1.244657207437557E+02;
1.217000000000000E+09;-1.933095598872590E+00;1.238816920647651E+02;
1.218000000000000E+09;-1.935403454654442E+00;1.232853149113151E+02;
1.219000000000000E+09;-1.941926119061157E+00;1.226864247399158E+02;
1.220000000000000E+09;-1.940751655811636E+00;1.220787803953406E+02;
1.221000000000000E+09;-1.943002802126839E+00;1.214768423456062E+02;
1.222000000000000E+09;-1.951928338139499E+00;1.208591622124837E+02;
1.223000000000000E+09;-1.951586814824677E+00;1.202409713161176E+02;
1.224000000000000E+09;-1.953359213594588E+00;1.195986996374588E+02;
1.225000000000000E+09;-1.958081338648927E+00;1.189999184862530E+02;
1.226000000000000E+09;-1.958673213722781E+00;1.183712933691221E+02;
1.227000000000000E+09;-1.967457969635027E+00;1.177239053582863E+02;
1.228000000000000E+09;-1.970981086102121E+00;1.171150195698102E+02;
1.229000000000000E+09;-1.975558445840486E+00;1.164922176446933E+02;
1.230000000000000E+09;-1.981205259186623E+00;1.158947149930667E+02;
1.231000000000000E+09;-1.981540992952441E+00;1.152896192975442E+02;
1.232000000000000E+09;-1.982663086859462E+00;1.146955061447273E+02;
1.233000000000000E+09;-1.988323292739911E+00;1.141173196736218E+02;
1.234000000000000E+09;-1.986990083512866E+00;1.135388866226871E+02;
1.235000000000000E+09;-1.993495807352450E+00;1.129615271534778E+02;
1.236000000000000E+09;-1.986092760988357E+00;1.124298906754075E+02;
1.237000000000000E+09;-1.981450551671162E+00;1.118540054243069E+02;
1.238000000000000E+09;-1.983942292135908E+00;1.113465968845594E+02;
1.239000000000000E+09;-1.972381752948294E+00;1.107828081551152E+02;
1.240000000000000E+09;-1.965657547164862E+00;1.102388838228029E+02;
1.241000000000000E+09;-1.963517770797771E+00;1.097341493650387E+02;
1.242000000000000E+09;-1.956563645122520E+00;1.092457330181065E+02;
1.243000000000000E+09;-1.946567326640663E+00;1.087496478235378E+02;
1.244000000000000E+09;-1.930575814276015E+00;1.082451754518635E+02;
1.245000000000000E+09;-1.922222970469413E+00;1.077562985796621E+02;
1.246000000000000E+09;-1.911966982311134E+00;1.072969613281324E+02;
1.247000000000000E+09;-1.896794808284446E+00;1.068280006950740E+02;
1.248000000000000E+09;-1.882826263447119E+00;1.063448087937682E+02;
1.249000000000000E+09;-1.865788329404193E+00;1.058962377386244E+02;
1.250000000000000E+09;-1.848206920183923E+00;1.054357082857274E+02;
1.251000000000000E+09;-1.837169614659270E+00;1.049736029355157E+02;
1.252000000000000E+09;-1.819080839213293E+00;1.045676731158752E+02;
1.253000000000000E+09;-1.804307448450652E+00;1.041532295927336E+02;
1.254000000000000E+09;-1.786849864736430E+00;1.037118888090022E+02;
1.255000000000000E+09;-1.767458132658414E+00;1.032669540815020E+02;
1.256000000000000E+09;-1.757185331802680E+00;1.028741099919808E+02;
1.257000000000000E+09;-1.738933438543550E+00;1.024829976917219E+02;
1.258000000000000E+09;-1.721273542533746E+00;1.020900500381964E+02;
1.259000000000000E+09;-1.703251822956461E+00;1.016773824316248E+02;
1.260000000000000E+09;-1.686042578744073E+00;1.012759837792056E+02;
1.261000000000000E+09;-1.670769601385014E+00;1.009276612518276E+02;
1.262000000000000E+09;-1.654753209436613E+00;1.005324286417288E+02;
1.263000000000000E+09;-1.635358117045523E+00;1.001680830998087E+02;
1.264000000000000E+09;-1.620959263278084E+00;9.973615113402579E+01;
1.265000000000000E+09;-1.606388457931871E+00;9.939135825217976E+01;
1.266000000000000E+09;-1.591951292223769E+00;9.904312560934754E+01;
1.267000000000000E+09;-1.576195232151712E+00;9.864205193012945E+01;
1.268000000000000E+09;-1.565160388660505E+00;9.827309892399798E+01;
1.269000000000000E+09;-1.551341945412068E+00;9.789804394446998E+01;
1.270000000000000E+09;-1.541060766642155E+00;9.754339924178446E+01;
1.271000000000000E+09;-1.528826789188596E+00;9.717915593631832E+01;
1.272000000000000E+09;-1.518931049823113E+00;9.679532373234255E+01;
1.273000000000000E+09;-1.512501885378160E+00;9.643441515201091E+01;
1.274000000000000E+09;-1.500809769070859E+00;9.603483871929207E+01;
1.275000000000000E+09;-1.493798409791917E+00;9.569208283644019E+01;
1.276000000000000E+09;-1.480999204675431E+00;9.531286920271279E+01;
1.277000000000000E+09;-1.474491614576179E+00;9.493900281820979E+01;
1.278000000000000E+09;-1.472087752830178E+00;9.455067460361266E+01;
1.279000000000000E+09;-1.462916836609253E+00;9.418885177815983E+01;
1.280000000000000E+09;-1.459205417344133E+00;9.381861962411000E+01;
1.281000000000000E+09;-1.457550900515472E+00;9.343300268776206E+01;
1.282000000000000E+09;-1.454984674636080E+00;9.303323852371354E+01;
1.283000000000000E+09;-1.450568211127004E+00;9.261045936457290E+01;
1.284000000000000E+09;-1.445014544107816E+00;9.226508672448792E+01;
1.285000000000000E+09;-1.447265782699337E+00;9.185113477831047E+01;
1.286000000000000E+09;-1.447513803857416E+00;9.143841096620160E+01;
1.287000000000000E+09;-1.443132777928950E+00;9.101927484850997E+01;
1.288000000000000E+09;-1.442931051357954E+00;9.060493670262984E+01;
1.289000000000000E+09;-1.443126845990865E+00;9.019637931145637E+01;
1.290000000000000E+09;-1.445140482200198E+00;8.977326622694879E+01;
1.291000000000000E+09;-1.445876991118771E+00;8.933160371088650E+01;
1.292000000000000E+09;-1.449144787998914E+00;8.888584508132726E+01;
