# Version 1.00
#
freq[Hz];db:Trc4_S11;ang:Trc4_S11;
1.000000000000000E+09;-1.291810374048105E+00;1.576505691022668E+02;
1.001000000000000E+09;-1.309804824107089E+00;1.572007041385217E+02;
1.002000000000000E+09;-1.334898336259134E+00;1.567533036953193E+02;
1.003000000000000E+09;-1.361221429672875E+00;1.563001342681071E+02;
1.004000000000000E+09;-1.388858057846691E+00;1.558250037110479E+02;
1.005000000000000E+09;-1.416695277604417E+00;1.553652282736260E+02;
1.006000000000000E+09;-1.443941314157700E+00;1.548798947416106E+02;
1.007000000000000E+09;-1.477243892244072E+00;1.543807367709518E+02;
1.008000000000000E+09;-1.507265116600586E+00;1.538963614196404E+02;
1.009000000000000E+09;-1.538080714735166E+00;1.533858953368535E+02;
1.010000000000000E+09;-1.571127385426959E+00;1.528715083438202E+02;
1.011000000000000E+09;-1.609409150744430E+00;1.523261090633387E+02;
1.012000000000000E+09;-1.644230846763934E+00;1.517934310044010E+02;
1.013000000000000E+09;-1.677519917044321E+00;1.512497497870787E+02;
1.014000000000000E+09;-1.717855587157999E+00;1.506857307318889E+02;
1.015000000000000E+09;-1.759306227578169E+00;1.501417339704301E+02;
1.016000000000000E+09;-1.797396104715713E+00;1.495568132963040E+02;
1.017000000000000E+09;-1.837372560994279E+00;1.489512017446784E+02;
1.018000000000000E+09;-1.881800820391595E+00;1.483524013331197E+02;
1.019000000000000E+09;-1.927687329351714E+00;1.477506401826377E+02;
1.020000000000000E+09;-1.970056439271807E+00;1.471628292258009E+02;
1.021000000000000E+09;-2.013909188769771E+00;1.465263836533729E+02;
1.022000000000000E+09;-2.059917718819612E+00;1.458871445984983E+02;
1.023000000000000E+09;-2.109180411860607E+00;1.452612604155043E+02;
1.024000000000000E+09;-2.158382263191198E+00;1.446246516208005E+02;
1.025000000000000E+09;-2.210494272412639E+00;1.439799921366568E+02;
1.026000000000000E+09;-2.259925484761164E+00;1.433195881074751E+02;
1.027000000000000E+09;-2.309087202068547E+00;1.426795419031789E+02;
1.028000000000000E+09;-2.357260119819951E+00;1.420079525070137E+02;
1.029000000000000E+09;-2.408072672220666E+00;1.413511833969395E+02;
1.030000000000000E+09;-2.463487794278676E+00;1.406809807300911E+02;
1.031000000000000E+09;-2.514258833307720E+00;1.400381228599593E+02;
1.032000000000000E+09;-2.566605106545788E+00;1.393564696564322E+02;
1.033000000000000E+09;-2.616682422681841E+00;1.386871308347121E+02;
1.034000000000000E+09;-2.665902068782283E+00;1.380474271373646E+02;
1.035000000000000E+09;-2.718731379354202E+00;1.373800271403067E+02;
1.036000000000000E+09;-2.768360285125284E+00;1.367296876965418E+02;
1.037000000000000E+09;-2.819255610354701E+00;1.360268753994292E+02;
1.038000000000000E+09;-2.868091073549433E+00;1.353832694127846E+02;
1.039000000000000E+09;-2.915986332525394E+00;1.347478530345491E+02;
1.040000000000000E+09;-2.962154842928522E+00;1.340920913416880E+02;
1.041000000000000E+09;-3.016182972074750E+00;1.334513855886613E+02;
1.042000000000000E+09;-3.061703228657293E+00;1.328080352233518E+02;
1.043000000000000E+09;-3.113853008063239E+00;1.321353766469513E+02;
1.044000000000000E+09;-3.157883131852909E+00;1.314741354118299E+02;
1.045000000000000E+09;-3.206945852268201E+00;1.308862065741466E+02;
1.046000000000000E+09;-3.252416262885563E+00;1.302591370422314E+02;
1.047000000000000E+09;-3.297097224157493E+00;1.296060400547982E+02;
1.048000000000000E+09;-3.345635802337740E+00;1.289953862490204E+02;
1.049000000000000E+09;-3.393283304175508E+00;1.284010335887627E+02;
1.050000000000000E+09;-3.437019036610449E+00;1.277956562258706E+02;
1.051000000000000E+09;-3.480576226620612E+00;1.272146977120989E+02;
1.052000000000000E+09;-3.528458160523515E+00;1.266273072195364E+02;
1.053000000000000E+09;-3.575906383943559E+00;1.260537335512203E+02;
1.054000000000000E+09;-3.625538036954274E+00;1.254477819781737E+02;
1.055000000000000E+09;-3.664463427416802E+00;1.248851045205973E+02;
1.056000000000000E+09;-3.711473360705257E+00;1.243133264164066E+02;
1.057000000000000E+09;-3.757790981542174E+00;1.237509454463634E+02;
1.058000000000000E+09;-3.806694163115345E+00;1.231793847986541E+02;
1.059000000000000E+09;-3.853528643531718E+00;1.226381299009988E+02;
1.060000000000000E+09;-3.903170367618343E+00;1.220662923364083E+02;
1.061000000000000E+09;-3.951937476756493E+00;1.215204826052824E+02;
1.062000000000000E+09;-4.003465861541437E+00;1.209422548560062E+02;
1.063000000000000E+09;-4.059754377198795E+00;1.204353819374552E+02;
1.064000000000000E+09;-4.110884709696656E+00;1.198983984242028E+02;
1.065000000000000E+09;-4.172151240689113E+00;1.193692880761534E+02;
1.066000000000000E+09;-4.233946097897702E+00;1.188316483359132E+02;
1.067000000000000E+09;-4.293679168464029E+00;1.183072913335051E+02;
1.068000000000000E+09;-4.361062258265692E+00;1.177959539633825E+02;
1.069000000000000E+09;-4.428676566657212E+00;1.172459565860593E+02;
1.070000000000000E+09;-4.499547519688316E+00;1.167047102906472E+02;
1.071000000000000E+09;-4.576524366376990E+00;1.162108768403792E+02;
1.072000000000000E+09;-4.652732012793811E+00;1.156599863679830E+02;
1.073000000000000E+09;-4.730639469783203E+00;1.151228697685047E+02;
1.074000000000000E+09;-4.820825191492712E+00;1.145853316350681E+02;
1.075000000000000E+09;-4.908809605904360E+00;1.140305181504026E+02;
1.076000000000000E+09;-5.007686423458804E+00;1.135041005213213E+02;
1.077000000000000E+09;-5.111860326076342E+00;1.129192111196894E+02;
1.078000000000000E+09;-5.226293733836561E+00;1.124144665981149E+02;
1.079000000000000E+09;-5.339262736325779E+00;1.118720717423917E+02;
1.080000000000000E+09;-5.466280591497087E+00;1.113343801225264E+02;
1.081000000000000E+09;-5.599428087781419E+00;1.107906923725570E+02;
1.082000000000000E+09;-5.737175196669638E+00;1.103218169297788E+02;
1.083000000000000E+09;-5.884720577552387E+00;1.098128489914583E+02;
1.084000000000000E+09;-6.039644872922755E+00;1.093002374303021E+02;
1.085000000000000E+09;-6.202328212203908E+00;1.087985016909330E+02;
1.086000000000000E+09;-6.375262457887491E+00;1.083559017475338E+02;
1.087000000000000E+09;-6.548238727728925E+00;1.078668503439740E+02;
1.088000000000000E+09;-6.741272023077730E+00;1.073714888728300E+02;
1.089000000000000E+09;-6.937351130435926E+00;1.069307064168946E+02;
1.090000000000000E+09;-7.147106980758028E+00;1.064912607586455E+02;
1.091000000000000E+09;-7.374968030433279E+00;1.060268220924400E+02;
1.092000000000000E+09;-7.607691955061167E+00;1.056431724583367E+02;
1.093000000000000E+09;-7.857755162022679E+00;1.052721068443139E+02;
1.094000000000000E+09;-8.126631379244886E+00;1.048818009140622E+02;
1.095000000000000E+09;-8.406459186770338E+00;1.045490210977482E+02;
1.096000000000000E+09;-8.708253714712811E+00;1.043191003731466E+02;
1.097000000000000E+09;-9.028149426257384E+00;1.041440316620793E+02;
1.098000000000000E+09;-9.361646472017082E+00;1.040111269042870E+02;
1.099000000000000E+09;-9.721446479065113E+00;1.040462514600291E+02;
1.100000000000000E+09;-1.009451038620933E+01;1.041660137768935E+02;
1.101000000000000E+09;-1.048593499164401E+01;1.044220876011826E+02;
1.102000000000000E+09;-1.088938751236130E+01;1.048319204199394E+02;
1.103000000000000E+09;-1.131331771613660E+01;1.054196023556675E+02;
1.104000000000000E+09;-1.175257339782001E+01;1.061818385021823E+02;
1.105000000000000E+09;-1.222355942788947E+01;1.071494397423141E+02;
1.106000000000000E+09;-1.270464050435475E+01;1.083905807618122E+02;
1.107000000000000E+09;-1.319841427348900E+01;1.099663761902077E+02;
1.108000000000000E+09;-1.369231268015214E+01;1.119730062005642E+02;
1.109000000000000E+09;-1.419540954464827E+01;1.143483375809501E+02;
1.110000000000000E+09;-1.468294362515120E+01;1.171640874968515E+02;
1.111000000000000E+09;-1.514336017308798E+01;1.206035688318102E+02;
1.112000000000000E+09;-1.555496502848839E+01;1.245154419819367E+02;
1.113000000000000E+09;-1.591401332613453E+01;1.288580420042913E+02;
1.114000000000000E+09;-1.617276299266866E+01;1.337076363088936E+02;
1.115000000000000E+09;-1.631126275457435E+01;1.388174316353555E+02;
1.116000000000000E+09;-1.635166522512752E+01;1.440971837692703E+02;
1.117000000000000E+09;-1.626156817829087E+01;1.491926088865899E+02;
1.118000000000000E+09;-1.606449471242438E+01;1.540684882527376E+02;
1.119000000000000E+09;-1.577385620132459E+01;1.585711384283949E+02;
1.120000000000000E+09;-1.541085495191429E+01;1.624926763184052E+02;
1.121000000000000E+09;-1.499273131857387E+01;1.659497993874099E+02;
1.122000000000000E+09;-1.455202622661088E+01;1.689688756411856E+02;
1.123000000000000E+09;-1.408027977105749E+01;1.713849316091232E+02;
1.124000000000000E+09;-1.360517231611068E+01;1.734342959106914E+02;
1.125000000000000E+09;-1.313306054973954E+01;1.749868114327948E+02;
1.126000000000000E+09;-1.266002881773997E+01;1.763071860816889E+02;
1.127000000000000E+09;-1.221106829892631E+01;1.772305337231547E+02;
1.128000000000000E+09;-1.176352081617068E+01;1.779419056322984E+02;
1.129000000000000E+09;-1.133545219540892E+01;1.783927859640110E+02;
1.130000000000000E+09;-1.092229497391354E+01;1.786871563437294E+02;
1.131000000000000E+09;-1.053091934931899E+01;1.786953353662901E+02;
1.132000000000000E+09;-1.015482849488319E+01;1.785928863168456E+02;
1.133000000000000E+09;-9.786205361477807E+00;1.783266263959147E+02;
1.134000000000000E+09;-9.436683369956707E+00;1.780390155896893E+02;
1.135000000000000E+09;-9.103061915902417E+00;1.776192248764565E+02;
1.136000000000000E+09;-8.784069182610468E+00;1.771223833381233E+02;
1.137000000000000E+09;-8.473481600959660E+00;1.765256229489354E+02;
1.138000000000000E+09;-8.176066261203523E+00;1.758716571767444E+02;
1.139000000000000E+09;-7.899355404093344E+00;1.751368763073675E+02;
1.140000000000000E+09;-7.634418423176324E+00;1.744414673447389E+02;
1.141000000000000E+09;-7.367967063633478E+00;1.736158143118559E+02;
1.142000000000000E+09;-7.122045092954117E+00;1.727703162482820E+02;
1.143000000000000E+09;-6.885826317611964E+00;1.719307942907851E+02;
1.144000000000000E+09;-6.657376267457838E+00;1.710476964860178E+02;
1.145000000000000E+09;-6.436356561556595E+00;1.701736244203774E+02;
1.146000000000000E+09;-6.230829014309048E+00;1.692214355660871E+02;
1.147000000000000E+09;-6.031313724995152E+00;1.683150220161604E+02;
1.148000000000000E+09;-5.836411591326699E+00;1.674151718776344E+02;
1.149000000000000E+09;-5.652560893363495E+00;1.665495831584822E+02;
1.150000000000000E+09;-5.477827312440495E+00;1.656127322366452E+02;
1.151000000000000E+09;-5.304885394822701E+00;1.647326153960433E+02;
1.152000000000000E+09;-5.141597684326537E+00;1.638220051124548E+02;
1.153000000000000E+09;-4.984665403315550E+00;1.629549303438897E+02;
1.154000000000000E+09;-4.830840858314483E+00;1.620460045123482E+02;
1.155000000000000E+09;-4.683180917840717E+00;1.612154563331498E+02;
1.156000000000000E+09;-4.534321903765186E+00;1.603328977786255E+02;
1.157000000000000E+09;-4.401027860290174E+00;1.594860903053918E+02;
1.158000000000000E+09;-4.268579219916730E+00;1.586528506343465E+02;
1.159000000000000E+09;-4.140311240738109E+00;1.578206101109685E+02;
1.160000000000000E+09;-4.019705575169121E+00;1.570071069393850E+02;
1.161000000000000E+09;-3.901749985047705E+00;1.562074131334216E+02;
1.162000000000000E+09;-3.788082004325384E+00;1.554262882755577E+02;
1.163000000000000E+09;-3.683508125838797E+00;1.546690946080125E+02;
1.164000000000000E+09;-3.575605576433751E+00;1.539223478941249E+02;
1.165000000000000E+09;-3.473845196394110E+00;1.531663605417309E+02;
1.166000000000000E+09;-3.379991950615906E+00;1.524628068550992E+02;
1.167000000000000E+09;-3.282651369340503E+00;1.517385626021292E+02;
1.168000000000000E+09;-3.195800735531616E+00;1.510482087350798E+02;
1.169000000000000E+09;-3.110529586629571E+00;1.503681244280130E+02;
1.170000000000000E+09;-3.029798522621365E+00;1.497065122645217E+02;
1.171000000000000E+09;-2.947694836591563E+00;1.490406137489969E+02;
1.172000000000000E+09;-2.873973367262104E+00;1.484008127895063E+02;
1.173000000000000E+09;-2.803097751717929E+00;1.477625304322948E+02;
1.174000000000000E+09;-2.733347034250762E+00;1.471598800312376E+02;
1.175000000000000E+09;-2.668136115978830E+00;1.465333865331012E+02;
1.176000000000000E+09;-2.604887882660063E+00;1.459248421332461E+02;
1.177000000000000E+09;-2.542710647021971E+00;1.453567066563219E+02;
1.178000000000000E+09;-2.486041397985159E+00;1.447788770556237E+02;
1.179000000000000E+09;-2.431793728661026E+00;1.441761060780637E+02;
1.180000000000000E+09;-2.377356829881239E+00;1.436070011793394E+02;
1.181000000000000E+09;-2.326663692409765E+00;1.430597309072586E+02;
1.182000000000000E+09;-2.281461142263280E+00;1.424781291185298E+02;
1.183000000000000E+09;-2.237432496472362E+00;1.419222840694567E+02;
1.184000000000000E+09;-2.193978082408736E+00;1.413463124225864E+02;
1.185000000000000E+09;-2.157612773264972E+00;1.408175714974250E+02;
1.186000000000000E+09;-2.122114040672362E+00;1.402590160673888E+02;
1.187000000000000E+09;-2.086388788253857E+00;1.396926491366277E+02;
1.188000000000000E+09;-2.056861723013858E+00;1.391603684639976E+02;
1.189000000000000E+09;-2.029643526844884E+00;1.386228468984463E+02;
1.190000000000000E+09;-2.001109340704697E+00;1.380969370012893E+02;
1.191000000000000E+09;-1.974527879550947E+00;1.375458878974135E+02;
1.192000000000000E+09;-1.954361797095103E+00;1.370014813053466E+02;
1.193000000000000E+09;-1.932418724349729E+00;1.364756328437240E+02;
1.194000000000000E+09;-1.916871250194545E+00;1.359110449024799E+02;
1.195000000000000E+09;-1.899689214895028E+00;1.354052714726994E+02;
1.196000000000000E+09;-1.886064223071523E+00;1.348612465549663E+02;
1.197000000000000E+09;-1.871515428006377E+00;1.343193174199446E+02;
1.198000000000000E+09;-1.861665452111048E+00;1.337621157392408E+02;
1.199000000000000E+09;-1.850917489833476E+00;1.332373705237339E+02;
1.200000000000000E+09;-1.841569618173605E+00;1.326972237297206E+02;
1.201000000000000E+09;-1.835702503781916E+00;1.321290126697471E+02;
1.202000000000000E+09;-1.830016682171580E+00;1.315922899334001E+02;
1.203000000000000E+09;-1.826693589384525E+00;1.310325851444403E+02;
1.204000000000000E+09;-1.820823759454634E+00;1.305013036309247E+02;
1.205000000000000E+09;-1.816889535648073E+00;1.299432276079352E+02;
1.206000000000000E+09;-1.816973478723938E+00;1.293814110869307E+02;
1.207000000000000E+09;-1.815957699283700E+00;1.288163137757199E+02;
1.208000000000000E+09;-1.813689655171401E+00;1.282458990458305E+02;
1.209000000000000E+09;-1.813183968872126E+00;1.276694825057894E+02;
1.210000000000000E+09;-1.814016399429882E+00;1.270927590634937E+02;
1.211000000000000E+09;-1.818819908857108E+00;1.265072796143506E+02;
1.212000000000000E+09;-1.819032065363995E+00;1.259396594305442E+02;
1.213000000000000E+09;-1.820127419203416E+00;1.253103919648499E+02;
1.214000000000000E+09;-1.823136212384935E+00;1.247331463443374E+02;
1.215000000000000E+09;-1.822644235933577E+00;1.241541901531351E+02;
1.216000000000000E+09;-1.826708872151736E+00;1.235592329408290E+02;
1.217000000000000E+09;-1.825509594192592E+00;1.229518384304638E+02;
1.218000000000000E+09;-1.828039111504481E+00;1.223628876015328E+02;
1.219000000000000E+09;-1.831639208085666E+00;1.217515248443185E+02;
1.220000000000000E+09;-1.830726834896240E+00;1.211230664730629E+02;
1.221000000000000E+09;-1.829971161178854E+00;1.205343737197853E+02;
1.222000000000000E+09;-1.834817717123099E+00;1.199270592118839E+02;
1.223000000000000E+09;-1.833959315470209E+00;1.193280582890609E+02;
1.224000000000000E+09;-1.829403652630623E+00;1.186979238590266E+02;
1.225000000000000E+09;-1.832431645243524E+00;1.181145216438624E+02;
1.226000000000000E+09;-1.829552450488680E+00;1.174924406584187E+02;
1.227000000000000E+09;-1.828850730828958E+00;1.168996040364403E+02;
1.228000000000000E+09;-1.827583993455297E+00;1.162875134474171E+02;
1.229000000000000E+09;-1.822519443628710E+00;1.156941318229668E+02;
1.230000000000000E+09;-1.821754464962644E+00;1.151246008373024E+02;
1.231000000000000E+09;-1.812695393196651E+00;1.145115407521386E+02;
1.232000000000000E+09;-1.806911256052031E+00;1.139315155303708E+02;
1.233000000000000E+09;-1.801131908972024E+00;1.133690193978383E+02;
1.234000000000000E+09;-1.792422373180369E+00;1.127975037487552E+02;
1.235000000000000E+09;-1.787155466934769E+00;1.122360751968357E+02;
1.236000000000000E+09;-1.773022773709307E+00;1.117183086297109E+02;
1.237000000000000E+09;-1.763111966061847E+00;1.111172831103235E+02;
1.238000000000000E+09;-1.755186576430286E+00;1.106031195385697E+02;
1.239000000000000E+09;-1.738247829823397E+00;1.100511359477999E+02;
1.240000000000000E+09;-1.721175682464336E+00;1.095100978163234E+02;
1.241000000000000E+09;-1.713021088519081E+00;1.089949651619866E+02;
1.242000000000000E+09;-1.695806652259117E+00;1.085006971088912E+02;
1.243000000000000E+09;-1.680388259974090E+00;1.079747672908826E+02;
1.244000000000000E+09;-1.660969139966583E+00;1.075204028793592E+02;
1.245000000000000E+09;-1.646943377189271E+00;1.070296183986848E+02;
1.246000000000000E+09;-1.625989712720250E+00;1.065506752355512E+02;
1.247000000000000E+09;-1.604848843620342E+00;1.060782958517393E+02;
1.248000000000000E+09;-1.588343260113503E+00;1.056014925593300E+02;
1.249000000000000E+09;-1.567259466556856E+00;1.051442263264653E+02;
1.250000000000000E+09;-1.547529471747529E+00;1.046898150225656E+02;
1.251000000000000E+09;-1.531047548199579E+00;1.042253427656123E+02;
1.252000000000000E+09;-1.506768058401330E+00;1.038396651284795E+02;
1.253000000000000E+09;-1.484549990514425E+00;1.034036886755025E+02;
1.254000000000000E+09;-1.464303948827585E+00;1.029742411814405E+02;
1.255000000000000E+09;-1.444324948884617E+00;1.025476026356996E+02;
1.256000000000000E+09;-1.425563894224864E+00;1.021384134823139E+02;
1.257000000000000E+09;-1.404156607170060E+00;1.017624617935213E+02;
1.258000000000000E+09;-1.386456635690757E+00;1.013493793285083E+02;
1.259000000000000E+09;-1.365540981203427E+00;1.009430415687829E+02;
1.260000000000000E+09;-1.345533251838331E+00;1.005599843937376E+02;
1.261000000000000E+09;-1.329963398547722E+00;1.001963782006398E+02;
1.262000000000000E+09;-1.310795045576771E+00;9.979861840066509E+01;
1.263000000000000E+09;-1.290663328882349E+00;9.944741403295023E+01;
1.264000000000000E+09;-1.275869087809065E+00;9.902888701545855E+01;
1.265000000000000E+09;-1.259331207115669E+00;9.867568124759455E+01;
1.266000000000000E+09;-1.243528723774216E+00;9.834008731644199E+01;
1.267000000000000E+09;-1.227474251646734E+00;9.795813931368795E+01;
1.268000000000000E+09;-1.213814030521926E+00;9.757915757936452E+01;
1.269000000000000E+09;-1.201014981104779E+00;9.721681614333009E+01;
1.270000000000000E+09;-1.189640670947414E+00;9.688925336204106E+01;
1.271000000000000E+09;-1.179156438826327E+00;9.652309963883620E+01;
1.272000000000000E+09;-1.168209084837985E+00;9.612957916214454E+01;
1.273000000000000E+09;-1.161912275070748E+00;9.575546376657385E+01;
1.274000000000000E+09;-1.152724267516003E+00;9.540264442075919E+01;
1.275000000000000E+09;-1.144952440649557E+00;9.504820201279608E+01;
1.276000000000000E+09;-1.137321644452634E+00;9.466631698797714E+01;
1.277000000000000E+09;-1.130713240659396E+00;9.430870509261263E+01;
1.278000000000000E+09;-1.134879864861412E+00;9.392263028111844E+01;
1.279000000000000E+09;-1.126837893673766E+00;9.355690107574218E+01;
1.280000000000000E+09;-1.122910754466860E+00;9.318945249519709E+01;
1.281000000000000E+09;-1.122734703308872E+00;9.282991043711802E+01;
1.282000000000000E+09;-1.124207300171977E+00;9.243780119871046E+01;
1.283000000000000E+09;-1.122932123994925E+00;9.201635068677545E+01;
1.284000000000000E+09;-1.122176360972688E+00;9.167361892240733E+01;
1.285000000000000E+09;-1.127637295384252E+00;9.128390748587540E+01;
1.286000000000000E+09;-1.126980132314158E+00;9.087695072498445E+01;
1.287000000000000E+09;-1.130804005623987E+00;9.045142461300260E+01;
1.288000000000000E+09;-1.135203939647075E+00;9.006835368464147E+01;
1.289000000000000E+09;-1.140491397926386E+00;8.963728790469374E+01;
1.290000000000000E+09;-1.147122674108545E+00;8.923372259485701E+01;
1.291000000000000E+09;-1.149813239762768E+00;8.882147266911737E+01;
1.292000000000000E+09;-1.159629549719671E+00;8.839412109716875E+01;
