# Version 1.00
#
freq[Hz];db:Trc4_S11;ang:Trc4_S11;
1.000000000000000E+09;-1.314431970964371E+00;1.579946665807933E+02;
1.001000000000000E+09;-1.338214850999913E+00;1.575424597267079E+02;
1.002000000000000E+09;-1.363162045521038E+00;1.570890481480048E+02;
1.003000000000000E+09;-1.387614004950969E+00;1.566383417138425E+02;
1.004000000000000E+09;-1.416031624529094E+00;1.561345938868001E+02;
1.005000000000000E+09;-1.446719645841587E+00;1.556936463548663E+02;
1.006000000000000E+09;-1.474429962825470E+00;1.551946445002436E+02;
1.007000000000000E+09;-1.507033373446738E+00;1.546989777669875E+02;
1.008000000000000E+09;-1.535428162325166E+00;1.542047275512059E+02;
1.009000000000000E+09;-1.573434319157206E+00;1.537138627893773E+02;
1.010000000000000E+09;-1.603302251672335E+00;1.531754286950338E+02;
1.011000000000000E+09;-1.642721714721868E+00;1.526344670589544E+02;
1.012000000000000E+09;-1.678200954413835E+00;1.520915670237905E+02;
1.013000000000000E+09;-1.713146649440910E+00;1.515618594458641E+02;
1.014000000000000E+09;-1.751063065389039E+00;1.509682163917512E+02;
1.015000000000000E+09;-1.791909884286720E+00;1.504141784293428E+02;
1.016000000000000E+09;-1.832447358141102E+00;1.498523347923367E+02;
1.017000000000000E+09;-1.872459147500174E+00;1.492266968082165E+02;
1.018000000000000E+09;-1.918318222352704E+00;1.486184061433178E+02;
1.019000000000000E+09;-1.965042179813227E+00;1.479967221770314E+02;
1.020000000000000E+09;-2.010993076304282E+00;1.473841737850616E+02;
1.021000000000000E+09;-2.059258117927870E+00;1.467445988208202E+02;
1.022000000000000E+09;-2.106021823820230E+00;1.460973567672325E+02;
1.023000000000000E+09;-2.160126217260378E+00;1.454705183768872E+02;
1.024000000000000E+09;-2.211398286960727E+00;1.448138129037021E+02;
1.025000000000000E+09;-2.266351839064536E+00;1.441626085715864E+02;
1.026000000000000E+09;-2.320020720224583E+00;1.434960002754019E+02;
1.027000000000000E+09;-2.368468009991570E+00;1.428608721641855E+02;
1.028000000000000E+09;-2.423014963736962E+00;1.421847889489304E+02;
1.029000000000000E+09;-2.478684045907825E+00;1.415316739560171E+02;
1.030000000000000E+09;-2.538656801254028E+00;1.408711396126771E+02;
1.031000000000000E+09;-2.594986964917534E+00;1.402105405047871E+02;
1.032000000000000E+09;-2.646574130872564E+00;1.395381332611996E+02;
1.033000000000000E+09;-2.700137546236395E+00;1.388861853308738E+02;
1.034000000000000E+09;-2.754497158591863E+00;1.382669892477497E+02;
1.035000000000000E+09;-2.810634138080585E+00;1.375925599282178E+02;
1.036000000000000E+09;-2.865023817311255E+00;1.369410337285547E+02;
1.037000000000000E+09;-2.915399761600639E+00;1.362761274801989E+02;
1.038000000000000E+09;-2.969679394667889E+00;1.356669678358952E+02;
1.039000000000000E+09;-3.018234112403531E+00;1.349876172823258E+02;
1.040000000000000E+09;-3.071183756118228E+00;1.343222475984967E+02;
1.041000000000000E+09;-3.123999850446576E+00;1.337167062690699E+02;
1.042000000000000E+09;-3.178510234629738E+00;1.330680566521930E+02;
1.043000000000000E+09;-3.231821486516219E+00;1.324041709995196E+02;
1.044000000000000E+09;-3.277840797921214E+00;1.317481823863733E+02;
1.045000000000000E+09;-3.330680941617783E+00;1.311829925309635E+02;
1.046000000000000E+09;-3.381420736872305E+00;1.305673633730975E+02;
1.047000000000000E+09;-3.429017625707038E+00;1.299529750670829E+02;
1.048000000000000E+09;-3.476735439629758E+00;1.293290879703495E+02;
1.049000000000000E+09;-3.522946475063786E+00;1.287506692780269E+02;
1.050000000000000E+09;-3.572571246778823E+00;1.281286453748965E+02;
1.051000000000000E+09;-3.618773358514968E+00;1.275464062491767E+02;
1.052000000000000E+09;-3.667060738123149E+00;1.269565466033776E+02;
1.053000000000000E+09;-3.715385304301677E+00;1.263860800891087E+02;
1.054000000000000E+09;-3.765356575219601E+00;1.257968260843193E+02;
1.055000000000000E+09;-3.804833631753495E+00;1.252077010888328E+02;
1.056000000000000E+09;-3.856524794438756E+00;1.246647030444455E+02;
1.057000000000000E+09;-3.904648939532751E+00;1.240850820728675E+02;
1.058000000000000E+09;-3.954797691987082E+00;1.235151774547027E+02;
1.059000000000000E+09;-4.005608383030857E+00;1.229562044106436E+02;
1.060000000000000E+09;-4.056821160184139E+00;1.223962980260157E+02;
1.061000000000000E+09;-4.110430710093888E+00;1.218603076637683E+02;
1.062000000000000E+09;-4.163072736391528E+00;1.212838848143603E+02;
1.063000000000000E+09;-4.222690381357531E+00;1.207532132687147E+02;
1.064000000000000E+09;-4.278146175277651E+00;1.202290448272538E+02;
1.065000000000000E+09;-4.340855588751912E+00;1.196681556151509E+02;
1.066000000000000E+09;-4.407802844025635E+00;1.191415425290034E+02;
1.067000000000000E+09;-4.471163718831739E+00;1.186317957084416E+02;
1.068000000000000E+09;-4.541274466628276E+00;1.181383045587013E+02;
1.069000000000000E+09;-4.610125490484493E+00;1.175902152446673E+02;
1.070000000000000E+09;-4.683625007049081E+00;1.170711201772323E+02;
1.071000000000000E+09;-4.757372116902333E+00;1.165646840501366E+02;
1.072000000000000E+09;-4.835994131554108E+00;1.160522117308825E+02;
1.073000000000000E+09;-4.920585866269768E+00;1.155238765886969E+02;
1.074000000000000E+09;-5.008601939561665E+00;1.150050174001267E+02;
1.075000000000000E+09;-5.101476519993452E+00;1.144705090952834E+02;
1.076000000000000E+09;-5.197846723415224E+00;1.139487762906530E+02;
1.077000000000000E+09;-5.304247695183173E+00;1.133655681282079E+02;
1.078000000000000E+09;-5.413201977003558E+00;1.128831018781224E+02;
1.079000000000000E+09;-5.530936328947340E+00;1.123492035836300E+02;
1.080000000000000E+09;-5.651284578670684E+00;1.117857440105457E+02;
1.081000000000000E+09;-5.784775309920931E+00;1.112428239896045E+02;
1.082000000000000E+09;-5.922288986611660E+00;1.107460870209710E+02;
1.083000000000000E+09;-6.066990014982800E+00;1.101862677031856E+02;
1.084000000000000E+09;-6.228380221709568E+00;1.096523866402690E+02;
1.085000000000000E+09;-6.400739478609065E+00;1.091949003000349E+02;
1.086000000000000E+09;-6.580212849804191E+00;1.086895381412491E+02;
1.087000000000000E+09;-6.771218848866276E+00;1.082528460239230E+02;
1.088000000000000E+09;-6.971060750644099E+00;1.078148768724572E+02;
1.089000000000000E+09;-7.171316876684644E+00;1.074383368530758E+02;
1.090000000000000E+09;-7.390008937102859E+00;1.070618196731771E+02;
1.091000000000000E+09;-7.617609286338297E+00;1.067039770407470E+02;
1.092000000000000E+09;-7.856659783311501E+00;1.063854145446770E+02;
1.093000000000000E+09;-8.105110841436115E+00;1.061143076455544E+02;
1.094000000000000E+09;-8.371394716831022E+00;1.058444121210472E+02;
1.095000000000000E+09;-8.660484856982999E+00;1.055865186450863E+02;
1.096000000000000E+09;-8.953645744876786E+00;1.054533147607233E+02;
1.097000000000000E+09;-9.271501750700835E+00;1.053817793247370E+02;
1.098000000000000E+09;-9.603583992646932E+00;1.053981447672428E+02;
1.099000000000000E+09;-9.958137920705854E+00;1.055650602145143E+02;
1.100000000000000E+09;-1.031284664104065E+01;1.057848050650049E+02;
1.101000000000000E+09;-1.069261238876663E+01;1.061524760755980E+02;
1.102000000000000E+09;-1.108997827523384E+01;1.066442864308198E+02;
1.103000000000000E+09;-1.151016258597505E+01;1.073604701629364E+02;
1.104000000000000E+09;-1.193673223602831E+01;1.082456271444565E+02;
1.105000000000000E+09;-1.238723783402234E+01;1.094042604067972E+02;
1.106000000000000E+09;-1.285898728737213E+01;1.108120662540203E+02;
1.107000000000000E+09;-1.332237576075080E+01;1.126330614598879E+02;
1.108000000000000E+09;-1.379118862428101E+01;1.148645579880776E+02;
1.109000000000000E+09;-1.425781964469996E+01;1.174431899324801E+02;
1.110000000000000E+09;-1.469623600262952E+01;1.205289995534734E+02;
1.111000000000000E+09;-1.508413467253321E+01;1.241199734936512E+02;
1.112000000000000E+09;-1.542333916671690E+01;1.281069164461236E+02;
1.113000000000000E+09;-1.570456387816749E+01;1.323833379930323E+02;
1.114000000000000E+09;-1.589050023146343E+01;1.370511762444754E+02;
1.115000000000000E+09;-1.596689741441531E+01;1.419996577999522E+02;
1.116000000000000E+09;-1.593813846146453E+01;1.468398966823899E+02;
1.117000000000000E+09;-1.581264134018614E+01;1.515708890153740E+02;
1.118000000000000E+09;-1.557046353248105E+01;1.560873004486970E+02;
1.119000000000000E+09;-1.527185849247622E+01;1.600660534636175E+02;
1.120000000000000E+09;-1.490463091504667E+01;1.635602115465071E+02;
1.121000000000000E+09;-1.450650168459922E+01;1.667134153637178E+02;
1.122000000000000E+09;-1.407659583482724E+01;1.694201626406664E+02;
1.123000000000000E+09;-1.362226250253407E+01;1.716417616482517E+02;
1.124000000000000E+09;-1.315913795942028E+01;1.734754767540215E+02;
1.125000000000000E+09;-1.270886599231202E+01;1.749345938574439E+02;
1.126000000000000E+09;-1.225052214059248E+01;1.760424123950263E+02;
1.127000000000000E+09;-1.181444493633938E+01;1.768318385252946E+02;
1.128000000000000E+09;-1.139008415022805E+01;1.774036378702240E+02;
1.129000000000000E+09;-1.098459611222518E+01;1.777145504622778E+02;
1.130000000000000E+09;-1.059262054019517E+01;1.779171943947075E+02;
1.131000000000000E+09;-1.022173147826203E+01;1.779211060427394E+02;
1.132000000000000E+09;-9.869571274042567E+00;1.777966324584961E+02;
1.133000000000000E+09;-9.522671107252803E+00;1.775690658850216E+02;
1.134000000000000E+09;-9.189427013445043E+00;1.772672036775182E+02;
1.135000000000000E+09;-8.868489661763183E+00;1.768475890987854E+02;
1.136000000000000E+09;-8.563392284543298E+00;1.763748633429064E+02;
1.137000000000000E+09;-8.262325581466508E+00;1.757949284755414E+02;
1.138000000000000E+09;-7.975492633836883E+00;1.751491117917575E+02;
1.139000000000000E+09;-7.711490340342253E+00;1.744502291871222E+02;
1.140000000000000E+09;-7.449284293940196E+00;1.737165906209106E+02;
1.141000000000000E+09;-7.202117961606456E+00;1.729329719487083E+02;
1.142000000000000E+09;-6.960832880387740E+00;1.720934364135784E+02;
1.143000000000000E+09;-6.735497273080019E+00;1.713016417223871E+02;
1.144000000000000E+09;-6.516866164512437E+00;1.704490134827731E+02;
1.145000000000000E+09;-6.308090607734505E+00;1.696239391027480E+02;
1.146000000000000E+09;-6.108270424959832E+00;1.687178952930670E+02;
1.147000000000000E+09;-5.911422231016217E+00;1.678322691904442E+02;
1.148000000000000E+09;-5.723286180014512E+00;1.669934443023458E+02;
1.149000000000000E+09;-5.546810185459481E+00;1.661320166777641E+02;
1.150000000000000E+09;-5.375662198950559E+00;1.652038857375893E+02;
1.151000000000000E+09;-5.205616465046397E+00;1.643910511274668E+02;
1.152000000000000E+09;-5.048047310230873E+00;1.635131767747200E+02;
1.153000000000000E+09;-4.892388934728663E+00;1.626458302102640E+02;
1.154000000000000E+09;-4.739860312470991E+00;1.618009897847997E+02;
1.155000000000000E+09;-4.598393337663179E+00;1.609493584568296E+02;
1.156000000000000E+09;-4.457421790461694E+00;1.600946006009901E+02;
1.157000000000000E+09;-4.325113132152837E+00;1.592436167615799E+02;
1.158000000000000E+09;-4.198646937690958E+00;1.584422271325710E+02;
1.159000000000000E+09;-4.078123477983750E+00;1.576256032058530E+02;
1.160000000000000E+09;-3.962383093649054E+00;1.568503287255972E+02;
1.161000000000000E+09;-3.851733431443167E+00;1.560553660411977E+02;
1.162000000000000E+09;-3.738204445151184E+00;1.553243224790229E+02;
1.163000000000000E+09;-3.636370829497948E+00;1.545760481929736E+02;
1.164000000000000E+09;-3.533882718020463E+00;1.538549643344905E+02;
1.165000000000000E+09;-3.435356223147755E+00;1.531333182076950E+02;
1.166000000000000E+09;-3.341343306014084E+00;1.524412327126685E+02;
1.167000000000000E+09;-3.249465226228657E+00;1.517435170818780E+02;
1.168000000000000E+09;-3.162123197427702E+00;1.510780765507544E+02;
1.169000000000000E+09;-3.078018228065595E+00;1.504196654286791E+02;
1.170000000000000E+09;-2.995392756475708E+00;1.497712593290311E+02;
1.171000000000000E+09;-2.916680184953229E+00;1.491005031225950E+02;
1.172000000000000E+09;-2.842361359669813E+00;1.484612422446778E+02;
1.173000000000000E+09;-2.772032181138427E+00;1.478173327628166E+02;
1.174000000000000E+09;-2.702089869054940E+00;1.471999067475989E+02;
1.175000000000000E+09;-2.639429898676628E+00;1.465664731839995E+02;
1.176000000000000E+09;-2.580531308364530E+00;1.459473390231809E+02;
1.177000000000000E+09;-2.522913433825106E+00;1.453572324951685E+02;
1.178000000000000E+09;-2.470985861858150E+00;1.447622372754710E+02;
1.179000000000000E+09;-2.422668542609502E+00;1.441622915830882E+02;
1.180000000000000E+09;-2.375668555921336E+00;1.436132923807870E+02;
1.181000000000000E+09;-2.332170051582783E+00;1.430626461131556E+02;
1.182000000000000E+09;-2.292735515490742E+00;1.425080434903431E+02;
1.183000000000000E+09;-2.253672525825157E+00;1.419678508283593E+02;
1.184000000000000E+09;-2.214702160091914E+00;1.414287849392207E+02;
1.185000000000000E+09;-2.179630035980029E+00;1.409016418624841E+02;
1.186000000000000E+09;-2.145318024034945E+00;1.403965928718889E+02;
1.187000000000000E+09;-2.112583402517642E+00;1.398685745903001E+02;
1.188000000000000E+09;-2.084830390681589E+00;1.393523729591958E+02;
1.189000000000000E+09;-2.050500300407656E+00;1.388322387309172E+02;
1.190000000000000E+09;-2.030732552640730E+00;1.383126415595594E+02;
1.191000000000000E+09;-2.005583105216585E+00;1.377846829567415E+02;
1.192000000000000E+09;-1.983977123900778E+00;1.372927776073986E+02;
1.193000000000000E+09;-1.965960945527082E+00;1.367576207803000E+02;
1.194000000000000E+09;-1.946350362897311E+00;1.362187559088936E+02;
1.195000000000000E+09;-1.933031696563977E+00;1.357052668481168E+02;
1.196000000000000E+09;-1.916256127347054E+00;1.352116582940448E+02;
1.197000000000000E+09;-1.905576804274872E+00;1.346695097112150E+02;
1.198000000000000E+09;-1.892392257487369E+00;1.341113614884055E+02;
1.199000000000000E+09;-1.881431394221665E+00;1.336110895533808E+02;
1.200000000000000E+09;-1.874005308251913E+00;1.330832052930099E+02;
1.201000000000000E+09;-1.869532018149258E+00;1.325309245694123E+02;
1.202000000000000E+09;-1.860634181594150E+00;1.319892552195533E+02;
1.203000000000000E+09;-1.860288438697864E+00;1.314557173308579E+02;
1.204000000000000E+09;-1.856191936531137E+00;1.309045710290974E+02;
1.205000000000000E+09;-1.853132945135420E+00;1.303874855445985E+02;
1.206000000000000E+09;-1.855989450641040E+00;1.298201561962159E+02;
1.207000000000000E+09;-1.854034511026961E+00;1.292734443015381E+02;
1.208000000000000E+09;-1.855914786905469E+00;1.287133478158416E+02;
1.209000000000000E+09;-1.855280391469523E+00;1.281527445753028E+02;
1.210000000000000E+09;-1.860792681694534E+00;1.276211646649605E+02;
1.211000000000000E+09;-1.860902653318255E+00;1.270633458252848E+02;
1.212000000000000E+09;-1.861240297881570E+00;1.265157424122164E+02;
1.213000000000000E+09;-1.864963853465815E+00;1.259183853611626E+02;
1.214000000000000E+09;-1.865761741979180E+00;1.253905680339032E+02;
1.215000000000000E+09;-1.865190464440981E+00;1.248115044905595E+02;
1.216000000000000E+09;-1.866999719403586E+00;1.242293755051021E+02;
1.217000000000000E+09;-1.866789518110687E+00;1.236687241014473E+02;
1.218000000000000E+09;-1.864937317682494E+00;1.230869383914978E+02;
1.219000000000000E+09;-1.868215716872549E+00;1.225079196151832E+02;
1.220000000000000E+09;-1.867070272754549E+00;1.218869545162409E+02;
1.221000000000000E+09;-1.864603922775731E+00;1.212993749059060E+02;
1.222000000000000E+09;-1.868719197868452E+00;1.207200203944344E+02;
1.223000000000000E+09;-1.866128550560713E+00;1.201218436149774E+02;
1.224000000000000E+09;-1.863526241123631E+00;1.194844536378003E+02;
1.225000000000000E+09;-1.859908124959331E+00;1.189280715257410E+02;
1.226000000000000E+09;-1.858116392390068E+00;1.183133412229794E+02;
1.227000000000000E+09;-1.856834763289737E+00;1.177068004073254E+02;
1.228000000000000E+09;-1.855630257813763E+00;1.171042121385504E+02;
1.229000000000000E+09;-1.848957426527756E+00;1.165220610935415E+02;
1.230000000000000E+09;-1.851293275444025E+00;1.159466075896968E+02;
1.231000000000000E+09;-1.843891669950452E+00;1.153561288742423E+02;
1.232000000000000E+09;-1.838672404505200E+00;1.147732774729931E+02;
1.233000000000000E+09;-1.832075595133359E+00;1.142129259544242E+02;
1.234000000000000E+09;-1.824081067367575E+00;1.136540361577822E+02;
1.235000000000000E+09;-1.819066658406013E+00;1.130969953243943E+02;
1.236000000000000E+09;-1.806353525084726E+00;1.125767436314037E+02;
1.237000000000000E+09;-1.790895416210851E+00;1.119983416653541E+02;
1.238000000000000E+09;-1.781888999663511E+00;1.114705229865327E+02;
1.239000000000000E+09;-1.764705205131932E+00;1.109052950511488E+02;
1.240000000000000E+09;-1.750651611455495E+00;1.103815008787326E+02;
1.241000000000000E+09;-1.735154709466585E+00;1.098586344580722E+02;
1.242000000000000E+09;-1.721252352210697E+00;1.093223496137706E+02;
1.243000000000000E+09;-1.704689360002875E+00;1.088000393750929E+02;
1.244000000000000E+09;-1.689185271129349E+00;1.082995223752968E+02;
1.245000000000000E+09;-1.673535941233778E+00;1.078002751213153E+02;
1.246000000000000E+09;-1.659629180675440E+00;1.073127188745683E+02;
1.247000000000000E+09;-1.636185589267518E+00;1.068153477239656E+02;
1.248000000000000E+09;-1.623382233246024E+00;1.063246684117997E+02;
1.249000000000000E+09;-1.602209576140184E+00;1.058718878105013E+02;
1.250000000000000E+09;-1.584973018545303E+00;1.054080996772334E+02;
1.251000000000000E+09;-1.565987141801241E+00;1.049472398902672E+02;
1.252000000000000E+09;-1.547751900648201E+00;1.045483021252262E+02;
1.253000000000000E+09;-1.527159612989155E+00;1.041132422995925E+02;
1.254000000000000E+09;-1.508856491891894E+00;1.036684271594327E+02;
1.255000000000000E+09;-1.489507569490385E+00;1.032340277653522E+02;
1.256000000000000E+09;-1.469852089004081E+00;1.028027007297716E+02;
1.257000000000000E+09;-1.450839564761644E+00;1.024190024664771E+02;
1.258000000000000E+09;-1.428475627068973E+00;1.020136954493831E+02;
1.259000000000000E+09;-1.412066826680547E+00;1.015799947551187E+02;
1.260000000000000E+09;-1.391892165889226E+00;1.011837251978462E+02;
1.261000000000000E+09;-1.379991453608176E+00;1.008174722314781E+02;
1.262000000000000E+09;-1.361952810684103E+00;1.004079738278149E+02;
1.263000000000000E+09;-1.340995086373253E+00;1.000371806726218E+02;
1.264000000000000E+09;-1.327613266144862E+00;9.960523330607825E+01;
1.265000000000000E+09;-1.312901601051799E+00;9.924809935582621E+01;
1.266000000000000E+09;-1.297610581872325E+00;9.888769908329996E+01;
1.267000000000000E+09;-1.283109502038776E+00;9.849387109577386E+01;
1.268000000000000E+09;-1.270466392320940E+00;9.811145108222667E+01;
1.269000000000000E+09;-1.258677375972601E+00;9.774007870514141E+01;
1.270000000000000E+09;-1.247567920529182E+00;9.737814786324019E+01;
1.271000000000000E+09;-1.238885976678413E+00;9.704294704138704E+01;
1.272000000000000E+09;-1.227718733976809E+00;9.663428832336201E+01;
1.273000000000000E+09;-1.221031868296222E+00;9.626806007932120E+01;
1.274000000000000E+09;-1.212559197298399E+00;9.590469010988940E+01;
1.275000000000000E+09;-1.204586095889625E+00;9.555473054271835E+01;
1.276000000000000E+09;-1.196313549449907E+00;9.517329110550212E+01;
1.277000000000000E+09;-1.191171370450745E+00;9.479538445347866E+01;
1.278000000000000E+09;-1.188117488752142E+00;9.440881783232858E+01;
1.279000000000000E+09;-1.181608426304422E+00;9.404360068289482E+01;
1.280000000000000E+09;-1.177337992677470E+00;9.368997259238991E+01;
1.281000000000000E+09;-1.179651107124855E+00;9.330225282636816E+01;
1.282000000000000E+09;-1.173021240848569E+00;9.290407162276834E+01;
1.283000000000000E+09;-1.172109474335505E+00;9.246334954839850E+01;
1.284000000000000E+09;-1.168763226731681E+00;9.214020120483002E+01;
1.285000000000000E+09;-1.172436449167375E+00;9.171403308907306E+01;
1.286000000000000E+09;-1.173139967532077E+00;9.131599773809792E+01;
1.287000000000000E+09;-1.174191400675791E+00;9.090582796600970E+01;
1.288000000000000E+09;-1.179466486064085E+00;9.049112874914236E+01;
1.289000000000000E+09;-1.178137578184155E+00;9.007205225927912E+01;
1.290000000000000E+09;-1.189419670871848E+00;8.965218113697645E+01;
1.291000000000000E+09;-1.189401479157945E+00;8.919216598880537E+01;
1.292000000000000E+09;-1.194839345917077E+00;8.879079827756944E+01;
