# Version 1.00
#
freq[Hz];db:Trc4_S11;ang:Trc4_S11;
1.000000000000000E+09;-1.341626030245124E+00;1.577315218573456E+02;
1.001000000000000E+09;-1.364777605709459E+00;1.572925586457353E+02;
1.002000000000000E+09;-1.390260274604928E+00;1.568417024823450E+02;
1.003000000000000E+09;-1.413273612819849E+00;1.563674631708833E+02;
1.004000000000000E+09;-1.440919466000069E+00;1.559048082053790E+02;
1.005000000000000E+09;-1.470386793556407E+00;1.554552968422364E+02;
1.006000000000000E+09;-1.500483757275341E+00;1.549559695933619E+02;
1.007000000000000E+09;-1.536229766026621E+00;1.544684715117408E+02;
1.008000000000000E+09;-1.565441529709776E+00;1.539760477917550E+02;
1.009000000000000E+09;-1.600218974339565E+00;1.534808895828067E+02;
1.010000000000000E+09;-1.632962451201856E+00;1.529487627288295E+02;
1.011000000000000E+09;-1.671862280952050E+00;1.524157300303946E+02;
1.012000000000000E+09;-1.709597609573822E+00;1.518655439576440E+02;
1.013000000000000E+09;-1.747048434365127E+00;1.513243570134744E+02;
1.014000000000000E+09;-1.787465260222682E+00;1.507517087407147E+02;
1.015000000000000E+09;-1.829936884517850E+00;1.501871699330179E+02;
1.016000000000000E+09;-1.873851490799353E+00;1.496207489359132E+02;
1.017000000000000E+09;-1.915363978498377E+00;1.490014697944865E+02;
1.018000000000000E+09;-1.963972630116919E+00;1.484107015436817E+02;
1.019000000000000E+09;-2.010830164611896E+00;1.478127466312601E+02;
1.020000000000000E+09;-2.055849977432575E+00;1.471965876833958E+02;
1.021000000000000E+09;-2.104772606374205E+00;1.465643079863453E+02;
1.022000000000000E+09;-2.154995267503134E+00;1.459314349872540E+02;
1.023000000000000E+09;-2.206691772469673E+00;1.452748881526798E+02;
1.024000000000000E+09;-2.255258430486870E+00;1.446514841622437E+02;
1.025000000000000E+09;-2.312480404404319E+00;1.439929836714491E+02;
1.026000000000000E+09;-2.366812777885741E+00;1.433204327776249E+02;
1.027000000000000E+09;-2.420908801229974E+00;1.426844758844147E+02;
1.028000000000000E+09;-2.474988893144083E+00;1.419954050187252E+02;
1.029000000000000E+09;-2.525722831846288E+00;1.413448956991553E+02;
1.030000000000000E+09;-2.588110442326617E+00;1.406941805332287E+02;
1.031000000000000E+09;-2.645235331624538E+00;1.400196367540408E+02;
1.032000000000000E+09;-2.703728396396923E+00;1.393355163224372E+02;
1.033000000000000E+09;-2.757043513930921E+00;1.386528342589238E+02;
1.034000000000000E+09;-2.813207113222286E+00;1.380092269558030E+02;
1.035000000000000E+09;-2.874462020929960E+00;1.373597128784848E+02;
1.036000000000000E+09;-2.929491228256869E+00;1.367153725882444E+02;
1.037000000000000E+09;-2.984088770964985E+00;1.360306715408992E+02;
1.038000000000000E+09;-3.039601996130967E+00;1.353944979124515E+02;
1.039000000000000E+09;-3.093633562840128E+00;1.347595811246792E+02;
1.040000000000000E+09;-3.146823517786348E+00;1.341090726599978E+02;
1.041000000000000E+09;-3.205217405466085E+00;1.334704384062492E+02;
1.042000000000000E+09;-3.256814911323858E+00;1.328565155470033E+02;
1.043000000000000E+09;-3.311046991736066E+00;1.322121336403832E+02;
1.044000000000000E+09;-3.366765535570571E+00;1.315740184160867E+02;
1.045000000000000E+09;-3.415855652010429E+00;1.309995156321134E+02;
1.046000000000000E+09;-3.464169414837921E+00;1.303879155555219E+02;
1.047000000000000E+09;-3.513113120544609E+00;1.297677062813489E+02;
1.048000000000000E+09;-3.566211546518623E+00;1.291660884874909E+02;
1.049000000000000E+09;-3.614726111659039E+00;1.286052613479131E+02;
1.050000000000000E+09;-3.660740122146568E+00;1.279975855525559E+02;
1.051000000000000E+09;-3.709669941254578E+00;1.274281563156742E+02;
1.052000000000000E+09;-3.759087228196786E+00;1.268677313518825E+02;
1.053000000000000E+09;-3.807422799969408E+00;1.262989789545906E+02;
1.054000000000000E+09;-3.853755956036751E+00;1.257068067988929E+02;
1.055000000000000E+09;-3.895208225741145E+00;1.251704049314160E+02;
1.056000000000000E+09;-3.945003190781187E+00;1.246269383776700E+02;
1.057000000000000E+09;-3.991098148995474E+00;1.240892320863965E+02;
1.058000000000000E+09;-4.041375540002042E+00;1.235294141015553E+02;
1.059000000000000E+09;-4.088888024217941E+00;1.229925422391025E+02;
1.060000000000000E+09;-4.137515409073496E+00;1.224337381752785E+02;
1.061000000000000E+09;-4.189736746452520E+00;1.218930461197859E+02;
1.062000000000000E+09;-4.242859048330072E+00;1.213477216736737E+02;
1.063000000000000E+09;-4.298696366564950E+00;1.208408552961682E+02;
1.064000000000000E+09;-4.349898962840030E+00;1.203465518361733E+02;
1.065000000000000E+09;-4.409331253043057E+00;1.198243420488773E+02;
1.066000000000000E+09;-4.469895867340235E+00;1.192689371032226E+02;
1.067000000000000E+09;-4.529259717765608E+00;1.187727371045794E+02;
1.068000000000000E+09;-4.596453597165378E+00;1.182816632697259E+02;
1.069000000000000E+09;-4.661122275586550E+00;1.177201092647656E+02;
1.070000000000000E+09;-4.730896109983332E+00;1.171899683286584E+02;
1.071000000000000E+09;-4.804245856243416E+00;1.166926858724401E+02;
1.072000000000000E+09;-4.881776255683063E+00;1.161929913418644E+02;
1.073000000000000E+09;-4.963522099359643E+00;1.156374950529093E+02;
1.074000000000000E+09;-5.050475768492158E+00;1.151282381578774E+02;
1.075000000000000E+09;-5.143246667590844E+00;1.146137627736737E+02;
1.076000000000000E+09;-5.237453798862316E+00;1.141135338364180E+02;
1.077000000000000E+09;-5.341811363527592E+00;1.135664123740124E+02;
1.078000000000000E+09;-5.449849755706290E+00;1.130615760295220E+02;
1.079000000000000E+09;-5.562233759799838E+00;1.125801956970252E+02;
1.080000000000000E+09;-5.688260607046759E+00;1.120539652812285E+02;
1.081000000000000E+09;-5.814428726094771E+00;1.115603194023375E+02;
1.082000000000000E+09;-5.951417265856159E+00;1.110734979404300E+02;
1.083000000000000E+09;-6.089392443409967E+00;1.105889194184079E+02;
1.084000000000000E+09;-6.242553520454971E+00;1.100965876284100E+02;
1.085000000000000E+09;-6.403748973315505E+00;1.096345325997046E+02;
1.086000000000000E+09;-6.568178723590691E+00;1.091713952220385E+02;
1.087000000000000E+09;-6.752181994863741E+00;1.087273895787626E+02;
1.088000000000000E+09;-6.934550087441115E+00;1.082821084723014E+02;
1.089000000000000E+09;-7.131784629549389E+00;1.079082841666995E+02;
1.090000000000000E+09;-7.341742670487888E+00;1.075438035581369E+02;
1.091000000000000E+09;-7.558412859168712E+00;1.071626897628589E+02;
1.092000000000000E+09;-7.789506508394883E+00;1.068306807698698E+02;
1.093000000000000E+09;-8.026366702531616E+00;1.065433313430870E+02;
1.094000000000000E+09;-8.290725771858497E+00;1.062422614704553E+02;
1.095000000000000E+09;-8.557861102134209E+00;1.060195459321036E+02;
1.096000000000000E+09;-8.847059507990387E+00;1.059081296181589E+02;
1.097000000000000E+09;-9.145737331672532E+00;1.058111727596749E+02;
1.098000000000000E+09;-9.466283629108341E+00;1.057731691758919E+02;
1.099000000000000E+09;-9.804074854487467E+00;1.058661509455299E+02;
1.100000000000000E+09;-1.014805933227991E+01;1.060849371335885E+02;
1.101000000000000E+09;-1.051486679679362E+01;1.064358838517790E+02;
1.102000000000000E+09;-1.089668009103959E+01;1.069254554862164E+02;
1.103000000000000E+09;-1.129088802365993E+01;1.075558813106222E+02;
1.104000000000000E+09;-1.170069279681441E+01;1.084272942045670E+02;
1.105000000000000E+09;-1.211907636195898E+01;1.094753211228107E+02;
1.106000000000000E+09;-1.255047181882036E+01;1.107582401512951E+02;
1.107000000000000E+09;-1.299207459847413E+01;1.123980583369390E+02;
1.108000000000000E+09;-1.342582582939329E+01;1.143329596660133E+02;
1.109000000000000E+09;-1.386746910711797E+01;1.166113512705563E+02;
1.110000000000000E+09;-1.428894932304066E+01;1.192699095775761E+02;
1.111000000000000E+09;-1.468558285953619E+01;1.224867259210898E+02;
1.112000000000000E+09;-1.502800705736512E+01;1.260459999761383E+02;
1.113000000000000E+09;-1.533700958646503E+01;1.298993230962548E+02;
1.114000000000000E+09;-1.554472314445572E+01;1.342061141362055E+02;
1.115000000000000E+09;-1.565745354278109E+01;1.388127037946026E+02;
1.116000000000000E+09;-1.569952775178774E+01;1.433307818243818E+02;
1.117000000000000E+09;-1.563522795941886E+01;1.479239630514815E+02;
1.118000000000000E+09;-1.546370474990367E+01;1.522855419226424E+02;
1.119000000000000E+09;-1.521257137369237E+01;1.563488906345911E+02;
1.120000000000000E+09;-1.490365871172016E+01;1.599266569154910E+02;
1.121000000000000E+09;-1.454330030598107E+01;1.631360722349215E+02;
1.122000000000000E+09;-1.414325890780003E+01;1.659508629733086E+02;
1.123000000000000E+09;-1.372084237576896E+01;1.682666193284315E+02;
1.124000000000000E+09;-1.329360492526289E+01;1.702027823878766E+02;
1.125000000000000E+09;-1.286480857391199E+01;1.718197463574806E+02;
1.126000000000000E+09;-1.243449834605069E+01;1.730657046999733E+02;
1.127000000000000E+09;-1.201321799126536E+01;1.740663948195857E+02;
1.128000000000000E+09;-1.159593213338085E+01;1.748278445386676E+02;
1.129000000000000E+09;-1.119287996238314E+01;1.753224682330809E+02;
1.130000000000000E+09;-1.079943215804979E+01;1.756365347270280E+02;
1.131000000000000E+09;-1.042146040087460E+01;1.756908953322638E+02;
1.132000000000000E+09;-1.006633486174318E+01;1.756323232425019E+02;
1.133000000000000E+09;-9.722334129108400E+00;1.754185597091823E+02;
1.134000000000000E+09;-9.388086498681048E+00;1.751419744698980E+02;
1.135000000000000E+09;-9.080726206771157E+00;1.748078616956744E+02;
1.136000000000000E+09;-8.781531493169554E+00;1.743623392596850E+02;
1.137000000000000E+09;-8.490105398402232E+00;1.738861234608196E+02;
1.138000000000000E+09;-8.205769539029802E+00;1.733630227329462E+02;
1.139000000000000E+09;-7.936700101466099E+00;1.727421925881588E+02;
1.140000000000000E+09;-7.673864574031510E+00;1.720987005208413E+02;
1.141000000000000E+09;-7.422958495059189E+00;1.714153452164409E+02;
1.142000000000000E+09;-7.183435739099355E+00;1.706843245561345E+02;
1.143000000000000E+09;-6.950103141937880E+00;1.699365142048973E+02;
1.144000000000000E+09;-6.722871045299302E+00;1.691672365829571E+02;
1.145000000000000E+09;-6.501606798572769E+00;1.683799356812349E+02;
1.146000000000000E+09;-6.298413598960090E+00;1.675545182843234E+02;
1.147000000000000E+09;-6.097116392791843E+00;1.667576742811001E+02;
1.148000000000000E+09;-5.900317312389076E+00;1.658827175934331E+02;
1.149000000000000E+09;-5.713019658469387E+00;1.650737637922651E+02;
1.150000000000000E+09;-5.534017121232825E+00;1.641878627581058E+02;
1.151000000000000E+09;-5.360524487786441E+00;1.633553114882303E+02;
1.152000000000000E+09;-5.193084588905556E+00;1.624837951032497E+02;
1.153000000000000E+09;-5.036624958482797E+00;1.616615434493857E+02;
1.154000000000000E+09;-4.882287930987145E+00;1.608022705517195E+02;
1.155000000000000E+09;-4.735459259810252E+00;1.599902632012608E+02;
1.156000000000000E+09;-4.592252054380593E+00;1.591688045076729E+02;
1.157000000000000E+09;-4.455640551292851E+00;1.583475323857041E+02;
1.158000000000000E+09;-4.325434036886572E+00;1.575746284008386E+02;
1.159000000000000E+09;-4.196341355886741E+00;1.567708930847886E+02;
1.160000000000000E+09;-4.079884518067241E+00;1.560127900716580E+02;
1.161000000000000E+09;-3.961501593790806E+00;1.552347151630694E+02;
1.162000000000000E+09;-3.849311112090790E+00;1.545075550069491E+02;
1.163000000000000E+09;-3.743243800549774E+00;1.537968424784046E+02;
1.164000000000000E+09;-3.639250774330159E+00;1.530931913034282E+02;
1.165000000000000E+09;-3.532208262797125E+00;1.523813189202328E+02;
1.166000000000000E+09;-3.439803438761648E+00;1.517141952853186E+02;
1.167000000000000E+09;-3.343248524398175E+00;1.510402903990816E+02;
1.168000000000000E+09;-3.254698630825790E+00;1.503752633260962E+02;
1.169000000000000E+09;-3.166966946144463E+00;1.497399920021225E+02;
1.170000000000000E+09;-3.081560306245376E+00;1.490985846333614E+02;
1.171000000000000E+09;-3.000223708029642E+00;1.484690552249374E+02;
1.172000000000000E+09;-2.925231249827092E+00;1.478537538970665E+02;
1.173000000000000E+09;-2.852290203984111E+00;1.472272838280315E+02;
1.174000000000000E+09;-2.780710129340860E+00;1.466322885485573E+02;
1.175000000000000E+09;-2.713860236183758E+00;1.460366434348959E+02;
1.176000000000000E+09;-2.653361883120128E+00;1.454268728850196E+02;
1.177000000000000E+09;-2.592596443942472E+00;1.448818702942763E+02;
1.178000000000000E+09;-2.535701328327340E+00;1.443032233906438E+02;
1.179000000000000E+09;-2.480253204767093E+00;1.437170790350453E+02;
1.180000000000000E+09;-2.429435271154080E+00;1.431772273057441E+02;
1.181000000000000E+09;-2.382411889811595E+00;1.426425987012259E+02;
1.182000000000000E+09;-2.338557185895607E+00;1.420857002375089E+02;
1.183000000000000E+09;-2.294119023839158E+00;1.415665838968389E+02;
1.184000000000000E+09;-2.255495874545836E+00;1.410123404394837E+02;
1.185000000000000E+09;-2.218574372980840E+00;1.405007224726218E+02;
1.186000000000000E+09;-2.183325683756892E+00;1.399845201310697E+02;
1.187000000000000E+09;-2.149315852989521E+00;1.394498591282783E+02;
1.188000000000000E+09;-2.116662368200680E+00;1.389486389791101E+02;
1.189000000000000E+09;-2.088681181120439E+00;1.384004887174012E+02;
1.190000000000000E+09;-2.060511908595185E+00;1.378836624695177E+02;
1.191000000000000E+09;-2.037800562490890E+00;1.373717585591059E+02;
1.192000000000000E+09;-2.016691716344893E+00;1.368511321461934E+02;
1.193000000000000E+09;-1.997378418234035E+00;1.363310897167909E+02;
1.194000000000000E+09;-1.976771731722538E+00;1.357896094542695E+02;
1.195000000000000E+09;-1.961862466766977E+00;1.352842773418860E+02;
1.196000000000000E+09;-1.945574034638149E+00;1.347986202444695E+02;
1.197000000000000E+09;-1.935512293470990E+00;1.342377598388361E+02;
1.198000000000000E+09;-1.923620431605439E+00;1.337100230812721E+02;
1.199000000000000E+09;-1.912886026627513E+00;1.331919445251796E+02;
1.200000000000000E+09;-1.902319024579916E+00;1.326574351142766E+02;
1.201000000000000E+09;-1.899241354141981E+00;1.321183093394228E+02;
1.202000000000000E+09;-1.889778698514326E+00;1.315602591518129E+02;
1.203000000000000E+09;-1.890217430089915E+00;1.310265600949002E+02;
1.204000000000000E+09;-1.883406508455315E+00;1.304755247381081E+02;
1.205000000000000E+09;-1.882784322829205E+00;1.299250371265714E+02;
1.206000000000000E+09;-1.886206243767905E+00;1.293698772032178E+02;
1.207000000000000E+09;-1.881339922927187E+00;1.288355296280218E+02;
1.208000000000000E+09;-1.884125350292757E+00;1.282562737148156E+02;
1.209000000000000E+09;-1.885190735942553E+00;1.276970922669840E+02;
1.210000000000000E+09;-1.886269336189162E+00;1.271487293934376E+02;
1.211000000000000E+09;-1.890021696295405E+00;1.265701692980578E+02;
1.212000000000000E+09;-1.893932256891946E+00;1.260188794949038E+02;
1.213000000000000E+09;-1.895565086873820E+00;1.253964044683946E+02;
1.214000000000000E+09;-1.900896326327237E+00;1.248438078274294E+02;
1.215000000000000E+09;-1.902074608884444E+00;1.242564690432725E+02;
1.216000000000000E+09;-1.906278613756196E+00;1.236645870471367E+02;
1.217000000000000E+09;-1.909201995782022E+00;1.230955753959697E+02;
1.218000000000000E+09;-1.912325191679132E+00;1.224969241706140E+02;
1.219000000000000E+09;-1.917055420675216E+00;1.219082221750761E+02;
1.220000000000000E+09;-1.916472284774960E+00;1.212920455240923E+02;
1.221000000000000E+09;-1.917614187419747E+00;1.206975865058958E+02;
1.222000000000000E+09;-1.920604020310693E+00;1.201146846270697E+02;
1.223000000000000E+09;-1.919138852405399E+00;1.195093802183968E+02;
1.224000000000000E+09;-1.917681409460780E+00;1.188819537874564E+02;
1.225000000000000E+09;-1.918749064201588E+00;1.182831352296579E+02;
1.226000000000000E+09;-1.918846301594319E+00;1.176807261375952E+02;
1.227000000000000E+09;-1.919513455229664E+00;1.170635475265049E+02;
1.228000000000000E+09;-1.918163804880888E+00;1.164612205534838E+02;
1.229000000000000E+09;-1.913577625578084E+00;1.158731955555187E+02;
1.230000000000000E+09;-1.915770520812417E+00;1.152734795374429E+02;
1.231000000000000E+09;-1.910402095306188E+00;1.146712804460751E+02;
1.232000000000000E+09;-1.903142518781276E+00;1.140930710114457E+02;
1.233000000000000E+09;-1.903353568902442E+00;1.135261450728485E+02;
1.234000000000000E+09;-1.898414759370151E+00;1.129352338794515E+02;
1.235000000000000E+09;-1.894912194426974E+00;1.123739846240890E+02;
1.236000000000000E+09;-1.882955874423973E+00;1.118282976288808E+02;
1.237000000000000E+09;-1.873566760884998E+00;1.112623666361971E+02;
1.238000000000000E+09;-1.869684804680319E+00;1.107426584063891E+02;
1.239000000000000E+09;-1.855558024436002E+00;1.101791246645752E+02;
1.240000000000000E+09;-1.842390397932706E+00;1.096793397889718E+02;
1.241000000000000E+09;-1.832452669914941E+00;1.091641532966448E+02;
1.242000000000000E+09;-1.819234987863896E+00;1.086614033686630E+02;
1.243000000000000E+09;-1.804233816241321E+00;1.081561323035436E+02;
1.244000000000000E+09;-1.788165474028718E+00;1.076825971280817E+02;
1.245000000000000E+09;-1.770867990338215E+00;1.071698241572712E+02;
1.246000000000000E+09;-1.754693613511095E+00;1.067070551436326E+02;
1.247000000000000E+09;-1.732151545773718E+00;1.062080597124745E+02;
1.248000000000000E+09;-1.716913083183567E+00;1.057478016071018E+02;
1.249000000000000E+09;-1.698219256666867E+00;1.053125086885820E+02;
1.250000000000000E+09;-1.677822279087397E+00;1.048298584577829E+02;
1.251000000000000E+09;-1.659101787769095E+00;1.043785023832237E+02;
1.252000000000000E+09;-1.641098965839768E+00;1.039675347455261E+02;
1.253000000000000E+09;-1.620723304789480E+00;1.035396432768100E+02;
1.254000000000000E+09;-1.599302856855950E+00;1.031032211480510E+02;
1.255000000000000E+09;-1.579810744705248E+00;1.026825079635107E+02;
1.256000000000000E+09;-1.563297897947118E+00;1.022560214496771E+02;
1.257000000000000E+09;-1.543022722421313E+00;1.018759719719362E+02;
1.258000000000000E+09;-1.524832267308968E+00;1.014706136254688E+02;
1.259000000000000E+09;-1.504322086832228E+00;1.010661145663562E+02;
1.260000000000000E+09;-1.483002573664810E+00;1.006580805451365E+02;
1.261000000000000E+09;-1.467500583170246E+00;1.002934893323683E+02;
1.262000000000000E+09;-1.452435671563541E+00;9.991672631270788E+01;
1.263000000000000E+09;-1.430221150008056E+00;9.954197410038246E+01;
1.264000000000000E+09;-1.415485338531040E+00;9.912704834129636E+01;
1.265000000000000E+09;-1.399090376208678E+00;9.876836104117861E+01;
1.266000000000000E+09;-1.383210328713776E+00;9.841895024154368E+01;
1.267000000000000E+09;-1.368450988913954E+00;9.803299186849870E+01;
1.268000000000000E+09;-1.354010175397453E+00;9.765269791823887E+01;
1.269000000000000E+09;-1.339904344372297E+00;9.727467140718386E+01;
1.270000000000000E+09;-1.329208969981468E+00;9.693211758032258E+01;
1.271000000000000E+09;-1.316698120834694E+00;9.656934921031966E+01;
1.272000000000000E+09;-1.308164655653707E+00;9.617550979163734E+01;
1.273000000000000E+09;-1.300518427097685E+00;9.580471754363485E+01;
1.274000000000000E+09;-1.287596170729172E+00;9.543803456591928E+01;
1.275000000000000E+09;-1.280046434486753E+00;9.507586777643729E+01;
1.276000000000000E+09;-1.274716221749060E+00;9.470858321345767E+01;
1.277000000000000E+09;-1.265814130209538E+00;9.433474490274617E+01;
1.278000000000000E+09;-1.264844682183691E+00;9.394226309197062E+01;
1.279000000000000E+09;-1.257385656426488E+00;9.358107710228575E+01;
1.280000000000000E+09;-1.252927342965182E+00;9.322003309613606E+01;
1.281000000000000E+09;-1.249830536824931E+00;9.283127152621512E+01;
1.282000000000000E+09;-1.247673594911868E+00;9.244396853602112E+01;
1.283000000000000E+09;-1.249857119527170E+00;9.203628090205861E+01;
1.284000000000000E+09;-1.246588976411294E+00;9.165585206954187E+01;
1.285000000000000E+09;-1.250434790006290E+00;9.128504106159652E+01;
1.286000000000000E+09;-1.249810961581287E+00;9.086703481259180E+01;
1.287000000000000E+09;-1.250956180540158E+00;9.041903562943814E+01;
1.288000000000000E+09;-1.253539870373110E+00;9.002224869592456E+01;
1.289000000000000E+09;-1.257820264102884E+00;8.962043681987532E+01;
1.290000000000000E+09;-1.262570257149369E+00;8.920252625528093E+01;
1.291000000000000E+09;-1.265025928161745E+00;8.875856479056365E+01;
1.292000000000000E+09;-1.268561555698164E+00;8.833707381715324E+01;
