# Version 1.00
#
freq[Hz];db:Trc4_S11;ang:Trc4_S11;
1.000000000000000E+09;-1.310673171315144E+00;1.577697113636833E+02;
1.001000000000000E+09;-1.336742768262988E+00;1.573296078786709E+02;
1.002000000000000E+09;-1.361501468367392E+00;1.568612047803733E+02;
1.003000000000000E+09;-1.387391481854114E+00;1.564149578515387E+02;
1.004000000000000E+09;-1.412643711931437E+00;1.559355139761748E+02;
1.005000000000000E+09;-1.439935892804181E+00;1.554730781357469E+02;
1.006000000000000E+09;-1.466654266443154E+00;1.549744951900444E+02;
1.007000000000000E+09;-1.496862158528117E+00;1.544398479600714E+02;
1.008000000000000E+09;-1.528773799500011E+00;1.539837246750907E+02;
1.009000000000000E+09;-1.560508155015976E+00;1.534640192084458E+02;
1.010000000000000E+09;-1.591660807615600E+00;1.529368433179748E+02;
1.011000000000000E+09;-1.630677479470026E+00;1.523969077952390E+02;
1.012000000000000E+09;-1.668545508400985E+00;1.518455240514949E+02;
1.013000000000000E+09;-1.699746929842328E+00;1.513026179839994E+02;
1.014000000000000E+09;-1.737777498822306E+00;1.507193164123544E+02;
1.015000000000000E+09;-1.780676167926376E+00;1.501678654018623E+02;
1.016000000000000E+09;-1.821463392147827E+00;1.495949666104902E+02;
1.017000000000000E+09;-1.862025125563440E+00;1.489853193667881E+02;
1.018000000000000E+09;-1.905024778977243E+00;1.483807789504418E+02;
1.019000000000000E+09;-1.950728217362685E+00;1.477775066233903E+02;
1.020000000000000E+09;-1.992562536950667E+00;1.471652044140773E+02;
1.021000000000000E+09;-2.039293478276508E+00;1.465482205722700E+02;
1.022000000000000E+09;-2.087980996397296E+00;1.459073152181090E+02;
1.023000000000000E+09;-2.139671723394255E+00;1.452632915514434E+02;
1.024000000000000E+09;-2.188351998536877E+00;1.446478762644592E+02;
1.025000000000000E+09;-2.240979267249071E+00;1.439854459327008E+02;
1.026000000000000E+09;-2.291440447176247E+00;1.433449961495448E+02;
1.027000000000000E+09;-2.338592192744910E+00;1.427044650772892E+02;
1.028000000000000E+09;-2.395681924008187E+00;1.420108039931723E+02;
1.029000000000000E+09;-2.444308372830598E+00;1.413961384198530E+02;
1.030000000000000E+09;-2.499438112739205E+00;1.407187046120564E+02;
1.031000000000000E+09;-2.555766798963213E+00;1.400640665339293E+02;
1.032000000000000E+09;-2.608823964766567E+00;1.393934972115005E+02;
1.033000000000000E+09;-2.658358711275158E+00;1.387405513773172E+02;
1.034000000000000E+09;-2.712656414274772E+00;1.381008513530879E+02;
1.035000000000000E+09;-2.762520624357598E+00;1.374568789144969E+02;
1.036000000000000E+09;-2.817078393949716E+00;1.367933650747245E+02;
1.037000000000000E+09;-2.870086660562636E+00;1.361238019318851E+02;
1.038000000000000E+09;-2.921977780320126E+00;1.355196203273140E+02;
1.039000000000000E+09;-2.975020082924474E+00;1.348749320321602E+02;
1.040000000000000E+09;-3.024562659211841E+00;1.342173002412987E+02;
1.041000000000000E+09;-3.075740798733617E+00;1.335985094065184E+02;
1.042000000000000E+09;-3.124643152982077E+00;1.329906648189777E+02;
1.043000000000000E+09;-3.177139656702858E+00;1.323467247779607E+02;
1.044000000000000E+09;-3.222246848666161E+00;1.316909898398168E+02;
1.045000000000000E+09;-3.272456860462503E+00;1.311236014020157E+02;
1.046000000000000E+09;-3.315203567704354E+00;1.305006393445442E+02;
1.047000000000000E+09;-3.364965200763411E+00;1.298703558384531E+02;
1.048000000000000E+09;-3.413339971484592E+00;1.292730734860965E+02;
1.049000000000000E+09;-3.456649853525422E+00;1.286794234074192E+02;
1.050000000000000E+09;-3.503263161143645E+00;1.280766103444566E+02;
1.051000000000000E+09;-3.548522676911934E+00;1.274911537765002E+02;
1.052000000000000E+09;-3.593938959657163E+00;1.269044720012647E+02;
1.053000000000000E+09;-3.638608425565646E+00;1.263348246551415E+02;
1.054000000000000E+09;-3.691727963177427E+00;1.257028878850439E+02;
1.055000000000000E+09;-3.728637460874241E+00;1.251309385204322E+02;
1.056000000000000E+09;-3.779272990710397E+00;1.245826705895772E+02;
1.057000000000000E+09;-3.827444887520421E+00;1.240172757061213E+02;
1.058000000000000E+09;-3.875932565142473E+00;1.234356680409935E+02;
1.059000000000000E+09;-3.926479938688590E+00;1.228743032921031E+02;
1.060000000000000E+09;-3.980371910158001E+00;1.222962066637137E+02;
1.061000000000000E+09;-4.033688865843653E+00;1.217510955113241E+02;
1.062000000000000E+09;-4.086925884605071E+00;1.211725312401149E+02;
1.063000000000000E+09;-4.143995438291055E+00;1.206505234539867E+02;
1.064000000000000E+09;-4.198042092117846E+00;1.201343394325405E+02;
1.065000000000000E+09;-4.260374173478406E+00;1.195654751624411E+02;
1.066000000000000E+09;-4.325280991483024E+00;1.190024140510863E+02;
1.067000000000000E+09;-4.389487320544753E+00;1.184663329051781E+02;
1.068000000000000E+09;-4.460388178766078E+00;1.179592072075115E+02;
1.069000000000000E+09;-4.531150981049842E+00;1.173925197469388E+02;
1.070000000000000E+09;-4.604430915463417E+00;1.168692346327002E+02;
1.071000000000000E+09;-4.683294387082086E+00;1.163701528884172E+02;
1.072000000000000E+09;-4.766850060410951E+00;1.158463951185763E+02;
1.073000000000000E+09;-4.850653286377623E+00;1.152885421555826E+02;
1.074000000000000E+09;-4.943031414426756E+00;1.147659693726814E+02;
1.075000000000000E+09;-5.036362285693694E+00;1.142388704582738E+02;
1.076000000000000E+09;-5.136899767266466E+00;1.136928464888999E+02;
1.077000000000000E+09;-5.241901701167173E+00;1.131379141007766E+02;
1.078000000000000E+09;-5.361513686191995E+00;1.126375470351711E+02;
1.079000000000000E+09;-5.476413548109407E+00;1.120932372970301E+02;
1.080000000000000E+09;-5.603637661301746E+00;1.115456769738463E+02;
1.081000000000000E+09;-5.744052747430086E+00;1.109979829649651E+02;
1.082000000000000E+09;-5.886280724485752E+00;1.105446234815599E+02;
1.083000000000000E+09;-6.028474524172339E+00;1.100321322810821E+02;
1.084000000000000E+09;-6.191375432854874E+00;1.095665315157763E+02;
1.085000000000000E+09;-6.354601392561352E+00;1.090706107698379E+02;
1.086000000000000E+09;-6.526564887934256E+00;1.086193605720059E+02;
1.087000000000000E+09;-6.708888810152666E+00;1.081448232856807E+02;
1.088000000000000E+09;-6.901809190991512E+00;1.076789641480270E+02;
1.089000000000000E+09;-7.109298241521812E+00;1.072387740556765E+02;
1.090000000000000E+09;-7.326617300485863E+00;1.068231521235844E+02;
1.091000000000000E+09;-7.554597392380222E+00;1.064191233665406E+02;
1.092000000000000E+09;-7.795732566546451E+00;1.060803487752053E+02;
1.093000000000000E+09;-8.051559456742710E+00;1.057796658676469E+02;
1.094000000000000E+09;-8.326455970326617E+00;1.055119789340703E+02;
1.095000000000000E+09;-8.610583744496008E+00;1.052673712076883E+02;
1.096000000000000E+09;-8.913709497815825E+00;1.051652258774848E+02;
1.097000000000000E+09;-9.222687471600027E+00;1.051100196273955E+02;
1.098000000000000E+09;-9.550924568770983E+00;1.051387458949328E+02;
1.099000000000000E+09;-9.898322005754759E+00;1.052692334972596E+02;
1.100000000000000E+09;-1.025397368425798E+01;1.054681884314074E+02;
1.101000000000000E+09;-1.063306968601782E+01;1.058182732743021E+02;
1.102000000000000E+09;-1.102500606909897E+01;1.063371908035676E+02;
1.103000000000000E+09;-1.143377319972052E+01;1.069793723451143E+02;
1.104000000000000E+09;-1.185805046154987E+01;1.078381025476217E+02;
1.105000000000000E+09;-1.229879512766998E+01;1.089039059370568E+02;
1.106000000000000E+09;-1.275614426253839E+01;1.102403160612004E+02;
1.107000000000000E+09;-1.321773758120863E+01;1.119900014785309E+02;
1.108000000000000E+09;-1.368254293047114E+01;1.140095994606707E+02;
1.109000000000000E+09;-1.415215452739787E+01;1.164261561944323E+02;
1.110000000000000E+09;-1.459362935412946E+01;1.192785988646654E+02;
1.111000000000000E+09;-1.499684694805227E+01;1.227134529719507E+02;
1.112000000000000E+09;-1.535034407299470E+01;1.265736386393161E+02;
1.113000000000000E+09;-1.565079278897801E+01;1.307228268545417E+02;
1.114000000000000E+09;-1.586646184042945E+01;1.353256697430371E+02;
1.115000000000000E+09;-1.595694565239154E+01;1.400576566298691E+02;
1.116000000000000E+09;-1.596943618171824E+01;1.447516209644026E+02;
1.117000000000000E+09;-1.588839768824911E+01;1.494121179829394E+02;
1.118000000000000E+09;-1.570864909626515E+01;1.538965558172962E+02;
1.119000000000000E+09;-1.544890403167459E+01;1.580881620862874E+02;
1.120000000000000E+09;-1.512116457363563E+01;1.618603890789457E+02;
1.121000000000000E+09;-1.474740771258616E+01;1.651936029137028E+02;
1.122000000000000E+09;-1.432075713851678E+01;1.681161781520319E+02;
1.123000000000000E+09;-1.387056907517249E+01;1.705212751642884E+02;
1.124000000000000E+09;-1.340924203816634E+01;1.725287507220453E+02;
1.125000000000000E+09;-1.296558960949399E+01;1.741195956732953E+02;
1.126000000000000E+09;-1.250342276422499E+01;1.754119995653641E+02;
1.127000000000000E+09;-1.206725060163630E+01;1.763468006799142E+02;
1.128000000000000E+09;-1.163271942990574E+01;1.770695102242843E+02;
1.129000000000000E+09;-1.120927664466713E+01;1.775334772019686E+02;
1.130000000000000E+09;-1.080249548737427E+01;1.778262805693720E+02;
1.131000000000000E+09;-1.041789362407749E+01;1.778988907619003E+02;
1.132000000000000E+09;-1.003307596070273E+01;1.777907486210548E+02;
1.133000000000000E+09;-9.670553061309235E+00;1.775243254849420E+02;
1.134000000000000E+09;-9.319906797858694E+00;1.771563951036460E+02;
1.135000000000000E+09;-8.995684896862617E+00;1.767003164473337E+02;
1.136000000000000E+09;-8.687730975551046E+00;1.761451782560288E+02;
1.137000000000000E+09;-8.387870490112949E+00;1.755229531527151E+02;
1.138000000000000E+09;-8.104498836209064E+00;1.748639791809100E+02;
1.139000000000000E+09;-7.845759955494138E+00;1.741620270368800E+02;
1.140000000000000E+09;-7.583908760901243E+00;1.734711519967099E+02;
1.141000000000000E+09;-7.337401300113803E+00;1.727065486099752E+02;
1.142000000000000E+09;-7.094269498151291E+00;1.719071326241589E+02;
1.143000000000000E+09;-6.866279301461268E+00;1.711127066304463E+02;
1.144000000000000E+09;-6.646121992654131E+00;1.702887113916867E+02;
1.145000000000000E+09;-6.430381818187202E+00;1.694253611533232E+02;
1.146000000000000E+09;-6.225069695476359E+00;1.685417567995922E+02;
1.147000000000000E+09;-6.029816373801146E+00;1.676631761649506E+02;
1.148000000000000E+09;-5.834584170964644E+00;1.668021346936340E+02;
1.149000000000000E+09;-5.658417760083704E+00;1.659536090905862E+02;
1.150000000000000E+09;-5.485688760598969E+00;1.650387657429523E+02;
1.151000000000000E+09;-5.318074430664431E+00;1.642097546894792E+02;
1.152000000000000E+09;-5.158333172597596E+00;1.633483339126523E+02;
1.153000000000000E+09;-5.001463985172212E+00;1.624962044277652E+02;
1.154000000000000E+09;-4.845818719365030E+00;1.616771574390652E+02;
1.155000000000000E+09;-4.700094231078545E+00;1.608508752832436E+02;
1.156000000000000E+09;-4.556352807981198E+00;1.599980940209333E+02;
1.157000000000000E+09;-4.422173528930825E+00;1.591732568173380E+02;
1.158000000000000E+09;-4.286727567639386E+00;1.583875622948021E+02;
1.159000000000000E+09;-4.159740598914195E+00;1.575542062247956E+02;
1.160000000000000E+09;-4.039377542383503E+00;1.567604596750896E+02;
1.161000000000000E+09;-3.923311723862831E+00;1.559859396350550E+02;
1.162000000000000E+09;-3.806963852829769E+00;1.552379808127084E+02;
1.163000000000000E+09;-3.701434299311126E+00;1.544744174926725E+02;
1.164000000000000E+09;-3.595448695230476E+00;1.537304881658438E+02;
1.165000000000000E+09;-3.498125457287578E+00;1.529785148421861E+02;
1.166000000000000E+09;-3.403759600482459E+00;1.522753908586623E+02;
1.167000000000000E+09;-3.309879641437678E+00;1.515593420372298E+02;
1.168000000000000E+09;-3.223890759776062E+00;1.508770339289138E+02;
1.169000000000000E+09;-3.137268587883643E+00;1.502077615589118E+02;
1.170000000000000E+09;-3.058020921809506E+00;1.495639007689049E+02;
1.171000000000000E+09;-2.979029311615457E+00;1.489020178104444E+02;
1.172000000000000E+09;-2.905965679253542E+00;1.482659052130558E+02;
1.173000000000000E+09;-2.834546205472144E+00;1.476349957118900E+02;
1.174000000000000E+09;-2.764850405571817E+00;1.470248616126933E+02;
1.175000000000000E+09;-2.700569005453012E+00;1.464184140702857E+02;
1.176000000000000E+09;-2.640609711398577E+00;1.458107509685390E+02;
1.177000000000000E+09;-2.579164222190742E+00;1.452339245515660E+02;
1.178000000000000E+09;-2.523690612200158E+00;1.446558032796081E+02;
1.179000000000000E+09;-2.466955539732754E+00;1.440743858187927E+02;
1.180000000000000E+09;-2.418366155611706E+00;1.435141173301345E+02;
1.181000000000000E+09;-2.368319693047504E+00;1.429676200119860E+02;
1.182000000000000E+09;-2.324928220406102E+00;1.423932232126570E+02;
1.183000000000000E+09;-2.282829780647774E+00;1.418571129038703E+02;
1.184000000000000E+09;-2.242707382322456E+00;1.413120528370296E+02;
1.185000000000000E+09;-2.206383846070054E+00;1.407705431566972E+02;
1.186000000000000E+09;-2.169098982647260E+00;1.402384379706808E+02;
1.187000000000000E+09;-2.133527133334205E+00;1.396899439977287E+02;
1.188000000000000E+09;-2.104871932938332E+00;1.391598929123143E+02;
1.189000000000000E+09;-2.073049957583204E+00;1.386431125374720E+02;
1.190000000000000E+09;-2.047300729113977E+00;1.381116130446452E+02;
1.191000000000000E+09;-2.024595806354873E+00;1.375477627306756E+02;
1.192000000000000E+09;-2.000711464883310E+00;1.370380738587723E+02;
1.193000000000000E+09;-1.982377696656910E+00;1.365277593808693E+02;
1.194000000000000E+09;-1.965231685182007E+00;1.359660257646361E+02;
1.195000000000000E+09;-1.950565441308645E+00;1.354587152602919E+02;
1.196000000000000E+09;-1.936212082309236E+00;1.349283380435632E+02;
1.197000000000000E+09;-1.923316631571240E+00;1.344038021999172E+02;
1.198000000000000E+09;-1.913380370614267E+00;1.338678684837227E+02;
1.199000000000000E+09;-1.900892056359547E+00;1.333719506142107E+02;
1.200000000000000E+09;-1.893307777653360E+00;1.328280040703494E+02;
1.201000000000000E+09;-1.884379369222233E+00;1.322888968965621E+02;
1.202000000000000E+09;-1.876574331114190E+00;1.317433200276508E+02;
1.203000000000000E+09;-1.868066099567985E+00;1.312175161578743E+02;
1.204000000000000E+09;-1.860560440301766E+00;1.306569487995177E+02;
1.205000000000000E+09;-1.858080666272769E+00;1.301221672419602E+02;
1.206000000000000E+09;-1.860850119631742E+00;1.295723702981061E+02;
1.207000000000000E+09;-1.857601150256350E+00;1.290042009959560E+02;
1.208000000000000E+09;-1.855001955775881E+00;1.284451072867928E+02;
1.209000000000000E+09;-1.854683871001023E+00;1.278737409036022E+02;
1.210000000000000E+09;-1.853719429331099E+00;1.273222632623863E+02;
1.211000000000000E+09;-1.858364980115254E+00;1.267503987707469E+02;
1.212000000000000E+09;-1.858023940995590E+00;1.261942942565929E+02;
1.213000000000000E+09;-1.859854503553478E+00;1.255904172659588E+02;
1.214000000000000E+09;-1.862864017681556E+00;1.250318594126435E+02;
1.215000000000000E+09;-1.863897806680792E+00;1.244568785375894E+02;
1.216000000000000E+09;-1.866409317843244E+00;1.238667911692724E+02;
1.217000000000000E+09;-1.869652947281619E+00;1.232896292232738E+02;
1.218000000000000E+09;-1.871327663875488E+00;1.227086782748877E+02;
1.219000000000000E+09;-1.873611546188481E+00;1.221397473985257E+02;
1.220000000000000E+09;-1.872086628687501E+00;1.215389171261040E+02;
1.221000000000000E+09;-1.871066862889452E+00;1.209724282626701E+02;
1.222000000000000E+09;-1.875385703236176E+00;1.203806162428610E+02;
1.223000000000000E+09;-1.870575169960842E+00;1.198009422490512E+02;
1.224000000000000E+09;-1.868847001252680E+00;1.191941726989112E+02;
1.225000000000000E+09;-1.866783232248786E+00;1.186213533760330E+02;
1.226000000000000E+09;-1.861589953362428E+00;1.180156138873118E+02;
1.227000000000000E+09;-1.861247676747121E+00;1.173928978184991E+02;
1.228000000000000E+09;-1.859094125699710E+00;1.168026814092902E+02;
1.229000000000000E+09;-1.855475146415531E+00;1.162273297081026E+02;
1.230000000000000E+09;-1.857861950498323E+00;1.156608090276185E+02;
1.231000000000000E+09;-1.847436124901195E+00;1.150716844792882E+02;
1.232000000000000E+09;-1.841526677630261E+00;1.144935021766350E+02;
1.233000000000000E+09;-1.837073987183103E+00;1.139745711692303E+02;
1.234000000000000E+09;-1.824943166012781E+00;1.133991531608554E+02;
1.235000000000000E+09;-1.817542816658177E+00;1.128552569128059E+02;
1.236000000000000E+09;-1.807703174259632E+00;1.123186495257413E+02;
1.237000000000000E+09;-1.793344376718505E+00;1.117700212854543E+02;
1.238000000000000E+09;-1.781646393837915E+00;1.112232674800719E+02;
1.239000000000000E+09;-1.765062568507649E+00;1.106837725212433E+02;
1.240000000000000E+09;-1.750412206105556E+00;1.101552827050742E+02;
1.241000000000000E+09;-1.737839770116855E+00;1.096364064476236E+02;
1.242000000000000E+09;-1.723001984724389E+00;1.091338516365680E+02;
1.243000000000000E+09;-1.708160662980269E+00;1.086051758778028E+02;
1.244000000000000E+09;-1.688329539547150E+00;1.081612092762149E+02;
1.245000000000000E+09;-1.667026860358365E+00;1.076263479346948E+02;
1.246000000000000E+09;-1.650510479879667E+00;1.071471994182058E+02;
1.247000000000000E+09;-1.629912913981762E+00;1.066635560155718E+02;
1.248000000000000E+09;-1.610004560970841E+00;1.061796669632700E+02;
1.249000000000000E+09;-1.588235224489907E+00;1.057248481896710E+02;
1.250000000000000E+09;-1.568536808974023E+00;1.052407099915444E+02;
1.251000000000000E+09;-1.551717127173930E+00;1.047916655691158E+02;
1.252000000000000E+09;-1.529925484240530E+00;1.043519027892055E+02;
1.253000000000000E+09;-1.511031797321115E+00;1.039262921866442E+02;
1.254000000000000E+09;-1.491667987840408E+00;1.034705330796945E+02;
1.255000000000000E+09;-1.470577532714068E+00;1.030240700189274E+02;
1.256000000000000E+09;-1.455629349346681E+00;1.026020376055755E+02;
1.257000000000000E+09;-1.436594319506174E+00;1.022112349130692E+02;
1.258000000000000E+09;-1.412639499083495E+00;1.018024619851886E+02;
1.259000000000000E+09;-1.395929392070564E+00;1.013624386342210E+02;
1.260000000000000E+09;-1.376481214074702E+00;1.009568263586991E+02;
1.261000000000000E+09;-1.363115049775316E+00;1.005862355613742E+02;
1.262000000000000E+09;-1.346892547846092E+00;1.001779148502774E+02;
1.263000000000000E+09;-1.327255914816922E+00;9.979256691807461E+01;
1.264000000000000E+09;-1.312448069031087E+00;9.937569487395132E+01;
1.265000000000000E+09;-1.299973424445863E+00;9.901402871624731E+01;
1.266000000000000E+09;-1.286568563847659E+00;9.864892487709804E+01;
1.267000000000000E+09;-1.272100173838900E+00;9.825408375659543E+01;
1.268000000000000E+09;-1.259258440091020E+00;9.788347964998104E+01;
1.269000000000000E+09;-1.246331859882028E+00;9.750749372652042E+01;
1.270000000000000E+09;-1.236376625043829E+00;9.714622955132398E+01;
1.271000000000000E+09;-1.227312493743212E+00;9.677722412127986E+01;
1.272000000000000E+09;-1.218754328570388E+00;9.636833674364070E+01;
1.273000000000000E+09;-1.213469554682818E+00;9.600667727550400E+01;
1.274000000000000E+09;-1.203281180026468E+00;9.563661381694051E+01;
1.275000000000000E+09;-1.197430009863230E+00;9.525331749269417E+01;
1.276000000000000E+09;-1.189719380630487E+00;9.487220677952901E+01;
1.277000000000000E+09;-1.186697497746862E+00;9.450285491595534E+01;
1.278000000000000E+09;-1.184045927995921E+00;9.414827469538140E+01;
1.279000000000000E+09;-1.180274389183941E+00;9.375472271994212E+01;
1.280000000000000E+09;-1.175602879747764E+00;9.340890284536577E+01;
1.281000000000000E+09;-1.178065110758315E+00;9.301528015313295E+01;
1.282000000000000E+09;-1.180007765134417E+00;9.264288097679908E+01;
1.283000000000000E+09;-1.177775732078224E+00;9.221132530805271E+01;
1.284000000000000E+09;-1.171236548101797E+00;9.185718854151898E+01;
1.285000000000000E+09;-1.179751385733291E+00;9.145039534620449E+01;
1.286000000000000E+09;-1.180668972129465E+00;9.103950139629302E+01;
1.287000000000000E+09;-1.184028104583469E+00;9.061984791106930E+01;
1.288000000000000E+09;-1.187763034176610E+00;9.021701151334312E+01;
1.289000000000000E+09;-1.190151095686878E+00;8.979325507296281E+01;
1.290000000000000E+09;-1.199364953614549E+00;8.938648497554296E+01;
1.291000000000000E+09;-1.202881511674745E+00;8.894249075015739E+01;
1.292000000000000E+09;-1.208167980977503E+00;8.852679109358051E+01;
