# Version 1.00
#
freq[Hz];db:Trc4_S11;ang:Trc4_S11;
1.000000000000000E+09;-1.320789407345108E+00;1.578759792234101E+02;
1.001000000000000E+09;-1.342612392211128E+00;1.574188898687784E+02;
1.002000000000000E+09;-1.370168755998579E+00;1.569661638692423E+02;
1.003000000000000E+09;-1.393636434645988E+00;1.565172395619253E+02;
1.004000000000000E+09;-1.425799808786534E+00;1.560148528447467E+02;
1.005000000000000E+09;-1.452017480558692E+00;1.555627075848415E+02;
1.006000000000000E+09;-1.480990845630600E+00;1.550716869744471E+02;
1.007000000000000E+09;-1.514668426531419E+00;1.545938188430749E+02;
1.008000000000000E+09;-1.545449177914750E+00;1.541004138891993E+02;
1.009000000000000E+09;-1.581141268103488E+00;1.535973778336909E+02;
1.010000000000000E+09;-1.612662722541665E+00;1.530642668870023E+02;
1.011000000000000E+09;-1.652604049290529E+00;1.525214808559776E+02;
1.012000000000000E+09;-1.689139185246290E+00;1.519735477869454E+02;
1.013000000000000E+09;-1.725761145726558E+00;1.514478911337485E+02;
1.014000000000000E+09;-1.766357884939051E+00;1.508690620793634E+02;
1.015000000000000E+09;-1.808422021683109E+00;1.503028726052987E+02;
1.016000000000000E+09;-1.851900558157283E+00;1.497245292634683E+02;
1.017000000000000E+09;-1.891943410540154E+00;1.491249381818521E+02;
1.018000000000000E+09;-1.939430686009863E+00;1.485092033154581E+02;
1.019000000000000E+09;-1.985363427930864E+00;1.478990217993476E+02;
1.020000000000000E+09;-2.033371916367295E+00;1.472960813886298E+02;
1.021000000000000E+09;-2.080499036452119E+00;1.466612173324485E+02;
1.022000000000000E+09;-2.126492832320158E+00;1.460118459584955E+02;
1.023000000000000E+09;-2.179814682149979E+00;1.453856776548256E+02;
1.024000000000000E+09;-2.229777887732939E+00;1.447544936604220E+02;
1.025000000000000E+09;-2.286813309852421E+00;1.440540325727430E+02;
1.026000000000000E+09;-2.337872381416832E+00;1.434233039185208E+02;
1.027000000000000E+09;-2.391583454409598E+00;1.427671713854164E+02;
1.028000000000000E+09;-2.447377947651857E+00;1.420821013871011E+02;
1.029000000000000E+09;-2.503457892696807E+00;1.414335547328600E+02;
1.030000000000000E+09;-2.560233429815803E+00;1.407768012916011E+02;
1.031000000000000E+09;-2.616295361345926E+00;1.400915615911630E+02;
1.032000000000000E+09;-2.672275971683964E+00;1.394170658878074E+02;
1.033000000000000E+09;-2.727618057093096E+00;1.387594539786501E+02;
1.034000000000000E+09;-2.780493327103859E+00;1.381011631615729E+02;
1.035000000000000E+09;-2.837742096138282E+00;1.374739979308457E+02;
1.036000000000000E+09;-2.891163097976404E+00;1.367939951650601E+02;
1.037000000000000E+09;-2.949750853678952E+00;1.361243266412716E+02;
1.038000000000000E+09;-3.001065593381284E+00;1.354626903519618E+02;
1.039000000000000E+09;-3.052056444790682E+00;1.348926186080778E+02;
1.040000000000000E+09;-3.109094975521661E+00;1.342108945685826E+02;
1.041000000000000E+09;-3.159412350483488E+00;1.335685375921677E+02;
1.042000000000000E+09;-3.213928522519312E+00;1.329556879903554E+02;
1.043000000000000E+09;-3.266811501139649E+00;1.322950128887206E+02;
1.044000000000000E+09;-3.317911967176410E+00;1.316420586397034E+02;
1.045000000000000E+09;-3.367719254670958E+00;1.310896483581132E+02;
1.046000000000000E+09;-3.414567696457661E+00;1.304576100770749E+02;
1.047000000000000E+09;-3.468513701766945E+00;1.298330066020174E+02;
1.048000000000000E+09;-3.515809214233616E+00;1.292244799463429E+02;
1.049000000000000E+09;-3.564158103936382E+00;1.286482669176976E+02;
1.050000000000000E+09;-3.614190888612606E+00;1.280641051518749E+02;
1.051000000000000E+09;-3.659583635218269E+00;1.274888883919102E+02;
1.052000000000000E+09;-3.708055554640999E+00;1.269090933385061E+02;
1.053000000000000E+09;-3.752495230975863E+00;1.263594042491602E+02;
1.054000000000000E+09;-3.804562820628855E+00;1.257773168867168E+02;
1.055000000000000E+09;-3.843477888945868E+00;1.252100194547608E+02;
1.056000000000000E+09;-3.897552382424572E+00;1.246745260785894E+02;
1.057000000000000E+09;-3.941858282171230E+00;1.241304820524809E+02;
1.058000000000000E+09;-3.992550892778194E+00;1.235792981405198E+02;
1.059000000000000E+09;-4.041102683637851E+00;1.230389195862405E+02;
1.060000000000000E+09;-4.094293978582754E+00;1.224948354340306E+02;
1.061000000000000E+09;-4.145724759147869E+00;1.219514762356936E+02;
1.062000000000000E+09;-4.199060899866602E+00;1.214025052691098E+02;
1.063000000000000E+09;-4.255660416356457E+00;1.209052122093288E+02;
1.064000000000000E+09;-4.308909843378355E+00;1.204066513768945E+02;
1.065000000000000E+09;-4.367328398681642E+00;1.198730428855234E+02;
1.066000000000000E+09;-4.428738797191828E+00;1.193464807875220E+02;
1.067000000000000E+09;-4.489236619928928E+00;1.188362453022634E+02;
1.068000000000000E+09;-4.558930530702112E+00;1.183578941757771E+02;
1.069000000000000E+09;-4.623271885807823E+00;1.178360539817842E+02;
1.070000000000000E+09;-4.694463779365217E+00;1.172948600528019E+02;
1.071000000000000E+09;-4.772248677449765E+00;1.168048034397970E+02;
1.072000000000000E+09;-4.849399618210996E+00;1.163081688213255E+02;
1.073000000000000E+09;-4.931821180599520E+00;1.157474324099156E+02;
1.074000000000000E+09;-5.023323525710400E+00;1.152646204952266E+02;
1.075000000000000E+09;-5.117216043851562E+00;1.147436871399713E+02;
1.076000000000000E+09;-5.211514818566037E+00;1.142453088791742E+02;
1.077000000000000E+09;-5.317430704592234E+00;1.137138697845890E+02;
1.078000000000000E+09;-5.427034473110666E+00;1.132336081745830E+02;
1.079000000000000E+09;-5.541686900741628E+00;1.127134748579870E+02;
1.080000000000000E+09;-5.665419311765264E+00;1.121961511233717E+02;
1.081000000000000E+09;-5.804026065634326E+00;1.117397032820469E+02;
1.082000000000000E+09;-5.935439435960497E+00;1.112641739566718E+02;
1.083000000000000E+09;-6.082071094493863E+00;1.107758128758974E+02;
1.084000000000000E+09;-6.238943392511398E+00;1.103284563143222E+02;
1.085000000000000E+09;-6.397104239789901E+00;1.098708990457059E+02;
1.086000000000000E+09;-6.570276277797626E+00;1.094787677917070E+02;
1.087000000000000E+09;-6.750802117000854E+00;1.090458750907942E+02;
1.088000000000000E+09;-6.938004453864943E+00;1.086375716068909E+02;
1.089000000000000E+09;-7.140883458448819E+00;1.082781180680777E+02;
1.090000000000000E+09;-7.340125137266763E+00;1.079331099384028E+02;
1.091000000000000E+09;-7.564024027847052E+00;1.075741992638377E+02;
1.092000000000000E+09;-7.797084764200192E+00;1.072456077384180E+02;
1.093000000000000E+09;-8.038860408485682E+00;1.070138899977856E+02;
1.094000000000000E+09;-8.297896343937190E+00;1.067090027083756E+02;
1.095000000000000E+09;-8.573954512672502E+00;1.064833855498433E+02;
1.096000000000000E+09;-8.865354313178781E+00;1.063848607767516E+02;
1.097000000000000E+09;-9.166523396781281E+00;1.063532749704291E+02;
1.098000000000000E+09;-9.494832841098377E+00;1.063394199441126E+02;
1.099000000000000E+09;-9.830182466664946E+00;1.064924571023939E+02;
1.100000000000000E+09;-1.018341137903631E+01;1.067903828767233E+02;
1.101000000000000E+09;-1.055413487832836E+01;1.071690657454321E+02;
1.102000000000000E+09;-1.094457037817559E+01;1.077291897090547E+02;
1.103000000000000E+09;-1.133794590220078E+01;1.084702011932983E+02;
1.104000000000000E+09;-1.175623219436969E+01;1.094323981595751E+02;
1.105000000000000E+09;-1.217726307511979E+01;1.105845256770845E+02;
1.106000000000000E+09;-1.260824642468449E+01;1.120770893300125E+02;
1.107000000000000E+09;-1.303952873988779E+01;1.138781805441732E+02;
1.108000000000000E+09;-1.345769589342239E+01;1.159951194982332E+02;
1.109000000000000E+09;-1.387079192062430E+01;1.184120922539517E+02;
1.110000000000000E+09;-1.427157572749502E+01;1.212357156973436E+02;
1.111000000000000E+09;-1.462884110268471E+01;1.245364523216589E+02;
1.112000000000000E+09;-1.493005136261945E+01;1.281244947462819E+02;
1.113000000000000E+09;-1.518908371544976E+01;1.320132673745006E+02;
1.114000000000000E+09;-1.535997743935302E+01;1.362437518950304E+02;
1.115000000000000E+09;-1.544142415260871E+01;1.405868365034462E+02;
1.116000000000000E+09;-1.545499196519917E+01;1.450013659661858E+02;
1.117000000000000E+09;-1.536660418885494E+01;1.493254848901051E+02;
1.118000000000000E+09;-1.518822484518186E+01;1.533906306592147E+02;
1.119000000000000E+09;-1.493443410661611E+01;1.573391823490262E+02;
1.120000000000000E+09;-1.463243939501326E+01;1.606635953321914E+02;
1.121000000000000E+09;-1.428001948079441E+01;1.637114300448319E+02;
1.122000000000000E+09;-1.389257551132593E+01;1.664312626201602E+02;
1.123000000000000E+09;-1.349078781072419E+01;1.686588441213884E+02;
1.124000000000000E+09;-1.307325731974106E+01;1.705021290705776E+02;
1.125000000000000E+09;-1.265565363476568E+01;1.720479102135824E+02;
1.126000000000000E+09;-1.222753886404240E+01;1.732930859114601E+02;
1.127000000000000E+09;-1.181559041364127E+01;1.742328204947652E+02;
1.128000000000000E+09;-1.140824428808743E+01;1.749372088884363E+02;
1.129000000000000E+09;-1.100991778391183E+01;1.753556449543547E+02;
1.130000000000000E+09;-1.062808590534716E+01;1.756304160176059E+02;
1.131000000000000E+09;-1.026185080926747E+01;1.756989405288035E+02;
1.132000000000000E+09;-9.912186791676774E+00;1.756088226956097E+02;
1.133000000000000E+09;-9.577334501551682E+00;1.754274159075610E+02;
1.134000000000000E+09;-9.255990538538260E+00;1.751637505421258E+02;
1.135000000000000E+09;-8.952232503323089E+00;1.748564854248477E+02;
1.136000000000000E+09;-8.657246837630272E+00;1.744225346997085E+02;
1.137000000000000E+09;-8.355105474134275E+00;1.739427322843923E+02;
1.138000000000000E+09;-8.080389717918457E+00;1.733888572689240E+02;
1.139000000000000E+09;-7.809757467729172E+00;1.727567349369857E+02;
1.140000000000000E+09;-7.548326608573422E+00;1.721131255763534E+02;
1.141000000000000E+09;-7.298645801469494E+00;1.713764901630772E+02;
1.142000000000000E+09;-7.057922096446076E+00;1.706015119700731E+02;
1.143000000000000E+09;-6.828473109745047E+00;1.698006106271589E+02;
1.144000000000000E+09;-6.606388463285128E+00;1.689808980156588E+02;
1.145000000000000E+09;-6.398684313637276E+00;1.681716696075057E+02;
1.146000000000000E+09;-6.204190522963939E+00;1.673249661488445E+02;
1.147000000000000E+09;-6.008749179386057E+00;1.664980799122361E+02;
1.148000000000000E+09;-5.825098870878485E+00;1.656690301405933E+02;
1.149000000000000E+09;-5.643520447947818E+00;1.648467630968399E+02;
1.150000000000000E+09;-5.465713261739259E+00;1.639846897648690E+02;
1.151000000000000E+09;-5.299226872152214E+00;1.631667927954761E+02;
1.152000000000000E+09;-5.139616530754506E+00;1.623120645591735E+02;
1.153000000000000E+09;-4.982493007287689E+00;1.614825384016692E+02;
1.154000000000000E+09;-4.832829163939848E+00;1.606480718094923E+02;
1.155000000000000E+09;-4.688457342771851E+00;1.598632795668106E+02;
1.156000000000000E+09;-4.547637617847888E+00;1.590498233714853E+02;
1.157000000000000E+09;-4.416870974846916E+00;1.582522523909576E+02;
1.158000000000000E+09;-4.287902670523149E+00;1.574535083391931E+02;
1.159000000000000E+09;-4.160345405338401E+00;1.567124970966847E+02;
1.160000000000000E+09;-4.047090172171551E+00;1.559637884092320E+02;
1.161000000000000E+09;-3.931941394580821E+00;1.552046307921057E+02;
1.162000000000000E+09;-3.822202472810643E+00;1.544929451584912E+02;
1.163000000000000E+09;-3.712212856131183E+00;1.537841051996557E+02;
1.164000000000000E+09;-3.606990187335954E+00;1.531099809961822E+02;
1.165000000000000E+09;-3.505327435068641E+00;1.523953514463480E+02;
1.166000000000000E+09;-3.408344297114192E+00;1.517395603572154E+02;
1.167000000000000E+09;-3.311748013569691E+00;1.510649655075216E+02;
1.168000000000000E+09;-3.224917594462513E+00;1.504054502727685E+02;
1.169000000000000E+09;-3.135722237587351E+00;1.497609969319327E+02;
1.170000000000000E+09;-3.054214416189041E+00;1.491265886660719E+02;
1.171000000000000E+09;-2.973002681443695E+00;1.484993053950136E+02;
1.172000000000000E+09;-2.897101971876601E+00;1.478657816427247E+02;
1.173000000000000E+09;-2.824678249397581E+00;1.472569536678531E+02;
1.174000000000000E+09;-2.754381187212508E+00;1.466510912785196E+02;
1.175000000000000E+09;-2.686815332620289E+00;1.460685167713254E+02;
1.176000000000000E+09;-2.625505490767465E+00;1.454526783974898E+02;
1.177000000000000E+09;-2.565968769259002E+00;1.448962065432308E+02;
1.178000000000000E+09;-2.509076880813772E+00;1.443105861939628E+02;
1.179000000000000E+09;-2.455854607470402E+00;1.437299076341370E+02;
1.180000000000000E+09;-2.407261467179212E+00;1.432016172577984E+02;
1.181000000000000E+09;-2.355801098402500E+00;1.426692970214973E+02;
1.182000000000000E+09;-2.314818391855258E+00;1.421241417330776E+02;
1.183000000000000E+09;-2.269977033199261E+00;1.415950276572433E+02;
1.184000000000000E+09;-2.229811556356929E+00;1.410458774020946E+02;
1.185000000000000E+09;-2.192109995389698E+00;1.405162838537165E+02;
1.186000000000000E+09;-2.153910221419084E+00;1.399814130972832E+02;
1.187000000000000E+09;-2.119238581508931E+00;1.394302692604055E+02;
1.188000000000000E+09;-2.092026320354472E+00;1.389175210191622E+02;
1.189000000000000E+09;-2.064345715334462E+00;1.383842683792443E+02;
1.190000000000000E+09;-2.038982010608396E+00;1.378748377691419E+02;
1.191000000000000E+09;-2.017054788557096E+00;1.373289927254210E+02;
1.192000000000000E+09;-1.993404046127718E+00;1.368125815245063E+02;
1.193000000000000E+09;-1.974256846916177E+00;1.363090527854189E+02;
1.194000000000000E+09;-1.956102219973992E+00;1.357638002967649E+02;
1.195000000000000E+09;-1.938749595098663E+00;1.352601146200603E+02;
1.196000000000000E+09;-1.927090950701769E+00;1.347467376914402E+02;
1.197000000000000E+09;-1.919038054894844E+00;1.342036758083715E+02;
1.198000000000000E+09;-1.906332643994433E+00;1.336610331903794E+02;
1.199000000000000E+09;-1.896235934828422E+00;1.331579030663644E+02;
1.200000000000000E+09;-1.888982857415658E+00;1.326071866459086E+02;
1.201000000000000E+09;-1.883550518315544E+00;1.320891118159989E+02;
1.202000000000000E+09;-1.879449151582453E+00;1.315329242877161E+02;
1.203000000000000E+09;-1.876791346000183E+00;1.310071782333752E+02;
1.204000000000000E+09;-1.872854738915813E+00;1.304481297252562E+02;
1.205000000000000E+09;-1.870747314612976E+00;1.299214184908525E+02;
1.206000000000000E+09;-1.871826032417672E+00;1.293749080295796E+02;
1.207000000000000E+09;-1.876894057474585E+00;1.288304781126955E+02;
1.208000000000000E+09;-1.875124169874360E+00;1.282554822383553E+02;
1.209000000000000E+09;-1.873770797391000E+00;1.276958036106768E+02;
1.210000000000000E+09;-1.874008127848861E+00;1.271681865755792E+02;
1.211000000000000E+09;-1.878593131287096E+00;1.265867603961007E+02;
1.212000000000000E+09;-1.880288778453174E+00;1.260441692134134E+02;
1.213000000000000E+09;-1.882677829467580E+00;1.254293973583338E+02;
1.214000000000000E+09;-1.882749999067892E+00;1.248738175701723E+02;
1.215000000000000E+09;-1.883696384391719E+00;1.242817981449418E+02;
1.216000000000000E+09;-1.888850827202710E+00;1.236911283378130E+02;
1.217000000000000E+09;-1.889411223081617E+00;1.231069163399745E+02;
1.218000000000000E+09;-1.891515237224793E+00;1.225145717819622E+02;
1.219000000000000E+09;-1.894950318969444E+00;1.219158173182640E+02;
1.220000000000000E+09;-1.894319667718467E+00;1.213079840860856E+02;
1.221000000000000E+09;-1.895124318329121E+00;1.207122205457544E+02;
1.222000000000000E+09;-1.899159452187458E+00;1.201256734134138E+02;
1.223000000000000E+09;-1.895193362435805E+00;1.195293162399740E+02;
1.224000000000000E+09;-1.893844179091193E+00;1.189059730973694E+02;
1.225000000000000E+09;-1.893620783954187E+00;1.183191824210057E+02;
1.226000000000000E+09;-1.892881765208185E+00;1.176897741240029E+02;
1.227000000000000E+09;-1.893152869329792E+00;1.170850086205648E+02;
1.228000000000000E+09;-1.893919476641013E+00;1.164817660496048E+02;
1.229000000000000E+09;-1.888241389578177E+00;1.158957444521955E+02;
1.230000000000000E+09;-1.886891642193697E+00;1.152997745870430E+02;
1.231000000000000E+09;-1.881195929137589E+00;1.146864166896561E+02;
1.232000000000000E+09;-1.874953518060238E+00;1.141013456245257E+02;
1.233000000000000E+09;-1.871893411410301E+00;1.135387711291363E+02;
1.234000000000000E+09;-1.864672826622610E+00;1.129493648505204E+02;
1.235000000000000E+09;-1.858963128978095E+00;1.123879194830897E+02;
1.236000000000000E+09;-1.848108199762153E+00;1.118649454016713E+02;
1.237000000000000E+09;-1.841808699061557E+00;1.112724237000627E+02;
1.238000000000000E+09;-1.834420302065888E+00;1.107399787515736E+02;
1.239000000000000E+09;-1.818872456653483E+00;1.101940084654070E+02;
1.240000000000000E+09;-1.805939808712027E+00;1.096714571802703E+02;
1.241000000000000E+09;-1.798306296876161E+00;1.091602478975067E+02;
1.242000000000000E+09;-1.787012360495311E+00;1.086570148759325E+02;
1.243000000000000E+09;-1.773094076058685E+00;1.081341971539435E+02;
1.244000000000000E+09;-1.754789742868669E+00;1.076659508096862E+02;
1.245000000000000E+09;-1.740117863347150E+00;1.071509718324836E+02;
1.246000000000000E+09;-1.725750214669322E+00;1.067025852077430E+02;
1.247000000000000E+09;-1.705970931002761E+00;1.062249684699712E+02;
1.248000000000000E+09;-1.686305821307625E+00;1.057552265964135E+02;
1.249000000000000E+09;-1.668055888080152E+00;1.053245209812922E+02;
1.250000000000000E+09;-1.649062572007284E+00;1.048701655363421E+02;
1.251000000000000E+09;-1.631791260648732E+00;1.044180839868359E+02;
1.252000000000000E+09;-1.613893286574665E+00;1.040115092179534E+02;
1.253000000000000E+09;-1.592911059964013E+00;1.035967360840935E+02;
1.254000000000000E+09;-1.573379739948192E+00;1.031663460292981E+02;
1.255000000000000E+09;-1.554292802666789E+00;1.027426568565640E+02;
1.256000000000000E+09;-1.532654396424046E+00;1.023267396393874E+02;
1.257000000000000E+09;-1.511986430702779E+00;1.019633428056091E+02;
1.258000000000000E+09;-1.492491142435224E+00;1.015829697468772E+02;
1.259000000000000E+09;-1.473798305283027E+00;1.011599148755332E+02;
1.260000000000000E+09;-1.451613264853878E+00;1.007557450095209E+02;
1.261000000000000E+09;-1.437649887908387E+00;1.004120779085209E+02;
1.262000000000000E+09;-1.418968348994916E+00;1.000226313940588E+02;
1.263000000000000E+09;-1.397697324801727E+00;9.966189547841887E+01;
1.264000000000000E+09;-1.382099270518833E+00;9.924639835530412E+01;
1.265000000000000E+09;-1.367311016606613E+00;9.889153572742849E+01;
1.266000000000000E+09;-1.351598596350077E+00;9.855248263457726E+01;
1.267000000000000E+09;-1.336891373682564E+00;9.816820664541535E+01;
1.268000000000000E+09;-1.321978084318730E+00;9.779876470705540E+01;
1.269000000000000E+09;-1.309927287793015E+00;9.741208487083492E+01;
1.270000000000000E+09;-1.298156138407558E+00;9.707958067093080E+01;
1.271000000000000E+09;-1.285293066570412E+00;9.672948164471325E+01;
1.272000000000000E+09;-1.276802345545007E+00;9.633525166544973E+01;
1.273000000000000E+09;-1.267807456836493E+00;9.599020714652916E+01;
1.274000000000000E+09;-1.259651073374167E+00;9.561640577919587E+01;
1.275000000000000E+09;-1.251934845147233E+00;9.525536196498294E+01;
1.276000000000000E+09;-1.245412549556849E+00;9.489947085881289E+01;
1.277000000000000E+09;-1.239032411394615E+00;9.453445803089727E+01;
1.278000000000000E+09;-1.234353910719418E+00;9.413955801272834E+01;
1.279000000000000E+09;-1.230452354574251E+00;9.378500613970556E+01;
1.280000000000000E+09;-1.226552683664881E+00;9.342382823451999E+01;
1.281000000000000E+09;-1.227715999013626E+00;9.306001294769253E+01;
1.282000000000000E+09;-1.223277045536671E+00;9.266511285777855E+01;
1.283000000000000E+09;-1.225167408317944E+00;9.226938966864859E+01;
1.284000000000000E+09;-1.217331419398528E+00;9.192775323496943E+01;
1.285000000000000E+09;-1.221953325097467E+00;9.152486590803674E+01;
1.286000000000000E+09;-1.223490425148068E+00;9.111302474159602E+01;
1.287000000000000E+09;-1.227458433284962E+00;9.070751236446701E+01;
1.288000000000000E+09;-1.227297784380050E+00;9.030570425945426E+01;
1.289000000000000E+09;-1.228191704520286E+00;8.990162817274927E+01;
1.290000000000000E+09;-1.238596888774105E+00;8.949181717061386E+01;
1.291000000000000E+09;-1.236687553813449E+00;8.902818596784954E+01;
1.292000000000000E+09;-1.246723645719257E+00;8.863141335560400E+01;
