# Version 1.00
#
freq[Hz];db:Trc4_S11;ang:Trc4_S11;
1.000000000000000E+09;-1.349809222507371E+00;1.577292642143094E+02;
1.001000000000000E+09;-1.376008920323066E+00;1.572610140119382E+02;
1.002000000000000E+09;-1.408450572037053E+00;1.568519393336683E+02;
1.003000000000000E+09;-1.433125208560746E+00;1.563834631341188E+02;
1.004000000000000E+09;-1.459884306738323E+00;1.558910539862169E+02;
1.005000000000000E+09;-1.490725613869791E+00;1.554617690174942E+02;
1.006000000000000E+09;-1.514171513320626E+00;1.549529188080597E+02;
1.007000000000000E+09;-1.552089861036727E+00;1.544425971956887E+02;
1.008000000000000E+09;-1.585596016731157E+00;1.539662454204300E+02;
1.009000000000000E+09;-1.620305366116519E+00;1.534519931779828E+02;
1.010000000000000E+09;-1.653616692722841E+00;1.529389178266870E+02;
1.011000000000000E+09;-1.693892380039464E+00;1.523741072080307E+02;
1.012000000000000E+09;-1.732375437395150E+00;1.518356818227699E+02;
1.013000000000000E+09;-1.769936785990327E+00;1.513034066710816E+02;
1.014000000000000E+09;-1.809979023048164E+00;1.507260867436365E+02;
1.015000000000000E+09;-1.854874529692804E+00;1.501644595737027E+02;
1.016000000000000E+09;-1.900572745570015E+00;1.495666267490040E+02;
1.017000000000000E+09;-1.942725990275617E+00;1.489639683446757E+02;
1.018000000000000E+09;-1.991408861390142E+00;1.483357308494032E+02;
1.019000000000000E+09;-2.041609504899572E+00;1.477243840393011E+02;
1.020000000000000E+09;-2.089934740851811E+00;1.471129084171641E+02;
1.021000000000000E+09;-2.140804184005222E+00;1.464679814038465E+02;
1.022000000000000E+09;-2.192730858602774E+00;1.458303532110100E+02;
1.023000000000000E+09;-2.248355635974443E+00;1.452047953579584E+02;
1.024000000000000E+09;-2.303682094637621E+00;1.445487361962121E+02;
1.025000000000000E+09;-2.358745257448407E+00;1.438794781713669E+02;
1.026000000000000E+09;-2.414966150928237E+00;1.432415409522493E+02;
1.027000000000000E+09;-2.469783860077821E+00;1.425966766238780E+02;
1.028000000000000E+09;-2.526263501881700E+00;1.418941962993773E+02;
1.029000000000000E+09;-2.583895829880629E+00;1.412786958048082E+02;
1.030000000000000E+09;-2.644363980092900E+00;1.405780685749830E+02;
1.031000000000000E+09;-2.702549906067697E+00;1.399075005161569E+02;
1.032000000000000E+09;-2.763461748787559E+00;1.392224861245921E+02;
1.033000000000000E+09;-2.818892979592962E+00;1.385379705140044E+02;
1.034000000000000E+09;-2.878014109195100E+00;1.378974311118716E+02;
1.035000000000000E+09;-2.937726341631615E+00;1.372528196127074E+02;
1.036000000000000E+09;-2.994833282056092E+00;1.365724810155679E+02;
1.037000000000000E+09;-3.052495192918960E+00;1.359094606559849E+02;
1.038000000000000E+09;-3.106333458370443E+00;1.352712228918038E+02;
1.039000000000000E+09;-3.165791741866248E+00;1.346183669834340E+02;
1.040000000000000E+09;-3.223168903357435E+00;1.339526654316374E+02;
1.041000000000000E+09;-3.280156168268433E+00;1.333505474672249E+02;
1.042000000000000E+09;-3.333083841438367E+00;1.326893789545301E+02;
1.043000000000000E+09;-3.390105788474927E+00;1.320473620386391E+02;
1.044000000000000E+09;-3.445217302826240E+00;1.314145567161482E+02;
1.045000000000000E+09;-3.500095423734569E+00;1.308455779394967E+02;
1.046000000000000E+09;-3.549739228804809E+00;1.302206901877582E+02;
1.047000000000000E+09;-3.600815193332923E+00;1.296113887874368E+02;
1.048000000000000E+09;-3.654549975934194E+00;1.290283767613248E+02;
1.049000000000000E+09;-3.706812056155504E+00;1.284409170666388E+02;
1.050000000000000E+09;-3.758136207817440E+00;1.278528544435555E+02;
1.051000000000000E+09;-3.805819086457130E+00;1.272847095789121E+02;
1.052000000000000E+09;-3.854319876130971E+00;1.267183805278483E+02;
1.053000000000000E+09;-3.905754285749652E+00;1.261569605689448E+02;
1.054000000000000E+09;-3.957346674412772E+00;1.255798077105780E+02;
1.055000000000000E+09;-4.000260218655983E+00;1.250237205624996E+02;
1.056000000000000E+09;-4.050255770581365E+00;1.244893857145173E+02;
1.057000000000000E+09;-4.098447810539227E+00;1.239620553765565E+02;
1.058000000000000E+09;-4.146975839164933E+00;1.234058948616974E+02;
1.059000000000000E+09;-4.196585358997122E+00;1.228669465803948E+02;
1.060000000000000E+09;-4.250499534869562E+00;1.223178594730097E+02;
1.061000000000000E+09;-4.300521905894577E+00;1.217781284068935E+02;
1.062000000000000E+09;-4.356335419013135E+00;1.212300839310301E+02;
1.063000000000000E+09;-4.413147115342984E+00;1.207309112891673E+02;
1.064000000000000E+09;-4.465881119919633E+00;1.202466953363907E+02;
1.065000000000000E+09;-4.528845954632857E+00;1.197135196837966E+02;
1.066000000000000E+09;-4.593484763906619E+00;1.191883362052718E+02;
1.067000000000000E+09;-4.655578930974796E+00;1.186977327986508E+02;
1.068000000000000E+09;-4.722600050769692E+00;1.182078526219159E+02;
1.069000000000000E+09;-4.792318867461018E+00;1.176849153749205E+02;
1.070000000000000E+09;-4.865211228278763E+00;1.171594133528221E+02;
1.071000000000000E+09;-4.942804968455121E+00;1.166822499088638E+02;
1.072000000000000E+09;-5.021518670443767E+00;1.161937656985477E+02;
1.073000000000000E+09;-5.106160297361495E+00;1.156590816967366E+02;
1.074000000000000E+09;-5.195067930664537E+00;1.151806821404004E+02;
1.075000000000000E+09;-5.286744702222715E+00;1.146856494067897E+02;
1.076000000000000E+09;-5.386046219742156E+00;1.141746302068323E+02;
1.077000000000000E+09;-5.498796708100683E+00;1.136664804887891E+02;
1.078000000000000E+09;-5.606005238415996E+00;1.132038615305279E+02;
1.079000000000000E+09;-5.723144266521679E+00;1.127155430547216E+02;
1.080000000000000E+09;-5.850774158605631E+00;1.122037704855546E+02;
1.081000000000000E+09;-5.978745956535432E+00;1.117527412428729E+02;
1.082000000000000E+09;-6.118250062477947E+00;1.113033113697027E+02;
1.083000000000000E+09;-6.259823030198037E+00;1.108322178768507E+02;
1.084000000000000E+09;-6.418721335239036E+00;1.103708521773486E+02;
1.085000000000000E+09;-6.581066970543796E+00;1.099092640241656E+02;
1.086000000000000E+09;-6.752804518030722E+00;1.095193482216103E+02;
1.087000000000000E+09;-6.937968062319867E+00;1.091019891995738E+02;
1.088000000000000E+09;-7.137872736111754E+00;1.086899323161929E+02;
1.089000000000000E+09;-7.341400098544102E+00;1.083619040245451E+02;
1.090000000000000E+09;-7.555093376023322E+00;1.080327195787590E+02;
1.091000000000000E+09;-7.789272273190830E+00;1.077483847480975E+02;
1.092000000000000E+09;-8.024320673532459E+00;1.075002972711282E+02;
1.093000000000000E+09;-8.268770629543004E+00;1.072934820934316E+02;
1.094000000000000E+09;-8.545507311354894E+00;1.071309201764178E+02;
1.095000000000000E+09;-8.820979916304829E+00;1.069969014539920E+02;
1.096000000000000E+09;-9.115793170265011E+00;1.069977291398711E+02;
1.097000000000000E+09;-9.428532760296108E+00;1.070497770673979E+02;
1.098000000000000E+09;-9.755843712852759E+00;1.072381875882132E+02;
1.099000000000000E+09;-1.009497620877088E+01;1.075106300519564E+02;
1.100000000000000E+09;-1.044934967552434E+01;1.079745543497447E+02;
1.101000000000000E+09;-1.081649001796044E+01;1.085439556710257E+02;
1.102000000000000E+09;-1.119861955279499E+01;1.093096255337140E+02;
1.103000000000000E+09;-1.158163511458522E+01;1.102448710812826E+02;
1.104000000000000E+09;-1.197201398514427E+01;1.114356266037651E+02;
1.105000000000000E+09;-1.238347269289641E+01;1.128865147557955E+02;
1.106000000000000E+09;-1.278494891280914E+01;1.145342178583847E+02;
1.107000000000000E+09;-1.317970097944353E+01;1.165367912883669E+02;
1.108000000000000E+09;-1.356339025446864E+01;1.188931852031270E+02;
1.109000000000000E+09;-1.393219767382767E+01;1.215293833641190E+02;
1.110000000000000E+09;-1.427258934664466E+01;1.244759808351732E+02;
1.111000000000000E+09;-1.456607642637682E+01;1.279956777618574E+02;
1.112000000000000E+09;-1.478811985900806E+01;1.315758385209283E+02;
1.113000000000000E+09;-1.497524338237445E+01;1.353910173905065E+02;
1.114000000000000E+09;-1.506583558034264E+01;1.394007646100877E+02;
1.115000000000000E+09;-1.506885568578765E+01;1.435079129340608E+02;
1.116000000000000E+09;-1.502111565706271E+01;1.474695609574159E+02;
1.117000000000000E+09;-1.489551042208297E+01;1.513242795510062E+02;
1.118000000000000E+09;-1.468953165074297E+01;1.549597922655380E+02;
1.119000000000000E+09;-1.443431441275405E+01;1.584003841593743E+02;
1.120000000000000E+09;-1.412667595486295E+01;1.613618176700340E+02;
1.121000000000000E+09;-1.378029505060733E+01;1.640718513484153E+02;
1.122000000000000E+09;-1.340336500119912E+01;1.664480177827215E+02;
1.123000000000000E+09;-1.300859882206144E+01;1.683375807281184E+02;
1.124000000000000E+09;-1.260966062736419E+01;1.699689668999266E+02;
1.125000000000000E+09;-1.221962571520126E+01;1.712840261544187E+02;
1.126000000000000E+09;-1.180754717313541E+01;1.723363397860586E+02;
1.127000000000000E+09;-1.142905084171107E+01;1.731017319479877E+02;
1.128000000000000E+09;-1.103645409209618E+01;1.736913498740694E+02;
1.129000000000000E+09;-1.066795065582193E+01;1.739942266784033E+02;
1.130000000000000E+09;-1.030093905568704E+01;1.741948003167386E+02;
1.131000000000000E+09;-9.954418059916479E+00;1.741544216753627E+02;
1.132000000000000E+09;-9.621497650691518E+00;1.740263301165594E+02;
1.133000000000000E+09;-9.300084340293722E+00;1.737285361902534E+02;
1.134000000000000E+09;-8.996462103570114E+00;1.733660675281650E+02;
1.135000000000000E+09;-8.707732721715333E+00;1.729572670362170E+02;
1.136000000000000E+09;-8.431691827264270E+00;1.724620581859625E+02;
1.137000000000000E+09;-8.164706675167650E+00;1.719077682155430E+02;
1.138000000000000E+09;-7.905329680621300E+00;1.713313749189342E+02;
1.139000000000000E+09;-7.665960269204485E+00;1.707151132049997E+02;
1.140000000000000E+09;-7.428353597918357E+00;1.700648913704324E+02;
1.141000000000000E+09;-7.193601237592935E+00;1.694152813682639E+02;
1.142000000000000E+09;-6.973567864988940E+00;1.686764231330788E+02;
1.143000000000000E+09;-6.760663370308815E+00;1.679482120020735E+02;
1.144000000000000E+09;-6.557658914015548E+00;1.672730369669361E+02;
1.145000000000000E+09;-6.355729175275230E+00;1.665440053211430E+02;
1.146000000000000E+09;-6.161739097300218E+00;1.657571525946512E+02;
1.147000000000000E+09;-5.975120137669901E+00;1.649728262668696E+02;
1.148000000000000E+09;-5.788776510770272E+00;1.642508513689370E+02;
1.149000000000000E+09;-5.615447174151696E+00;1.634538410677885E+02;
1.150000000000000E+09;-5.439974536236175E+00;1.626590371398839E+02;
1.151000000000000E+09;-5.272281508133506E+00;1.618698805667611E+02;
1.152000000000000E+09;-5.112192348794266E+00;1.610821629688824E+02;
1.153000000000000E+09;-4.953674165046687E+00;1.602679337990250E+02;
1.154000000000000E+09;-4.809329007677400E+00;1.594509264524569E+02;
1.155000000000000E+09;-4.665565396847925E+00;1.586945240190237E+02;
1.156000000000000E+09;-4.525326878598030E+00;1.579037342738480E+02;
1.157000000000000E+09;-4.388096364949395E+00;1.571097234237102E+02;
1.158000000000000E+09;-4.265007943431137E+00;1.563587288770058E+02;
1.159000000000000E+09;-4.140787531492539E+00;1.555984195606889E+02;
1.160000000000000E+09;-4.019891615949832E+00;1.548793203382123E+02;
1.161000000000000E+09;-3.906273355863537E+00;1.541110820048110E+02;
1.162000000000000E+09;-3.794754658886823E+00;1.533891586914310E+02;
1.163000000000000E+09;-3.687438541683217E+00;1.526763150528196E+02;
1.164000000000000E+09;-3.585490650099518E+00;1.519975873502809E+02;
1.165000000000000E+09;-3.485746045559995E+00;1.513017532254157E+02;
1.166000000000000E+09;-3.391248982293071E+00;1.506369779302716E+02;
1.167000000000000E+09;-3.302387592302539E+00;1.499765610799284E+02;
1.168000000000000E+09;-3.215903460752187E+00;1.493282414948762E+02;
1.169000000000000E+09;-3.131623739106924E+00;1.486994264296127E+02;
1.170000000000000E+09;-3.054776743078183E+00;1.480942435634588E+02;
1.171000000000000E+09;-2.974805704296396E+00;1.474644852609079E+02;
1.172000000000000E+09;-2.903960414007267E+00;1.468554815363372E+02;
1.173000000000000E+09;-2.832426019224929E+00;1.462623271414249E+02;
1.174000000000000E+09;-2.765973958402425E+00;1.456939087801806E+02;
1.175000000000000E+09;-2.701314873122062E+00;1.451191147371819E+02;
1.176000000000000E+09;-2.642094301201636E+00;1.445371324316969E+02;
1.177000000000000E+09;-2.582784129442341E+00;1.439914453805426E+02;
1.178000000000000E+09;-2.525723142702085E+00;1.434226100952788E+02;
1.179000000000000E+09;-2.473827646942716E+00;1.428475451863815E+02;
1.180000000000000E+09;-2.429784255866605E+00;1.423125369379022E+02;
1.181000000000000E+09;-2.379610251059286E+00;1.417947819257065E+02;
1.182000000000000E+09;-2.339787243925540E+00;1.412455654188604E+02;
1.183000000000000E+09;-2.299852842866544E+00;1.407240653207241E+02;
1.184000000000000E+09;-2.262702119840930E+00;1.402035719585259E+02;
1.185000000000000E+09;-2.228878841729032E+00;1.396977537133238E+02;
1.186000000000000E+09;-2.196834137598902E+00;1.391976861819152E+02;
1.187000000000000E+09;-2.164318889549350E+00;1.386862751235111E+02;
1.188000000000000E+09;-2.138878658358475E+00;1.381795324147786E+02;
1.189000000000000E+09;-2.111256634331016E+00;1.376725228162312E+02;
1.190000000000000E+09;-2.090801594872534E+00;1.371735715994633E+02;
1.191000000000000E+09;-2.063096806537053E+00;1.366786603250291E+02;
1.192000000000000E+09;-2.047607387960441E+00;1.361755972480722E+02;
1.193000000000000E+09;-2.027806498190191E+00;1.356878851286039E+02;
1.194000000000000E+09;-2.016871778310445E+00;1.351900600747553E+02;
1.195000000000000E+09;-2.001938829892958E+00;1.346850916865372E+02;
1.196000000000000E+09;-1.990615136797479E+00;1.341915808169425E+02;
1.197000000000000E+09;-1.975810420682003E+00;1.336999475085620E+02;
1.198000000000000E+09;-1.965443177931075E+00;1.331738818664624E+02;
1.199000000000000E+09;-1.957021611819400E+00;1.326807877737026E+02;
1.200000000000000E+09;-1.948102902802570E+00;1.321945326652828E+02;
1.201000000000000E+09;-1.942083237226347E+00;1.316549138705386E+02;
1.202000000000000E+09;-1.935293123111290E+00;1.311001360354055E+02;
1.203000000000000E+09;-1.934212076670606E+00;1.305889114676712E+02;
1.204000000000000E+09;-1.931456569045233E+00;1.300547373410827E+02;
1.205000000000000E+09;-1.927924823044462E+00;1.295297957178897E+02;
1.206000000000000E+09;-1.929010904774320E+00;1.290063288873582E+02;
1.207000000000000E+09;-1.930122248168779E+00;1.284839830749745E+02;
1.208000000000000E+09;-1.931655253024052E+00;1.279029323506539E+02;
1.209000000000000E+09;-1.932813032158067E+00;1.273483377577039E+02;
1.210000000000000E+09;-1.934535832040635E+00;1.268043106038382E+02;
1.211000000000000E+09;-1.937890428805347E+00;1.262436057814007E+02;
1.212000000000000E+09;-1.939119294542310E+00;1.256958213948207E+02;
1.213000000000000E+09;-1.942590779504876E+00;1.250756560448564E+02;
1.214000000000000E+09;-1.946906282044233E+00;1.245457431422917E+02;
1.215000000000000E+09;-1.946863624498907E+00;1.239524980047201E+02;
1.216000000000000E+09;-1.952439086064624E+00;1.233554755042090E+02;
1.217000000000000E+09;-1.956395438034220E+00;1.227829835356252E+02;
1.218000000000000E+09;-1.957629331097971E+00;1.221979150971350E+02;
1.219000000000000E+09;-1.964189165896927E+00;1.216159311717075E+02;
1.220000000000000E+09;-1.964736721279457E+00;1.210171424402646E+02;
1.221000000000000E+09;-1.966217286501402E+00;1.204168231605349E+02;
1.222000000000000E+09;-1.970956354526090E+00;1.198330682911357E+02;
1.223000000000000E+09;-1.968752376384950E+00;1.192311472330665E+02;
1.224000000000000E+09;-1.969070908883548E+00;1.186038463208520E+02;
1.225000000000000E+09;-1.967668653319956E+00;1.180311926794866E+02;
1.226000000000000E+09;-1.967330719436684E+00;1.174095095494549E+02;
1.227000000000000E+09;-1.970926436756269E+00;1.168116221720657E+02;
1.228000000000000E+09;-1.970251872566533E+00;1.161993372160229E+02;
1.229000000000000E+09;-1.970731919685814E+00;1.156165703129993E+02;
1.230000000000000E+09;-1.969526315370698E+00;1.150472605831762E+02;
1.231000000000000E+09;-1.966094410970097E+00;1.144241943156100E+02;
1.232000000000000E+09;-1.959396892632057E+00;1.138533913451104E+02;
1.233000000000000E+09;-1.959735696888539E+00;1.133108705849517E+02;
1.234000000000000E+09;-1.952103718518530E+00;1.127200013832062E+02;
1.235000000000000E+09;-1.948530015914034E+00;1.121748515615083E+02;
1.236000000000000E+09;-1.939115865939958E+00;1.116457577047196E+02;
1.237000000000000E+09;-1.929330380643678E+00;1.110752412030821E+02;
1.238000000000000E+09;-1.922150185085746E+00;1.105705098418552E+02;
1.239000000000000E+09;-1.910406286750640E+00;1.100083994148079E+02;
1.240000000000000E+09;-1.895245934939636E+00;1.094945874618264E+02;
1.241000000000000E+09;-1.887357408124449E+00;1.089941120780361E+02;
1.242000000000000E+09;-1.874720363546474E+00;1.084996700031191E+02;
1.243000000000000E+09;-1.856796559824461E+00;1.079853767040373E+02;
1.244000000000000E+09;-1.836791706020118E+00;1.075078875130478E+02;
1.245000000000000E+09;-1.819990958290978E+00;1.070152058242097E+02;
1.246000000000000E+09;-1.807028781121012E+00;1.065527130842363E+02;
1.247000000000000E+09;-1.786225972075582E+00;1.060606360748077E+02;
1.248000000000000E+09;-1.766949032690888E+00;1.055950440250668E+02;
1.249000000000000E+09;-1.745075074002936E+00;1.051507898832243E+02;
1.250000000000000E+09;-1.727278008333479E+00;1.046698062982891E+02;
1.251000000000000E+09;-1.710060458801297E+00;1.042329696226853E+02;
1.252000000000000E+09;-1.690392795348366E+00;1.038268825091875E+02;
1.253000000000000E+09;-1.669939290942361E+00;1.033919612495771E+02;
1.254000000000000E+09;-1.648026896956064E+00;1.029570246373838E+02;
1.255000000000000E+09;-1.626705752703922E+00;1.025184896084783E+02;
1.256000000000000E+09;-1.610427336919412E+00;1.021041233672356E+02;
1.257000000000000E+09;-1.588441370269147E+00;1.017357593628520E+02;
1.258000000000000E+09;-1.568063249084294E+00;1.013229435832826E+02;
1.259000000000000E+09;-1.550615156388944E+00;1.008952092358096E+02;
1.260000000000000E+09;-1.533028959769283E+00;1.005100318887216E+02;
1.261000000000000E+09;-1.516819607366267E+00;1.001444107438110E+02;
1.262000000000000E+09;-1.499892967719329E+00;9.976762909454018E+01;
1.263000000000000E+09;-1.478941686584938E+00;9.939186775696437E+01;
1.264000000000000E+09;-1.463759694538199E+00;9.898356826834228E+01;
1.265000000000000E+09;-1.447547559291015E+00;9.862855248049364E+01;
1.266000000000000E+09;-1.433554288929869E+00;9.829523993136226E+01;
1.267000000000000E+09;-1.418291981994266E+00;9.791017454219822E+01;
1.268000000000000E+09;-1.403432921379875E+00;9.752811072461594E+01;
1.269000000000000E+09;-1.391423620580490E+00;9.714529739255474E+01;
1.270000000000000E+09;-1.376549980318306E+00;9.680667087550512E+01;
1.271000000000000E+09;-1.366211919886309E+00;9.644957066455471E+01;
1.272000000000000E+09;-1.351811869071265E+00;9.604496688217033E+01;
1.273000000000000E+09;-1.346993130854990E+00;9.570387040506746E+01;
1.274000000000000E+09;-1.334230058276101E+00;9.533187619576934E+01;
1.275000000000000E+09;-1.327841439120606E+00;9.496495575490589E+01;
1.276000000000000E+09;-1.320505929550247E+00;9.460256687605047E+01;
1.277000000000000E+09;-1.310585869143193E+00;9.424216894214619E+01;
1.278000000000000E+09;-1.312137536727962E+00;9.386324143884679E+01;
1.279000000000000E+09;-1.303821960371345E+00;9.347088067823077E+01;
1.280000000000000E+09;-1.300948948682925E+00;9.310405245646298E+01;
1.281000000000000E+09;-1.298012146237792E+00;9.274440159601292E+01;
1.282000000000000E+09;-1.298401712839028E+00;9.235483687075680E+01;
1.283000000000000E+09;-1.294873488383036E+00;9.194300187178429E+01;
1.284000000000000E+09;-1.294225234550896E+00;9.156355676739156E+01;
1.285000000000000E+09;-1.300984307295374E+00;9.116294198344733E+01;
1.286000000000000E+09;-1.301461579176950E+00;9.075507011041731E+01;
1.287000000000000E+09;-1.299209963236229E+00;9.036015112363506E+01;
1.288000000000000E+09;-1.301395152567278E+00;8.995108830402525E+01;
1.289000000000000E+09;-1.307004731178145E+00;8.954645784358915E+01;
1.290000000000000E+09;-1.312887185625179E+00;8.913812615922674E+01;
1.291000000000000E+09;-1.311790149678812E+00;8.868329399225496E+01;
1.292000000000000E+09;-1.320124843084197E+00;8.826618663889195E+01;
