# Version 1.00
#
freq[Hz];db:Trc4_S11;ang:Trc4_S11;
1.000000000000000E+09;-1.305746952026175E+00;1.581497316482269E+02;
1.001000000000000E+09;-1.331547721626367E+00;1.577115339064713E+02;
1.002000000000000E+09;-1.356596215370462E+00;1.572493973865353E+02;
1.003000000000000E+09;-1.381706467720516E+00;1.567877539676321E+02;
1.004000000000000E+09;-1.407708726576832E+00;1.562940839797559E+02;
1.005000000000000E+09;-1.438512713982418E+00;1.558373408555591E+02;
1.006000000000000E+09;-1.464876384788748E+00;1.553329448898356E+02;
1.007000000000000E+09;-1.499896272897664E+00;1.548324013494818E+02;
1.008000000000000E+09;-1.529675509834295E+00;1.543488667722140E+02;
1.009000000000000E+09;-1.562942253077395E+00;1.538581009907633E+02;
1.010000000000000E+09;-1.596820004796861E+00;1.533217570370926E+02;
1.011000000000000E+09;-1.634043742912380E+00;1.527690224439388E+02;
1.012000000000000E+09;-1.670402219223196E+00;1.522247360901550E+02;
1.013000000000000E+09;-1.706156134368359E+00;1.516983437861547E+02;
1.014000000000000E+09;-1.743591367493533E+00;1.511000694263130E+02;
1.015000000000000E+09;-1.788041537498252E+00;1.505537204660340E+02;
1.016000000000000E+09;-1.829380019540352E+00;1.499553973703879E+02;
1.017000000000000E+09;-1.868327980778188E+00;1.493406464982887E+02;
1.018000000000000E+09;-1.915222153692223E+00;1.487292031212719E+02;
1.019000000000000E+09;-1.961886263634322E+00;1.481192623136714E+02;
1.020000000000000E+09;-2.009682829622457E+00;1.475032834155401E+02;
1.021000000000000E+09;-2.054511257538108E+00;1.468674629138573E+02;
1.022000000000000E+09;-2.105523856019871E+00;1.462109849280062E+02;
1.023000000000000E+09;-2.157559299393368E+00;1.455584095824020E+02;
1.024000000000000E+09;-2.209388376215889E+00;1.449099862472091E+02;
1.025000000000000E+09;-2.267762854029470E+00;1.442532684481680E+02;
1.026000000000000E+09;-2.316394898539498E+00;1.435875713297690E+02;
1.027000000000000E+09;-2.370692985197511E+00;1.429623795768044E+02;
1.028000000000000E+09;-2.426516179164663E+00;1.422250116633792E+02;
1.029000000000000E+09;-2.479916084107730E+00;1.415887417403546E+02;
1.030000000000000E+09;-2.538237610767415E+00;1.408947514096473E+02;
1.031000000000000E+09;-2.595745614594503E+00;1.402449655643669E+02;
1.032000000000000E+09;-2.651550541491731E+00;1.395561773021224E+02;
1.033000000000000E+09;-2.706657101086923E+00;1.388656119561586E+02;
1.034000000000000E+09;-2.761179890589221E+00;1.382048479684134E+02;
1.035000000000000E+09;-2.821600524740249E+00;1.375538899486518E+02;
1.036000000000000E+09;-2.875127603582492E+00;1.368481074333393E+02;
1.037000000000000E+09;-2.927972486002128E+00;1.362040239258604E+02;
1.038000000000000E+09;-2.983692895784132E+00;1.355699931568394E+02;
1.039000000000000E+09;-3.040415031184232E+00;1.349007044357696E+02;
1.040000000000000E+09;-3.089003478230827E+00;1.342050975078848E+02;
1.041000000000000E+09;-3.147648235743392E+00;1.335879849318770E+02;
1.042000000000000E+09;-3.193980705080018E+00;1.329367386802890E+02;
1.043000000000000E+09;-3.250998818725149E+00;1.322824836846227E+02;
1.044000000000000E+09;-3.304625703088344E+00;1.316255943482338E+02;
1.045000000000000E+09;-3.351275444536179E+00;1.310354136567145E+02;
1.046000000000000E+09;-3.399463674213286E+00;1.303828256735545E+02;
1.047000000000000E+09;-3.455027010490703E+00;1.297488107039931E+02;
1.048000000000000E+09;-3.505297496615260E+00;1.291103488200980E+02;
1.049000000000000E+09;-3.551673881793791E+00;1.285234653257438E+02;
1.050000000000000E+09;-3.603493063899672E+00;1.279024431237567E+02;
1.051000000000000E+09;-3.653380908373542E+00;1.272897565819654E+02;
1.052000000000000E+09;-3.699678525791517E+00;1.267165101325946E+02;
1.053000000000000E+09;-3.750652742979274E+00;1.261255591466732E+02;
1.054000000000000E+09;-3.796877586932357E+00;1.255016851057226E+02;
1.055000000000000E+09;-3.840695562651022E+00;1.249062332698858E+02;
1.056000000000000E+09;-3.892339820645247E+00;1.243416240664873E+02;
1.057000000000000E+09;-3.941584200023785E+00;1.237611035485387E+02;
1.058000000000000E+09;-3.991647909156355E+00;1.231771686567498E+02;
1.059000000000000E+09;-4.042884824719942E+00;1.226277248925975E+02;
1.060000000000000E+09;-4.094412903169501E+00;1.220361697522311E+02;
1.061000000000000E+09;-4.147344105778408E+00;1.214829385619869E+02;
1.062000000000000E+09;-4.202431118540685E+00;1.208707433940911E+02;
1.063000000000000E+09;-4.261571489615353E+00;1.203445837790978E+02;
1.064000000000000E+09;-4.317677758703210E+00;1.197978127470686E+02;
1.065000000000000E+09;-4.382678239877256E+00;1.192279443784884E+02;
1.066000000000000E+09;-4.449966052131592E+00;1.186709402306710E+02;
1.067000000000000E+09;-4.514065848617739E+00;1.181297940370792E+02;
1.068000000000000E+09;-4.588776298015070E+00;1.176253293802151E+02;
1.069000000000000E+09;-4.658516232036821E+00;1.170538327920013E+02;
1.070000000000000E+09;-4.734303879425074E+00;1.165137210441903E+02;
1.071000000000000E+09;-4.809722833477387E+00;1.160276538597504E+02;
1.072000000000000E+09;-4.889404229758333E+00;1.155005724518906E+02;
1.073000000000000E+09;-4.973100683421838E+00;1.149747153685399E+02;
1.074000000000000E+09;-5.065543328756180E+00;1.144263474858423E+02;
1.075000000000000E+09;-5.153595139987335E+00;1.138827940369691E+02;
1.076000000000000E+09;-5.251203026385475E+00;1.133401495372463E+02;
1.077000000000000E+09;-5.357520618252067E+00;1.127118808611453E+02;
1.078000000000000E+09;-5.472218517893570E+00;1.121911159473249E+02;
1.079000000000000E+09;-5.586076658767672E+00;1.115945067394423E+02;
1.080000000000000E+09;-5.717361575554785E+00;1.110024664646814E+02;
1.081000000000000E+09;-5.856261695208369E+00;1.104479025123167E+02;
1.082000000000000E+09;-6.002167789294031E+00;1.098848314611927E+02;
1.083000000000000E+09;-6.155191810521078E+00;1.093636491395900E+02;
1.084000000000000E+09;-6.322057800154191E+00;1.088327249409413E+02;
1.085000000000000E+09;-6.494820327434003E+00;1.083234758564284E+02;
1.086000000000000E+09;-6.678953283985784E+00;1.078469920864568E+02;
1.087000000000000E+09;-6.878917689814955E+00;1.073553731630796E+02;
1.088000000000000E+09;-7.083170931897312E+00;1.068967770092374E+02;
1.089000000000000E+09;-7.297008860838607E+00;1.064873830920846E+02;
1.090000000000000E+09;-7.520347057737924E+00;1.061015696847067E+02;
1.091000000000000E+09;-7.756445441938208E+00;1.057538261205358E+02;
1.092000000000000E+09;-8.011832224482596E+00;1.053872505215895E+02;
1.093000000000000E+09;-8.272735193098042E+00;1.051251776740461E+02;
1.094000000000000E+09;-8.559067233679787E+00;1.048301817949218E+02;
1.095000000000000E+09;-8.850895643398083E+00;1.046658362997643E+02;
1.096000000000000E+09;-9.163547669696513E+00;1.045509808106449E+02;
1.097000000000000E+09;-9.488294987835602E+00;1.045215372458289E+02;
1.098000000000000E+09;-9.830478077511467E+00;1.046152173519081E+02;
1.099000000000000E+09;-1.019411046250510E+01;1.047925815890399E+02;
1.100000000000000E+09;-1.057220051335147E+01;1.050625441999867E+02;
1.101000000000000E+09;-1.096033356798907E+01;1.054706101907904E+02;
1.102000000000000E+09;-1.137993899701355E+01;1.060660198435838E+02;
1.103000000000000E+09;-1.180497934741159E+01;1.068661744401799E+02;
1.104000000000000E+09;-1.224827396168535E+01;1.078411137714908E+02;
1.105000000000000E+09;-1.271430685958288E+01;1.091053815346306E+02;
1.106000000000000E+09;-1.318245102608582E+01;1.106402018473571E+02;
1.107000000000000E+09;-1.366581201508815E+01;1.125680495220917E+02;
1.108000000000000E+09;-1.415691835489669E+01;1.148950312206230E+02;
1.109000000000000E+09;-1.463700861467556E+01;1.177363745956858E+02;
1.110000000000000E+09;-1.508881272904146E+01;1.209779362592129E+02;
1.111000000000000E+09;-1.549081672232837E+01;1.249065500093104E+02;
1.112000000000000E+09;-1.582026807655225E+01;1.292351350989927E+02;
1.113000000000000E+09;-1.608493771647942E+01;1.339363425525173E+02;
1.114000000000000E+09;-1.623591093351905E+01;1.389190692133461E+02;
1.115000000000000E+09;-1.626400707466095E+01;1.440571849063674E+02;
1.116000000000000E+09;-1.619131863789451E+01;1.490861421092432E+02;
1.117000000000000E+09;-1.601490053111190E+01;1.538628330588928E+02;
1.118000000000000E+09;-1.573164467793934E+01;1.582883622370046E+02;
1.119000000000000E+09;-1.537982036801487E+01;1.624184633869939E+02;
1.120000000000000E+09;-1.497564257997226E+01;1.658659269484028E+02;
1.121000000000000E+09;-1.452670412128459E+01;1.688681605787860E+02;
1.122000000000000E+09;-1.405424249121458E+01;1.714700426606396E+02;
1.123000000000000E+09;-1.357732640393069E+01;1.734656975302304E+02;
1.124000000000000E+09;-1.309779156628364E+01;1.750597125712014E+02;
1.125000000000000E+09;-1.263347117427646E+01;1.762860082375333E+02;
1.126000000000000E+09;-1.218396547434468E+01;1.771890369815446E+02;
1.127000000000000E+09;-1.174968302323210E+01;1.779172351466476E+02;
1.128000000000000E+09;-1.132393665281102E+01;1.783806429298303E+02;
1.129000000000000E+09;-1.092179396000522E+01;1.786582420892640E+02;
1.130000000000000E+09;-1.052269857296547E+01;1.787480141421123E+02;
1.131000000000000E+09;-1.015425998323439E+01;1.786743870075577E+02;
1.132000000000000E+09;-9.793678781440452E+00;1.784939383590405E+02;
1.133000000000000E+09;-9.449662600635930E+00;1.781728059206287E+02;
1.134000000000000E+09;-9.115004371124467E+00;1.778313802829059E+02;
1.135000000000000E+09;-8.798110456038479E+00;1.773623056087681E+02;
1.136000000000000E+09;-8.490189271704962E+00;1.768009103160812E+02;
1.137000000000000E+09;-8.189427870905821E+00;1.762096455243654E+02;
1.138000000000000E+09;-7.902671760145866E+00;1.755209399068831E+02;
1.139000000000000E+09;-7.635223255777944E+00;1.747617860823240E+02;
1.140000000000000E+09;-7.374169169180005E+00;1.739902264118881E+02;
1.141000000000000E+09;-7.127910335832390E+00;1.731214186714216E+02;
1.142000000000000E+09;-6.891975254778979E+00;1.722565206829521E+02;
1.143000000000000E+09;-6.672433407106268E+00;1.713634122246948E+02;
1.144000000000000E+09;-6.457545505768364E+00;1.705069129776400E+02;
1.145000000000000E+09;-6.249012473225118E+00;1.696194310841350E+02;
1.146000000000000E+09;-6.057723990691626E+00;1.687364567961595E+02;
1.147000000000000E+09;-5.866801360348552E+00;1.678525565795387E+02;
1.148000000000000E+09;-5.680795663291153E+00;1.669999464748155E+02;
1.149000000000000E+09;-5.505134627880572E+00;1.661041546740647E+02;
1.150000000000000E+09;-5.330653805056542E+00;1.652501969835768E+02;
1.151000000000000E+09;-5.167594388456640E+00;1.643694276637407E+02;
1.152000000000000E+09;-5.007668095679072E+00;1.634816174910706E+02;
1.153000000000000E+09;-4.855086766872776E+00;1.625923088897808E+02;
1.154000000000000E+09;-4.707669460030131E+00;1.617177506270099E+02;
1.155000000000000E+09;-4.566796124405743E+00;1.609098490754738E+02;
1.156000000000000E+09;-4.427884370653984E+00;1.600488726352208E+02;
1.157000000000000E+09;-4.293894041043258E+00;1.592030795729957E+02;
1.158000000000000E+09;-4.168575330390501E+00;1.584196240277078E+02;
1.159000000000000E+09;-4.042373001443254E+00;1.575950850053181E+02;
1.160000000000000E+09;-3.927502622857904E+00;1.568202320586074E+02;
1.161000000000000E+09;-3.815456672819087E+00;1.560349554157377E+02;
1.162000000000000E+09;-3.704092948520243E+00;1.552739524090346E+02;
1.163000000000000E+09;-3.601142773656103E+00;1.545412951426530E+02;
1.164000000000000E+09;-3.495920046097171E+00;1.538043947863064E+02;
1.165000000000000E+09;-3.395247078537786E+00;1.530838685739798E+02;
1.166000000000000E+09;-3.301596584862621E+00;1.523814110701353E+02;
1.167000000000000E+09;-3.212073086247240E+00;1.516490176123904E+02;
1.168000000000000E+09;-3.127266478148902E+00;1.509556890823076E+02;
1.169000000000000E+09;-3.047020511698133E+00;1.502785842081044E+02;
1.170000000000000E+09;-2.969871214379821E+00;1.496331999536538E+02;
1.171000000000000E+09;-2.897164595407826E+00;1.489717166330475E+02;
1.172000000000000E+09;-2.825503067314836E+00;1.483488685543528E+02;
1.173000000000000E+09;-2.757513335253705E+00;1.477317688282014E+02;
1.174000000000000E+09;-2.690243429797451E+00;1.471359019858925E+02;
1.175000000000000E+09;-2.626790477693262E+00;1.465441558926705E+02;
1.176000000000000E+09;-2.566046402593132E+00;1.459350008574870E+02;
1.177000000000000E+09;-2.507835504137479E+00;1.453692609174621E+02;
1.178000000000000E+09;-2.452816778518670E+00;1.448030115363325E+02;
1.179000000000000E+09;-2.401273043002447E+00;1.442019990446004E+02;
1.180000000000000E+09;-2.355251417295052E+00;1.436514675556918E+02;
1.181000000000000E+09;-2.308502272734520E+00;1.431270426108237E+02;
1.182000000000000E+09;-2.267414933953042E+00;1.425741391161033E+02;
1.183000000000000E+09;-2.225968950836399E+00;1.420380275049036E+02;
1.184000000000000E+09;-2.184479568715778E+00;1.415066005690952E+02;
1.185000000000000E+09;-2.151489221976590E+00;1.409808132974737E+02;
1.186000000000000E+09;-2.115344011028063E+00;1.404669239322948E+02;
1.187000000000000E+09;-2.081419280286654E+00;1.399130514133644E+02;
1.188000000000000E+09;-2.054062565512705E+00;1.393857721746925E+02;
1.189000000000000E+09;-2.025484660063372E+00;1.388527019598014E+02;
1.190000000000000E+09;-2.002087551691819E+00;1.383371687052009E+02;
1.191000000000000E+09;-1.978072313898364E+00;1.378188829233367E+02;
1.192000000000000E+09;-1.960915826979230E+00;1.372967100778494E+02;
1.193000000000000E+09;-1.941364529694976E+00;1.368056992384826E+02;
1.194000000000000E+09;-1.924120129871297E+00;1.362678189165297E+02;
1.195000000000000E+09;-1.904980355272908E+00;1.357701256707009E+02;
1.196000000000000E+09;-1.894987208445985E+00;1.352578506419679E+02;
1.197000000000000E+09;-1.885363840047478E+00;1.347333995694850E+02;
1.198000000000000E+09;-1.872934632092002E+00;1.341823768175763E+02;
1.199000000000000E+09;-1.861214631223344E+00;1.336622892048865E+02;
1.200000000000000E+09;-1.855446571913687E+00;1.331411544072474E+02;
1.201000000000000E+09;-1.850273200211688E+00;1.326015264475754E+02;
1.202000000000000E+09;-1.844196827048847E+00;1.320463888864042E+02;
1.203000000000000E+09;-1.841217989643474E+00;1.315181440714206E+02;
1.204000000000000E+09;-1.838982269823671E+00;1.309780884669384E+02;
1.205000000000000E+09;-1.840026759266834E+00;1.304153507961582E+02;
1.206000000000000E+09;-1.839812687312266E+00;1.298931423740722E+02;
1.207000000000000E+09;-1.840083325873325E+00;1.293394393481579E+02;
1.208000000000000E+09;-1.841487084221848E+00;1.287717479583785E+02;
1.209000000000000E+09;-1.843320075898131E+00;1.282217342653901E+02;
1.210000000000000E+09;-1.845476089833711E+00;1.276591904506158E+02;
1.211000000000000E+09;-1.850295378761019E+00;1.271017856880920E+02;
1.212000000000000E+09;-1.852817976672529E+00;1.265554556794841E+02;
1.213000000000000E+09;-1.856382466795800E+00;1.259407182736148E+02;
1.214000000000000E+09;-1.861432290664432E+00;1.254186831810144E+02;
1.215000000000000E+09;-1.862538976433036E+00;1.248407295126365E+02;
1.216000000000000E+09;-1.865800585422286E+00;1.242435302896885E+02;
1.217000000000000E+09;-1.868184488571624E+00;1.236902472915985E+02;
1.218000000000000E+09;-1.868213457165528E+00;1.230874511192833E+02;
1.219000000000000E+09;-1.871970512065101E+00;1.225004940731756E+02;
1.220000000000000E+09;-1.874145503456907E+00;1.218976971845783E+02;
1.221000000000000E+09;-1.873062292576333E+00;1.213022844332341E+02;
1.222000000000000E+09;-1.879246247582802E+00;1.207129155736936E+02;
1.223000000000000E+09;-1.876339281218374E+00;1.201081618978316E+02;
1.224000000000000E+09;-1.880284500885254E+00;1.194918580226578E+02;
1.225000000000000E+09;-1.882037578153753E+00;1.189165812836682E+02;
1.226000000000000E+09;-1.879686918038920E+00;1.183106634086940E+02;
1.227000000000000E+09;-1.880511256702703E+00;1.177024572285470E+02;
1.228000000000000E+09;-1.880573313042305E+00;1.171267779555202E+02;
1.229000000000000E+09;-1.876748114119809E+00;1.165129471823677E+02;
1.230000000000000E+09;-1.873417431369734E+00;1.159413738597260E+02;
1.231000000000000E+09;-1.871318300180735E+00;1.153503013958508E+02;
1.232000000000000E+09;-1.867092320147384E+00;1.147698546401792E+02;
1.233000000000000E+09;-1.862128042067606E+00;1.141919324918351E+02;
1.234000000000000E+09;-1.858431480088309E+00;1.136086385474393E+02;
1.235000000000000E+09;-1.852867777105252E+00;1.130559364696559E+02;
1.236000000000000E+09;-1.842919677053317E+00;1.125146086502216E+02;
1.237000000000000E+09;-1.835295587397668E+00;1.119374961429242E+02;
1.238000000000000E+09;-1.829363893804754E+00;1.114426868247510E+02;
1.239000000000000E+09;-1.813924785364956E+00;1.108941352113611E+02;
1.240000000000000E+09;-1.799456337577073E+00;1.103317981531347E+02;
1.241000000000000E+09;-1.789687079716962E+00;1.098218020025144E+02;
1.242000000000000E+09;-1.777175570416196E+00;1.093063582419179E+02;
1.243000000000000E+09;-1.767907023498056E+00;1.087843497224712E+02;
1.244000000000000E+09;-1.749666454824765E+00;1.083197951049753E+02;
1.245000000000000E+09;-1.733429904645444E+00;1.078170949958088E+02;
1.246000000000000E+09;-1.718961789970672E+00;1.073307852920299E+02;
1.247000000000000E+09;-1.696464488495473E+00;1.068500895290822E+02;
1.248000000000000E+09;-1.684234632500905E+00;1.063791153566693E+02;
1.249000000000000E+09;-1.664500864693042E+00;1.059226888102833E+02;
1.250000000000000E+09;-1.645706470464652E+00;1.054637349106133E+02;
1.251000000000000E+09;-1.630786372055612E+00;1.050147205471112E+02;
1.252000000000000E+09;-1.609765646339551E+00;1.046110619162286E+02;
1.253000000000000E+09;-1.589524211307421E+00;1.041707369080094E+02;
1.254000000000000E+09;-1.571746640469123E+00;1.037175891055868E+02;
1.255000000000000E+09;-1.551964039703780E+00;1.032815302889583E+02;
1.256000000000000E+09;-1.533554684267586E+00;1.028614223341901E+02;
1.257000000000000E+09;-1.516791610624026E+00;1.024740703539100E+02;
1.258000000000000E+09;-1.495767702658363E+00;1.020780019989400E+02;
1.259000000000000E+09;-1.479570087866406E+00;1.016568504547814E+02;
1.260000000000000E+09;-1.459276029849051E+00;1.012491528868369E+02;
1.261000000000000E+09;-1.446762236746760E+00;1.008911935797850E+02;
1.262000000000000E+09;-1.431019781677284E+00;1.004985505493351E+02;
1.263000000000000E+09;-1.411033483740317E+00;1.001279698443821E+02;
1.264000000000000E+09;-1.398020944208380E+00;9.970977652555233E+01;
1.265000000000000E+09;-1.383350668419424E+00;9.936199715437030E+01;
1.266000000000000E+09;-1.366634542162728E+00;9.902438326835951E+01;
1.267000000000000E+09;-1.351918289843252E+00;9.862990069314014E+01;
1.268000000000000E+09;-1.339733701543135E+00;9.825355785906622E+01;
1.269000000000000E+09;-1.326548462086345E+00;9.786471550728211E+01;
1.270000000000000E+09;-1.313745456990897E+00;9.751275918891531E+01;
1.271000000000000E+09;-1.303333718355244E+00;9.715374101712764E+01;
1.272000000000000E+09;-1.294709217259644E+00;9.676547794386470E+01;
1.273000000000000E+09;-1.285861449170424E+00;9.641220648501876E+01;
1.274000000000000E+09;-1.275449872275015E+00;9.603099460172935E+01;
1.275000000000000E+09;-1.268772757391354E+00;9.568121650463840E+01;
1.276000000000000E+09;-1.260453742316818E+00;9.528285077573437E+01;
1.277000000000000E+09;-1.251685110888056E+00;9.494940044733488E+01;
1.278000000000000E+09;-1.252594044448384E+00;9.455281213971853E+01;
1.279000000000000E+09;-1.249920397046281E+00;9.417862914664815E+01;
1.280000000000000E+09;-1.244905288523782E+00;9.380717132991336E+01;
1.281000000000000E+09;-1.245071752503580E+00;9.343533417039765E+01;
1.282000000000000E+09;-1.244393781704352E+00;9.303620532551938E+01;
1.283000000000000E+09;-1.242454783980163E+00;9.262506535210358E+01;
1.284000000000000E+09;-1.242285645536571E+00;9.227887700580409E+01;
1.285000000000000E+09;-1.241541646019098E+00;9.187402026902352E+01;
1.286000000000000E+09;-1.246069398814192E+00;9.147096751951354E+01;
1.287000000000000E+09;-1.247009830095988E+00;9.104990087813968E+01;
1.288000000000000E+09;-1.246963613762802E+00;9.063311011164551E+01;
1.289000000000000E+09;-1.250929024696732E+00;9.024586940123277E+01;
1.290000000000000E+09;-1.257599859660956E+00;8.983661593181800E+01;
1.291000000000000E+09;-1.260338475930656E+00;8.940674917085060E+01;
1.292000000000000E+09;-1.262699063174427E+00;8.898316555157130E+01;
