# Version 1.00
#
freq[Hz];db:Trc4_S11;ang:Trc4_S11;
1.000000000000000E+09;-1.362762460209358E+00;1.576547182265229E+02;
1.001000000000000E+09;-1.387599661216446E+00;1.572229300250113E+02;
1.002000000000000E+09;-1.414588093478020E+00;1.567616119523696E+02;
1.003000000000000E+09;-1.443087046410468E+00;1.563155610039500E+02;
1.004000000000000E+09;-1.468318800313370E+00;1.558434943302069E+02;
1.005000000000000E+09;-1.497415269556560E+00;1.553977092807959E+02;
1.006000000000000E+09;-1.525674510093434E+00;1.548904249862131E+02;
1.007000000000000E+09;-1.559397284563798E+00;1.544029608975346E+02;
1.008000000000000E+09;-1.593098939175076E+00;1.539239084873022E+02;
1.009000000000000E+09;-1.627070328240077E+00;1.534169513930050E+02;
1.010000000000000E+09;-1.660102052155602E+00;1.528843238949816E+02;
1.011000000000000E+09;-1.699710113672656E+00;1.523345096538862E+02;
1.012000000000000E+09;-1.733967481324705E+00;1.518019862875433E+02;
1.013000000000000E+09;-1.774143452706205E+00;1.512648308290912E+02;
1.014000000000000E+09;-1.814846423101717E+00;1.506741189757859E+02;
1.015000000000000E+09;-1.855400304070024E+00;1.501115765729369E+02;
1.016000000000000E+09;-1.900152531704416E+00;1.495278795174349E+02;
1.017000000000000E+09;-1.943184705435949E+00;1.489161235273689E+02;
1.018000000000000E+09;-1.990333495526979E+00;1.483054062831442E+02;
1.019000000000000E+09;-2.039102853488911E+00;1.476961356648724E+02;
1.020000000000000E+09;-2.086357484728897E+00;1.470800200977352E+02;
1.021000000000000E+09;-2.136636714870572E+00;1.464356829814614E+02;
1.022000000000000E+09;-2.188131400268554E+00;1.457943720700576E+02;
1.023000000000000E+09;-2.243178551359729E+00;1.451681897684213E+02;
1.024000000000000E+09;-2.294117727504180E+00;1.445283912038599E+02;
1.025000000000000E+09;-2.351842285221034E+00;1.438501594148274E+02;
1.026000000000000E+09;-2.405436217926439E+00;1.431974724653723E+02;
1.027000000000000E+09;-2.458396590001218E+00;1.425567164858962E+02;
1.028000000000000E+09;-2.518978246612451E+00;1.418563216592288E+02;
1.029000000000000E+09;-2.570349690537030E+00;1.412133691582251E+02;
1.030000000000000E+09;-2.634738294024453E+00;1.405386546971230E+02;
1.031000000000000E+09;-2.687734577765168E+00;1.398735542935071E+02;
1.032000000000000E+09;-2.745998194542328E+00;1.391947703797649E+02;
1.033000000000000E+09;-2.804505516290394E+00;1.385201153911628E+02;
1.034000000000000E+09;-2.864831281752718E+00;1.378442443633257E+02;
1.035000000000000E+09;-2.923030980072330E+00;1.371843578777105E+02;
1.036000000000000E+09;-2.978453158982752E+00;1.365190069403142E+02;
1.037000000000000E+09;-3.038704639408448E+00;1.358441945951567E+02;
1.038000000000000E+09;-3.093903136000331E+00;1.352285762267029E+02;
1.039000000000000E+09;-3.149264553761942E+00;1.345603991817128E+02;
1.040000000000000E+09;-3.203951418354249E+00;1.339072015989056E+02;
1.041000000000000E+09;-3.263516574852545E+00;1.332826926606889E+02;
1.042000000000000E+09;-3.320172195136170E+00;1.326448460749831E+02;
1.043000000000000E+09;-3.376377400624852E+00;1.319897360599279E+02;
1.044000000000000E+09;-3.427355386938113E+00;1.313200903004102E+02;
1.045000000000000E+09;-3.485300990900711E+00;1.307471176049038E+02;
1.046000000000000E+09;-3.532832608053911E+00;1.301320401031645E+02;
1.047000000000000E+09;-3.588481151363634E+00;1.295270753012794E+02;
1.048000000000000E+09;-3.640088495001084E+00;1.289141024077469E+02;
1.049000000000000E+09;-3.692410877106314E+00;1.283418703252878E+02;
1.050000000000000E+09;-3.742947232343428E+00;1.277474212748551E+02;
1.051000000000000E+09;-3.792383492693940E+00;1.271595534599322E+02;
1.052000000000000E+09;-3.844941671439710E+00;1.265921703320467E+02;
1.053000000000000E+09;-3.891894851231980E+00;1.260165592709325E+02;
1.054000000000000E+09;-3.944577140345297E+00;1.254540244694254E+02;
1.055000000000000E+09;-3.984896683441471E+00;1.248759448588461E+02;
1.056000000000000E+09;-4.038041527015219E+00;1.243528047454132E+02;
1.057000000000000E+09;-4.086845426161965E+00;1.238024558717299E+02;
1.058000000000000E+09;-4.137390832756147E+00;1.232303067417014E+02;
1.059000000000000E+09;-4.190729777368186E+00;1.226959856786209E+02;
1.060000000000000E+09;-4.240482894855041E+00;1.221571723962697E+02;
1.061000000000000E+09;-4.297508147816857E+00;1.216197613393249E+02;
1.062000000000000E+09;-4.350870763865485E+00;1.210497170613391E+02;
1.063000000000000E+09;-4.408109162543948E+00;1.205614743442758E+02;
1.064000000000000E+09;-4.461771610713200E+00;1.200553871094477E+02;
1.065000000000000E+09;-4.527200936261479E+00;1.195435046924977E+02;
1.066000000000000E+09;-4.591622978365795E+00;1.189952841834907E+02;
1.067000000000000E+09;-4.652980074914328E+00;1.185057796046484E+02;
1.068000000000000E+09;-4.724277124965715E+00;1.180288060716785E+02;
1.069000000000000E+09;-4.790496717988201E+00;1.174919462024008E+02;
1.070000000000000E+09;-4.866183364292504E+00;1.169744782667380E+02;
1.071000000000000E+09;-4.941627110069374E+00;1.164943923806097E+02;
1.072000000000000E+09;-5.023965548469099E+00;1.159888597180799E+02;
1.073000000000000E+09;-5.105867084870118E+00;1.154600219598303E+02;
1.074000000000000E+09;-5.198403263027734E+00;1.149557332150762E+02;
1.075000000000000E+09;-5.291714978674534E+00;1.144720600330373E+02;
1.076000000000000E+09;-5.392115753446578E+00;1.139667638975868E+02;
1.077000000000000E+09;-5.498813860126716E+00;1.134298857952696E+02;
1.078000000000000E+09;-5.606423837667008E+00;1.129727020096154E+02;
1.079000000000000E+09;-5.719897350963523E+00;1.124744605531400E+02;
1.080000000000000E+09;-5.849103943323287E+00;1.120033401826303E+02;
1.081000000000000E+09;-5.982037199645324E+00;1.114684990098566E+02;
1.082000000000000E+09;-6.121112391213592E+00;1.110222825050722E+02;
1.083000000000000E+09;-6.264438725024181E+00;1.105421365603073E+02;
1.084000000000000E+09;-6.417589587148952E+00;1.100346314784527E+02;
1.085000000000000E+09;-6.587041252958382E+00;1.095837966718147E+02;
1.086000000000000E+09;-6.765428671676247E+00;1.091504361965041E+02;
1.087000000000000E+09;-6.950354900967368E+00;1.087204261587451E+02;
1.088000000000000E+09;-7.143758794749972E+00;1.082965873141019E+02;
1.089000000000000E+09;-7.351545184044074E+00;1.079536408697888E+02;
1.090000000000000E+09;-7.570144748215007E+00;1.076219338276217E+02;
1.091000000000000E+09;-7.798930795100319E+00;1.073173675860227E+02;
1.092000000000000E+09;-8.041828743465484E+00;1.070273829981600E+02;
1.093000000000000E+09;-8.290946032802150E+00;1.068216871110075E+02;
1.094000000000000E+09;-8.563227488232052E+00;1.066244366314038E+02;
1.095000000000000E+09;-8.846430517729138E+00;1.065147596807972E+02;
1.096000000000000E+09;-9.145565309993394E+00;1.064392186683761E+02;
1.097000000000000E+09;-9.452620794911619E+00;1.065195451536566E+02;
1.098000000000000E+09;-9.788070907750203E+00;1.066483427596980E+02;
1.099000000000000E+09;-1.012827095017503E+01;1.069446335905693E+02;
1.100000000000000E+09;-1.049171807203437E+01;1.073260944241558E+02;
1.101000000000000E+09;-1.086064369072559E+01;1.078631261736834E+02;
1.102000000000000E+09;-1.124450818197337E+01;1.086086895779267E+02;
1.103000000000000E+09;-1.163930400725371E+01;1.095308339866480E+02;
1.104000000000000E+09;-1.204436365611762E+01;1.107031658929000E+02;
1.105000000000000E+09;-1.245161913449885E+01;1.120396997105955E+02;
1.106000000000000E+09;-1.286632074337351E+01;1.136991107181726E+02;
1.107000000000000E+09;-1.328111563983835E+01;1.157514614441199E+02;
1.108000000000000E+09;-1.367438151912508E+01;1.180354752386087E+02;
1.109000000000000E+09;-1.406734105284865E+01;1.206836672833285E+02;
1.110000000000000E+09;-1.441742307927916E+01;1.236866661266362E+02;
1.111000000000000E+09;-1.472116875681733E+01;1.271309246679879E+02;
1.112000000000000E+09;-1.496559512513773E+01;1.308472151651739E+02;
1.113000000000000E+09;-1.515641602853010E+01;1.347190102333559E+02;
1.114000000000000E+09;-1.526753463591552E+01;1.389066269301986E+02;
1.115000000000000E+09;-1.528677270374266E+01;1.431427202795890E+02;
1.116000000000000E+09;-1.524050580355814E+01;1.472086141744460E+02;
1.117000000000000E+09;-1.510512622226902E+01;1.511357683292043E+02;
1.118000000000000E+09;-1.489980390780899E+01;1.548873713342549E+02;
1.119000000000000E+09;-1.464714987684842E+01;1.584741228700944E+02;
1.120000000000000E+09;-1.433235772486628E+01;1.615818377568293E+02;
1.121000000000000E+09;-1.397877832976280E+01;1.643217539837356E+02;
1.122000000000000E+09;-1.359651522370107E+01;1.668325079581531E+02;
1.123000000000000E+09;-1.319087106056356E+01;1.688108665131998E+02;
1.124000000000000E+09;-1.277606927043425E+01;1.704720789342842E+02;
1.125000000000000E+09;-1.236756063451994E+01;1.717631692644327E+02;
1.126000000000000E+09;-1.195556448308710E+01;1.728668881364344E+02;
1.127000000000000E+09;-1.155562556461867E+01;1.736677644605851E+02;
1.128000000000000E+09;-1.115852883767122E+01;1.741682580917630E+02;
1.129000000000000E+09;-1.077306485913025E+01;1.744846544176985E+02;
1.130000000000000E+09;-1.040611409518533E+01;1.746456081564279E+02;
1.131000000000000E+09;-1.005894116889776E+01;1.746048400110246E+02;
1.132000000000000E+09;-9.718396452665376E+00;1.744452614175874E+02;
1.133000000000000E+09;-9.394731937799719E+00;1.741235081862254E+02;
1.134000000000000E+09;-9.087801536099354E+00;1.737839657366939E+02;
1.135000000000000E+09;-8.800121122717954E+00;1.733558246869076E+02;
1.136000000000000E+09;-8.523900410658472E+00;1.728659822757126E+02;
1.137000000000000E+09;-8.250874039359251E+00;1.723463144854805E+02;
1.138000000000000E+09;-7.990406150002921E+00;1.717525340501543E+02;
1.139000000000000E+09;-7.745636179026581E+00;1.711261605739321E+02;
1.140000000000000E+09;-7.503513783847609E+00;1.705248889044028E+02;
1.141000000000000E+09;-7.267824408097318E+00;1.698350326610993E+02;
1.142000000000000E+09;-7.043037851024422E+00;1.691031117764600E+02;
1.143000000000000E+09;-6.826019396106112E+00;1.684057279549163E+02;
1.144000000000000E+09;-6.615208867927517E+00;1.676480510906673E+02;
1.145000000000000E+09;-6.410302947965540E+00;1.669160836823015E+02;
1.146000000000000E+09;-6.217211629620097E+00;1.661193016994043E+02;
1.147000000000000E+09;-6.022074985309712E+00;1.653751886108937E+02;
1.148000000000000E+09;-5.834537570693515E+00;1.646095522852371E+02;
1.149000000000000E+09;-5.656132615496724E+00;1.638078022912821E+02;
1.150000000000000E+09;-5.482857368279878E+00;1.630044662139250E+02;
1.151000000000000E+09;-5.309014697443378E+00;1.622270078501046E+02;
1.152000000000000E+09;-5.147822411983514E+00;1.613699665981560E+02;
1.153000000000000E+09;-4.987203292545122E+00;1.605626429588200E+02;
1.154000000000000E+09;-4.837371344837972E+00;1.597717362602537E+02;
1.155000000000000E+09;-4.692149061136409E+00;1.589626513316234E+02;
1.156000000000000E+09;-4.547711745150848E+00;1.581807952399933E+02;
1.157000000000000E+09;-4.413310614323259E+00;1.573513353182386E+02;
1.158000000000000E+09;-4.285549412953756E+00;1.565952212034522E+02;
1.159000000000000E+09;-4.158088469370646E+00;1.558096441159244E+02;
1.160000000000000E+09;-4.039610133859747E+00;1.550555079508669E+02;
1.161000000000000E+09;-3.922854709483204E+00;1.543568013074033E+02;
1.162000000000000E+09;-3.814625893146033E+00;1.535885307963366E+02;
1.163000000000000E+09;-3.708192680113586E+00;1.528720548878413E+02;
1.164000000000000E+09;-3.602863467588541E+00;1.521450799223466E+02;
1.165000000000000E+09;-3.504712112064253E+00;1.514557672044789E+02;
1.166000000000000E+09;-3.412399339313981E+00;1.507917244565548E+02;
1.167000000000000E+09;-3.320807150442968E+00;1.501233153027319E+02;
1.168000000000000E+09;-3.235513182000957E+00;1.494664111676381E+02;
1.169000000000000E+09;-3.149704520444217E+00;1.488459253222591E+02;
1.170000000000000E+09;-3.071200525237349E+00;1.482188183120475E+02;
1.171000000000000E+09;-2.992398517067385E+00;1.475832737394269E+02;
1.172000000000000E+09;-2.919184923750584E+00;1.469887440007321E+02;
1.173000000000000E+09;-2.848218176523198E+00;1.463859991544357E+02;
1.174000000000000E+09;-2.779169064858080E+00;1.458091376022029E+02;
1.175000000000000E+09;-2.714407150053615E+00;1.452344287502259E+02;
1.176000000000000E+09;-2.653475059686484E+00;1.446320021229768E+02;
1.177000000000000E+09;-2.593404454653596E+00;1.440718570125048E+02;
1.178000000000000E+09;-2.537883675244412E+00;1.435195688839019E+02;
1.179000000000000E+09;-2.486640795600078E+00;1.429279244208243E+02;
1.180000000000000E+09;-2.439966657547441E+00;1.423949137021393E+02;
1.181000000000000E+09;-2.391393182664241E+00;1.418686731847641E+02;
1.182000000000000E+09;-2.352190216905074E+00;1.413313927247725E+02;
1.183000000000000E+09;-2.311858049396806E+00;1.408172412531326E+02;
1.184000000000000E+09;-2.272192832581943E+00;1.402927058757872E+02;
1.185000000000000E+09;-2.240106647040304E+00;1.397690533974919E+02;
1.186000000000000E+09;-2.204906098940126E+00;1.392778934328314E+02;
1.187000000000000E+09;-2.173208595119156E+00;1.387619365195485E+02;
1.188000000000000E+09;-2.143919933145003E+00;1.382764557622447E+02;
1.189000000000000E+09;-2.118693401936649E+00;1.377525015250205E+02;
1.190000000000000E+09;-2.089295475728171E+00;1.372585761835553E+02;
1.191000000000000E+09;-2.069872443225279E+00;1.367337833403749E+02;
1.192000000000000E+09;-2.053111395639405E+00;1.362536165205979E+02;
1.193000000000000E+09;-2.031570672857044E+00;1.357624654365764E+02;
1.194000000000000E+09;-2.018131603668777E+00;1.352293181332955E+02;
1.195000000000000E+09;-2.003252508552368E+00;1.347583445285122E+02;
1.196000000000000E+09;-1.986817586702394E+00;1.342702676563648E+02;
1.197000000000000E+09;-1.976823680367072E+00;1.337545063067537E+02;
1.198000000000000E+09;-1.968285411578114E+00;1.332333633861476E+02;
1.199000000000000E+09;-1.954523954299323E+00;1.327459087973355E+02;
1.200000000000000E+09;-1.948593258512666E+00;1.322246956549786E+02;
1.201000000000000E+09;-1.943941163868818E+00;1.317061567999704E+02;
1.202000000000000E+09;-1.936281934136413E+00;1.311803950154013E+02;
1.203000000000000E+09;-1.933372618456137E+00;1.306386983983140E+02;
1.204000000000000E+09;-1.930371118175816E+00;1.301012317723795E+02;
1.205000000000000E+09;-1.927965363461535E+00;1.295741024344256E+02;
1.206000000000000E+09;-1.929799312842492E+00;1.290527750103373E+02;
1.207000000000000E+09;-1.931491207688616E+00;1.284936940687990E+02;
1.208000000000000E+09;-1.929359628588928E+00;1.279402011656005E+02;
1.209000000000000E+09;-1.926594349960492E+00;1.273951979433614E+02;
1.210000000000000E+09;-1.930902542106302E+00;1.268499611065758E+02;
1.211000000000000E+09;-1.931019973941061E+00;1.262878321103143E+02;
1.212000000000000E+09;-1.936353745184842E+00;1.257412436915906E+02;
1.213000000000000E+09;-1.938142987929041E+00;1.251126798014357E+02;
1.214000000000000E+09;-1.941601750177779E+00;1.245626932227267E+02;
1.215000000000000E+09;-1.942915200141368E+00;1.239943951264386E+02;
1.216000000000000E+09;-1.947082885191910E+00;1.233982671165030E+02;
1.217000000000000E+09;-1.951179920662576E+00;1.228271924845874E+02;
1.218000000000000E+09;-1.953489031033479E+00;1.222292760203803E+02;
1.219000000000000E+09;-1.957868109251695E+00;1.216520026136410E+02;
1.220000000000000E+09;-1.958104268333406E+00;1.210371489266842E+02;
1.221000000000000E+09;-1.959153710148330E+00;1.204611445438018E+02;
1.222000000000000E+09;-1.962649014556422E+00;1.198600994608339E+02;
1.223000000000000E+09;-1.959305075943284E+00;1.192770241518099E+02;
1.224000000000000E+09;-1.963975607351387E+00;1.186370558664248E+02;
1.225000000000000E+09;-1.962059951074351E+00;1.180463472286556E+02;
1.226000000000000E+09;-1.962628051672824E+00;1.174314286855889E+02;
1.227000000000000E+09;-1.964122036314103E+00;1.168225639785740E+02;
1.228000000000000E+09;-1.965751821021434E+00;1.162396113471030E+02;
1.229000000000000E+09;-1.961822834275385E+00;1.156443677791686E+02;
1.230000000000000E+09;-1.965592717815436E+00;1.150550012044107E+02;
1.231000000000000E+09;-1.959095906271664E+00;1.144492717326243E+02;
1.232000000000000E+09;-1.953071702062467E+00;1.138896563501996E+02;
1.233000000000000E+09;-1.953680312369777E+00;1.133237175501310E+02;
1.234000000000000E+09;-1.946820963490185E+00;1.127376716407675E+02;
1.235000000000000E+09;-1.941064315661825E+00;1.121780460693027E+02;
1.236000000000000E+09;-1.931810337706152E+00;1.116209948295061E+02;
1.237000000000000E+09;-1.922657317263244E+00;1.110658029616973E+02;
1.238000000000000E+09;-1.917044439846271E+00;1.105479242136205E+02;
1.239000000000000E+09;-1.901528084864326E+00;1.100022934543160E+02;
1.240000000000000E+09;-1.890981382356213E+00;1.094983306379988E+02;
1.241000000000000E+09;-1.882373361182720E+00;1.089887386234522E+02;
1.242000000000000E+09;-1.868563290021755E+00;1.084533580236677E+02;
1.243000000000000E+09;-1.852224975254013E+00;1.079303079180754E+02;
1.244000000000000E+09;-1.835746065033589E+00;1.074746265110073E+02;
1.245000000000000E+09;-1.819506936302615E+00;1.069691633184197E+02;
1.246000000000000E+09;-1.807571377999287E+00;1.064992438417959E+02;
1.247000000000000E+09;-1.788244120463576E+00;1.059980076750847E+02;
1.248000000000000E+09;-1.769341430247717E+00;1.055301937322935E+02;
1.249000000000000E+09;-1.747101354444241E+00;1.050880488834144E+02;
1.250000000000000E+09;-1.733021838339269E+00;1.046303361075630E+02;
1.251000000000000E+09;-1.712283814970141E+00;1.041784291539338E+02;
1.252000000000000E+09;-1.694079945547136E+00;1.037517069492475E+02;
1.253000000000000E+09;-1.674949294148496E+00;1.033335226145193E+02;
1.254000000000000E+09;-1.658604609102235E+00;1.029058147094921E+02;
1.255000000000000E+09;-1.638947851217215E+00;1.024633360176743E+02;
1.256000000000000E+09;-1.620112139364799E+00;1.020487570918246E+02;
1.257000000000000E+09;-1.598726474234468E+00;1.016674061519444E+02;
1.258000000000000E+09;-1.580982966200128E+00;1.012543682521041E+02;
1.259000000000000E+09;-1.564614302472377E+00;1.008366392522568E+02;
1.260000000000000E+09;-1.544291462478961E+00;1.004429747569644E+02;
1.261000000000000E+09;-1.528047131771208E+00;1.000804253070385E+02;
1.262000000000000E+09;-1.512207888241946E+00;9.969454302204512E+01;
1.263000000000000E+09;-1.493025369260956E+00;9.932582954290926E+01;
1.264000000000000E+09;-1.477174916115343E+00;9.890486266362146E+01;
1.265000000000000E+09;-1.464001630175675E+00;9.856414518129652E+01;
1.266000000000000E+09;-1.449236389054051E+00;9.821187539652018E+01;
1.267000000000000E+09;-1.435374148490072E+00;9.782876839737557E+01;
1.268000000000000E+09;-1.421114612020502E+00;9.743339813935162E+01;
1.269000000000000E+09;-1.407670586404055E+00;9.707799913617167E+01;
1.270000000000000E+09;-1.395729666789313E+00;9.672097804386124E+01;
1.271000000000000E+09;-1.384728951315637E+00;9.637390706418923E+01;
1.272000000000000E+09;-1.373985379040222E+00;9.596401756340863E+01;
1.273000000000000E+09;-1.367091341777421E+00;9.561397198689713E+01;
1.274000000000000E+09;-1.361191686930687E+00;9.523738721669415E+01;
1.275000000000000E+09;-1.351812043196635E+00;9.487774071389076E+01;
1.276000000000000E+09;-1.342279051909185E+00;9.451021171600840E+01;
1.277000000000000E+09;-1.338969097273861E+00;9.412817289560489E+01;
1.278000000000000E+09;-1.336632236404613E+00;9.375991499066592E+01;
1.279000000000000E+09;-1.333700966024836E+00;9.338630783642165E+01;
1.280000000000000E+09;-1.325569419711998E+00;9.304752778496605E+01;
1.281000000000000E+09;-1.326453035813316E+00;9.263495042354762E+01;
1.282000000000000E+09;-1.326875744122961E+00;9.222612415457664E+01;
1.283000000000000E+09;-1.327439306814376E+00;9.184989870972608E+01;
1.284000000000000E+09;-1.323786123371656E+00;9.147222628402825E+01;
1.285000000000000E+09;-1.328590477300246E+00;9.108995749866908E+01;
1.286000000000000E+09;-1.331306107585377E+00;9.069132599798451E+01;
1.287000000000000E+09;-1.331973408102310E+00;9.024908462316941E+01;
1.288000000000000E+09;-1.335428877088495E+00;8.985284985617263E+01;
1.289000000000000E+09;-1.337115447113757E+00;8.947657719201590E+01;
1.290000000000000E+09;-1.344372748551222E+00;8.903891277267834E+01;
1.291000000000000E+09;-1.347017727829127E+00;8.860467873903042E+01;
1.292000000000000E+09;-1.353462257873468E+00;8.817857133105426E+01;
